(1784675311.164115) can0 18FEF1F8#FF0000FFFFFFFFFF
(1784675311.165273) can0 18F005F8#7DFFFF7DFFFFFFFF
(1784675311.180791) can0 1CECFFF1#20120003FF19F000
(1784675311.181736) can0 1CEBFFF1#0127100000000000
(1784675311.182740) can0 1CEBFFF1#0200000000000000
(1784675311.183715) can0 1CEBFFF1#03005BEDB4FFFFFF
(1784675311.209788) can0 18F015F1#0000464C46A245CE
(1784675311.264290) can0 18FEF1F8#FF0000FFFFFFFFFF
(1784675311.265954) can0 18F005F8#7DFFFF7DFFFFFFFF
(1784675311.281756) can0 1CECFFF1#20120003FF19F000
(1784675311.282719) can0 1CEBFFF1#0127100000000000
(1784675311.283714) can0 1CEBFFF1#0200000000000000
(1784675311.284697) can0 1CEBFFF1#03005BEDB4FFFFFF
(1784675311.310715) can0 18F015F1#0000464C46A245CE
(1784675311.364140) can0 18FEF1F8#FF0000FFFFFFFFFF
(1784675311.365308) can0 18F005F8#7DFFFF7DFFFFFFFF
(1784675311.381745) can0 1CECFFF1#20120003FF19F000
(1784675311.382721) can0 1CEBFFF1#0127100000000000
(1784675311.383720) can0 1CEBFFF1#0200000000000000
(1784675311.384699) can0 1CEBFFF1#03005BEDB4FFFFFF
(1784675311.410722) can0 18F015F1#0000464C46A245CE
(1784675311.464130) can0 18FEF1F8#FF0000FFFFFFFFFF
(1784675311.465356) can0 18F005F8#7DFFFF7DFFFFFFFF
(1784675311.481722) can0 1CECFFF1#20120003FF19F000
(1784675311.482706) can0 1CEBFFF1#0127100000000000
(1784675311.483723) can0 1CEBFFF1#0200000000000000
(1784675311.484697) can0 1CEBFFF1#03005BEDB4FFFFFF
(1784675311.510760) can0 18F015F1#0000464C46A245CE
(1784675311.564406) can0 18FEF1F8#FF0000FFFFFFFFFF
(1784675311.565825) can0 18F005F8#7DFFFF7DFFFFFFFF
(1784675311.582355) can0 1CECFFF1#20120003FF19F000
(1784675311.583261) can0 1CEBFFF1#0127100000000000
(1784675311.583793) can0 1CEBFFF1#0200000000000000
(1784675311.584780) can0 1CEBFFF1#03005BEDB4FFFFFF
(1784675311.610805) can0 18F015F1#0000464C46A245CE
(1784675311.664932) can0 18FEF1F8#FF0000FFFFFFFFFF
(1784675311.666074) can0 18F005F8#7DFFFF7DFFFFFFFF
(1784675311.681771) can0 1CECFFF1#20120003FF19F000
(1784675311.682758) can0 1CEBFFF1#0127100000000000
(1784675311.683729) can0 1CEBFFF1#0200000000000000
(1784675311.684702) can0 1CEBFFF1#03005BEDB4FFFFFF
(1784675311.710724) can0 18F015F1#0000464C46A345CE
(1784675311.764104) can0 18FEF1F8#FF0000FFFFFFFFFF
(1784675311.765296) can0 18F005F8#7DFFFF7DFFFFFFFF
(1784675311.781742) can0 1CECFFF1#20120003FF19F000
(1784675311.782719) can0 1CEBFFF1#0127100000000000
(1784675311.783731) can0 1CEBFFF1#0200000000000000
(1784675311.784715) can0 1CEBFFF1#03005BEDB4FFFFFF
(1784675311.810735) can0 18F015F1#0000464C46A345CE
(1784675311.864209) can0 18FEF1F8#FF0000FFFFFFFFFF
(1784675311.865511) can0 18F005F8#7DFFFF7DFFFFFFFF
(1784675311.881842) can0 1CECFFF1#20120003FF19F000
(1784675311.882736) can0 1CEBFFF1#0127100000000000
(1784675311.883755) can0 1CEBFFF1#0200000000000000
(1784675311.884733) can0 1CEBFFF1#03005BEDB4FFFFFF
(1784675311.911063) can0 18F015F1#0000464C46A345CE
(1784675311.920959) can0 18F017F1#FE30FCB2978E
(1784675311.921455) can0 18F018F1#FD5FFC5794D0
(1784675311.964114) can0 18FEF1F8#FF0000FFFFFFFFFF
(1784675311.965251) can0 18F005F8#7DFFFF7DFFFFFFFF
(1784675311.981837) can0 1CECFFF1#20120003FF19F000
(1784675311.983051) can0 1CEBFFF1#0127100000000000
(1784675311.983797) can0 1CEBFFF1#0200000000000000
(1784675311.984792) can0 1CEBFFF1#03005BEDB4FFFFFF
(1784675312.011088) can0 18F015F1#0000464C46A345CE
(1784675312.064163) can0 18FEF1F8#FF0000FFFFFFFFFF
(1784675312.065364) can0 18F005F8#7DFFFF7DFFFFFFFF
(1784675312.083274) can0 1CECFFF1#20120003FF19F000
(1784675312.083732) can0 1CEBFFF1#0127100000000000
(1784675312.084754) can0 1CEBFFF1#0200000000000000
(1784675312.085712) can0 1CEBFFF1#03005BEDB4FFFFFF
(1784675312.111794) can0 18F015F1#0000464C46A345CE
(1784675312.164170) can0 18FEF1F8#FF0000FFFFFFFFFF
(1784675312.165317) can0 18F005F8#7DFFFF7DFFFFFFFF
(1784675312.182743) can0 1CECFFF1#20120003FF19F000
(1784675312.183723) can0 1CEBFFF1#0127100000000000
(1784675312.184729) can0 1CEBFFF1#0200000000000000
(1784675312.185705) can0 1CEBFFF1#03005BEDB4FFFFFF
(1784675312.211974) can0 18F015F1#0000464C46A345CE
(1784675312.264455) can0 18FEF1F8#FF0000FFFFFFFFFF
(1784675312.265908) can0 18F005F8#7DFFFF7DFFFFFFFF
(1784675312.282986) can0 1CECFFF1#20120003FF19F000
(1784675312.283800) can0 1CEBFFF1#0127100000000000
(1784675312.284918) can0 1CEBFFF1#0200000000000000
(1784675312.285756) can0 1CEBFFF1#03005BEDB4FFFFFF
(1784675312.311740) can0 18F015F1#0000464C46A345CE
(1784675312.364136) can0 18FEF1F8#FF0000FFFFFFFFFF
(1784675312.365298) can0 18F005F8#7DFFFF7DFFFFFFFF
(1784675312.382748) can0 1CECFFF1#20120003FF19F000
(1784675312.383731) can0 1CEBFFF1#0127100000000000
(1784675312.384744) can0 1CEBFFF1#0200000000000000
(1784675312.385724) can0 1CEBFFF1#03005C2FF5FFFFFF
(1784675312.411725) can0 18F015F1#0000464C46A345CE
(1784675312.464156) can0 18FEF1F8#FF0000FFFFFFFFFF
(1784675312.465341) can0 18F005F8#7DFFFF7DFFFFFFFF
(1784675312.482778) can0 1CECFFF1#20120003FF19F000
(1784675312.483740) can0 1CEBFFF1#0127100000000000
(1784675312.484762) can0 1CEBFFF1#0200000000000000
(1784675312.485717) can0 1CEBFFF1#03005C2FF5FFFFFF
(1784675312.511773) can0 18F015F1#0000464C46A345CE
(1784675312.564295) can0 18FEF1F8#FF0000FFFFFFFFFF
(1784675312.565532) can0 18F005F8#7DFFFF7DFFFFFFFF
(1784675312.583024) can0 1CECFFF1#20120003FF19F000
(1784675312.583759) can0 1CEBFFF1#0127100000000000
(1784675312.584782) can0 1CEBFFF1#0200000000000000
(1784675312.585762) can0 1CEBFFF1#03005C2FF5FFFFFF
(1784675312.611815) can0 18F015F1#0000464C46A345CE
(1784675312.665341) can0 18FEF1F8#FF0000FFFFFFFFFF
(1784675312.667051) can0 18F005F8#7DFFFF7DFFFFFFFF
(1784675312.682802) can0 1CECFFF1#20120003FF19F000
(1784675312.683769) can0 1CEBFFF1#0127100000000000
(1784675312.684740) can0 1CEBFFF1#0200000000000000
(1784675312.685719) can0 1CEBFFF1#03005C2FF5FFFFFF
(1784675312.711995) can0 18F015F1#0000464C46A345CE
(1784675312.764130) can0 18FEF1F8#FF0000FFFFFFFFFF
(1784675312.765367) can0 18F005F8#7DFFFF7DFFFFFFFF
(1784675312.782759) can0 1CECFFF1#20120003FF19F000
(1784675312.783739) can0 1CEBFFF1#0127100000000000
(1784675312.784747) can0 1CEBFFF1#0200000000000000
(1784675312.785733) can0 1CEBFFF1#03005C2FF5FFFFFF
(1784675312.811741) can0 18F015F1#0000464C46A345CE
(1784675312.864115) can0 18FEF1F8#FF0000FFFFFFFFFF
(1784675312.865315) can0 18F005F8#7DFFFF7DFFFFFFFF
(1784675312.883735) can0 1CECFFF1#20120003FF19F000
(1784675312.884725) can0 1CEBFFF1#0127100000000000
(1784675312.885736) can0 1CEBFFF1#0200000000000000
(1784675312.886723) can0 1CEBFFF1#03005C2FF5FFFFFF
(1784675312.912874) can0 18F015F1#0000464C46A345CE
(1784675312.922693) can0 18F017F1#FDF6FCDC9822
(1784675312.923151) can0 18F018F1#FD81FC4495AC
(1784675312.964483) can0 18FEF1F8#FF0000FFFFFFFFFF
(1784675312.965735) can0 18F005F8#7DFFFF7DFFFFFFFF
(1784675312.983927) can0 1CECFFF1#20120003FF19F000
(1784675312.984743) can0 1CEBFFF1#0127100000000000
(1784675312.985743) can0 1CEBFFF1#0200000000000000
(1784675312.986739) can0 1CEBFFF1#03005C2FF5FFFFFF
(1784675313.012789) can0 18F015F1#0000464C46A345CE
(1784675313.064143) can0 18FEF1F8#FF0000FFFFFFFFFF
(1784675313.065320) can0 18F005F8#7DFFFF7DFFFFFFFF
(1784675313.083782) can0 1CECFFF1#20120003FF19F000
(1784675313.084770) can0 1CEBFFF1#0127100000000000
(1784675313.085746) can0 1CEBFFF1#0200000000000000
(1784675313.086723) can0 1CEBFFF1#03005C2FF5FFFFFF
(1784675313.112748) can0 18F015F1#0000464C46A345CE
(1784675313.164094) can0 18FEF1F8#FF0000FFFFFFFFFF
(1784675313.165259) can0 18F005F8#7DFFFF7DFFFFFFFF
(1784675313.183752) can0 1CECFFF1#20120003FF19F000
(1784675313.184742) can0 1CEBFFF1#0127100000000000
(1784675313.185749) can0 1CEBFFF1#0200000000000000
(1784675313.186729) can0 1CEBFFF1#03005C2FF5FFFFFF
(1784675313.212885) can0 18F015F1#0000464C46A345CE
(1784675313.264407) can0 18FEF1F8#FF0000FFFFFFFFFF
(1784675313.265928) can0 18F005F8#7DFFFF7DFFFFFFFF
(1784675313.283831) can0 1CECFFF1#20120003FF19F000
(1784675313.284749) can0 1CEBFFF1#0127100000000000
(1784675313.285737) can0 1CEBFFF1#0200000000000000
(1784675313.286715) can0 1CEBFFF1#03005C2FF5FFFFFF
(1784675313.312819) can0 18F015F1#0000464C46A345CE
(1784675313.364134) can0 18FEF1F8#FF0000FFFFFFFFFF
(1784675313.365338) can0 18F005F8#7DFFFF7DFFFFFFFF
(1784675313.383760) can0 1CECFFF1#20120003FF19F000
(1784675313.384754) can0 1CEBFFF1#0127100000000000
(1784675313.385753) can0 1CEBFFF1#0200000000000000
(1784675313.386740) can0 1CEBFFF1#03005C2FF5FFFFFF
(1784675313.412742) can0 18F015F1#0000464C46A345CE
(1784675313.464193) can0 18FEF1F8#FF0000FFFFFFFFFF
(1784675313.465375) can0 18F005F8#7DFFFF7DFFFFFFFF
(1784675313.483750) can0 1CECFFF1#20120003FF19F000
(1784675313.484730) can0 1CEBFFF1#0127100000000000
(1784675313.485738) can0 1CEBFFF1#0200000000000000
(1784675313.486720) can0 1CEBFFF1#03005C2FF5FFFFFF
(1784675313.512733) can0 18F015F1#0000464C46A345CE
(1784675313.564371) can0 18FEF1F8#FF0000FFFFFFFFFF
(1784675313.565551) can0 18F005F8#7DFFFF7DFFFFFFFF
(1784675313.583844) can0 1CECFFF1#20120003FF19F000
(1784675313.584760) can0 1CEBFFF1#0127100000000000
(1784675313.585750) can0 1CEBFFF1#0200000000000000
(1784675313.586771) can0 1CEBFFF1#03005DEF34FFFFFF
(1784675313.614055) can0 18F015F1#0000464C46A345CE
(1784675313.664125) can0 18FEF1F8#FF0000FFFFFFFFFF
(1784675313.665336) can0 18F005F8#7DFFFF7DFFFFFFFF
(1784675313.684780) can0 1CECFFF1#20120003FF19F000
(1784675313.685737) can0 1CEBFFF1#0127100000000000
(1784675313.686743) can0 1CEBFFF1#0200000000000000
(1784675313.687711) can0 1CEBFFF1#03005DEF34FFFFFF
(1784675313.713762) can0 18F015F1#0000464C46A345CE
(1784675313.764127) can0 18FEF1F8#FF0000FFFFFFFFFF
(1784675313.765339) can0 18F005F8#7DFFFF7DFFFFFFFF
(1784675313.784750) can0 1CECFFF1#20120003FF19F000
(1784675313.785731) can0 1CEBFFF1#0127100000000000
(1784675313.786747) can0 1CEBFFF1#0200000000000000
(1784675313.787720) can0 1CEBFFF1#03005DEF34FFFFFF
(1784675313.813759) can0 18F015F1#0000464C46A345CE
(1784675313.864365) can0 18FEF1F8#FF0000FFFFFFFFFF
(1784675313.865514) can0 18F005F8#7DFFFF7DFFFFFFFF
(1784675313.884853) can0 1CECFFF1#20120003FF19F000
(1784675313.885745) can0 1CEBFFF1#0127100000000000
(1784675313.886757) can0 1CEBFFF1#0200000000000000
(1784675313.887723) can0 1CEBFFF1#03005DEF34FFFFFF
(1784675313.913829) can0 18F015F1#0000464C46A345CE
(1784675313.923930) can0 18F017F1#FDF6FCDC9822
(1784675313.924559) can0 18F018F1#FD81FC4495AC
(1784675313.964435) can0 18FEF1F8#FF0000FFFFFFFFFF
(1784675313.965733) can0 18F005F8#7DFFFF7DFFFFFFFF
(1784675313.984744) can0 1CECFFF1#20120003FF19F000
(1784675313.985735) can0 1CEBFFF1#0127100000000000
(1784675313.986741) can0 1CEBFFF1#0200000000000000
(1784675313.987726) can0 1CEBFFF1#03005DEF34FFFFFF
(1784675314.013776) can0 18F015F1#0000464C46A345CE
(1784675314.064138) can0 18FEF1F8#FF0000FFFFFFFFFF
(1784675314.065322) can0 18F005F8#7DFFFF7DFFFFFFFF
(1784675314.084762) can0 1CECFFF1#20120003FF19F000
(1784675314.085792) can0 1CEBFFF1#0127100000000000
(1784675314.086763) can0 1CEBFFF1#0200000000000000
(1784675314.087722) can0 1CEBFFF1#03005DEF34FFFFFF
(1784675314.113739) can0 18F015F1#0000464C46A245CE
(1784675314.164122) can0 18FEF1F8#FF0000FFFFFFFFFF
(1784675314.165328) can0 18F005F8#7DFFFF7DFFFFFFFF
(1784675314.184773) can0 1CECFFF1#20120003FF19F000
(1784675314.185751) can0 1CEBFFF1#0127100000000000
(1784675314.186760) can0 1CEBFFF1#0200000000000000
(1784675314.187736) can0 1CEBFFF1#03005DEF34FFFFFF
(1784675314.213877) can0 18F015F1#0000464C46A245CE
(1784675314.264852) can0 18FEF1F8#FF0000FFFFFFFFFF
(1784675314.266250) can0 18F005F8#7DFFFF7DFFFFFFFF
(1784675314.285293) can0 1CECFFF1#20120003FF19F000
(1784675314.285842) can0 1CEBFFF1#0127100000000000
(1784675314.286771) can0 1CEBFFF1#0200000000000000
(1784675314.287742) can0 1CEBFFF1#03005DEF34FFFFFF
(1784675314.314309) can0 18F015F1#0000464C46A345CE
(1784675314.364863) can0 18FEF1F8#FF0000FFFFFFFFFF
(1784675314.366275) can0 18F005F8#7DFFFF7DFFFFFFFF
(1784675314.385865) can0 1CECFFF1#20120003FF19F000
(1784675314.386824) can0 1CEBFFF1#0127100000000000
(1784675314.387804) can0 1CEBFFF1#0200000000000000
(1784675314.388770) can0 1CEBFFF1#03005DEF34FFFFFF
(1784675314.414759) can0 18F015F1#0000464C46A345CE
(1784675314.464172) can0 18FEF1F8#FF0000FFFFFFFFFF
(1784675314.465397) can0 18F005F8#7DFFFF7DFFFFFFFF
(1784675314.485796) can0 1CECFFF1#20120003FF19F000
(1784675314.486785) can0 1CEBFFF1#0127100000000000
(1784675314.487766) can0 1CEBFFF1#0200000000000000
(1784675314.488756) can0 1CEBFFF1#03005DEF34FFFFFF
(1784675314.514849) can0 18F015F1#0000464C46A245CE
(1784675314.564189) can0 18FEF1F8#FF0000FFFFFFFFFF
(1784675314.565391) can0 18F005F8#7DFFFF7DFFFFFFFF
(1784675314.585864) can0 1CECFFF1#20120003FF19F000
(1784675314.586755) can0 1CEBFFF1#0127100000000000
(1784675314.587760) can0 1CEBFFF1#0200000000000000
(1784675314.588733) can0 1CEBFFF1#03005DEF34FFFFFF
(1784675314.615004) can0 18F015F1#0000464C46A245CE
(1784675314.666408) can0 18FEF1F8#FF0000FFFFFFFFFF
(1784675314.668247) can0 18F005F8#7DFFFF7DFFFFFFFF
(1784675314.685860) can0 1CECFFF1#20120003FF19F000
(1784675314.686758) can0 1CEBFFF1#0127100000000000
(1784675314.687800) can0 1CEBFFF1#0200000000000000
(1784675314.688752) can0 1CEBFFF1#03005EEE74FFFFFF
(1784675314.715073) can0 18F015F1#0000464C46A345CE
(1784675314.764122) can0 18FEF1F8#FF0000FFFFFFFFFF
(1784675314.765298) can0 18F005F8#7DFFFF7DFFFFFFFF
(1784675314.785764) can0 1CECFFF1#20120003FF19F000
(1784675314.786755) can0 1CEBFFF1#0127100000000000
(1784675314.787764) can0 1CEBFFF1#0200000000000000
(1784675314.788739) can0 1CEBFFF1#03005EEE74FFFFFF
(1784675314.814760) can0 18F015F1#0000464C46A345CE
(1784675314.864105) can0 18FEF1F8#FF0000FFFFFFFFFF
(1784675314.865308) can0 18F005F8#7DFFFF7DFFFFFFFF
(1784675314.885759) can0 1CECFFF1#20120003FF19F000
(1784675314.886750) can0 1CEBFFF1#0127100000000000
(1784675314.887764) can0 1CEBFFF1#0200000000000000
(1784675314.888741) can0 1CEBFFF1#03005EEE74FFFFFF
(1784675314.914849) can0 18F015F1#0000464C46A345CE
(1784675314.924805) can0 18F017F1#FE06FCD8973B
(1784675314.925186) can0 18F018F1#FD87FC6D95EE
(1784675314.964493) can0 18FEF1F8#FF0000FFFFFFFFFF
(1784675314.965790) can0 18F005F8#7DFFFF7DFFFFFFFF
(1784675314.987319) can0 1CECFFF1#20120003FF19F000
(1784675314.988324) can0 1CEBFFF1#0127100000000000
(1784675314.988856) can0 1CEBFFF1#0200000000000000
(1784675314.989839) can0 1CEBFFF1#03005EEE74FFFFFF
(1784675315.014869) can0 18F015F1#0000464C46A345CE
(1784675315.064151) can0 18FEF1F8#FF0000FFFFFFFFFF
(1784675315.065315) can0 18F005F8#7DFFFF7DFFFFFFFF
(1784675315.085879) can0 1CECFFF1#20120003FF19F000
(1784675315.086766) can0 1CEBFFF1#0127100000000000
(1784675315.087781) can0 1CEBFFF1#0200000000000000
(1784675315.088743) can0 1CEBFFF1#03005EEE74FFFFFF
(1784675315.114741) can0 18F015F1#0000464C46A345CE
(1784675315.164102) can0 18FEF1F8#FF0000FFFFFFFFFF
(1784675315.165248) can0 18F005F8#7DFFFF7DFFFFFFFF
(1784675315.186767) can0 1CECFFF1#20120003FF19F000
(1784675315.187758) can0 1CEBFFF1#0127100000000000
(1784675315.188769) can0 1CEBFFF1#0200000000000000
(1784675315.189746) can0 1CEBFFF1#03005EEE74FFFFFF
(1784675315.215749) can0 18F015F1#0000464C46A345CE
(1784675315.264392) can0 18FEF1F8#FF0000FFFFFFFFFF
(1784675315.265741) can0 18F005F8#7DFFFF7DFFFFFFFF
(1784675315.287033) can0 1CECFFF1#20120003FF19F000
(1784675315.287809) can0 1CEBFFF1#0127100000000000
(1784675315.288790) can0 1CEBFFF1#0200000000000000
(1784675315.289778) can0 1CEBFFF1#03005EEE74FFFFFF
(1784675315.315912) can0 18F015F1#0000464C46A345CE
(1784675315.364212) can0 18FEF1F8#FF0000FFFFFFFFFF
(1784675315.365732) can0 18F005F8#7DFFFF7DFFFFFFFF
(1784675315.386830) can0 1CECFFF1#20120003FF19F000
(1784675315.387759) can0 1CEBFFF1#0127100000000000
(1784675315.388767) can0 1CEBFFF1#0200000000000000
(1784675315.389743) can0 1CEBFFF1#03005EEE74FFFFFF
(1784675315.415762) can0 18F015F1#0000464C46A345CE
(1784675315.464182) can0 18FEF1F8#FF0000FFFFFFFFFF
(1784675315.465347) can0 18F005F8#7DFFFF7DFFFFFFFF
(1784675315.486791) can0 1CECFFF1#20120003FF19F000
(1784675315.487774) can0 1CEBFFF1#0127100000000000
(1784675315.488793) can0 1CEBFFF1#0200000000000000
(1784675315.489760) can0 1CEBFFF1#03005EEE74FFFFFF
(1784675315.515776) can0 18F015F1#0000464C46A245CE
(1784675315.564221) can0 18FEF1F8#FF0000FFFFFFFFFF
(1784675315.565438) can0 18F005F8#7DFFFF7DFFFFFFFF
(1784675315.586870) can0 1CECFFF1#20120003FF19F000
(1784675315.587787) can0 1CEBFFF1#0127100000000000
(1784675315.588795) can0 1CEBFFF1#0200000000000000
(1784675315.589772) can0 1CEBFFF1#03005EEE74FFFFFF
(1784675315.616243) can0 18F015F1#0000464C46A345CE
(1784675315.664098) can0 18FEF1F8#FF0000FFFFFFFFFF
(1784675315.665251) can0 18F005F8#7DFFFF7DFFFFFFFF
(1784675315.686768) can0 1CECFFF1#20120003FF19F000
(1784675315.687755) can0 1CEBFFF1#0127100000000000
(1784675315.688763) can0 1CEBFFF1#0200000000000000
(1784675315.689738) can0 1CEBFFF1#03005EEE74FFFFFF
(1784675315.715811) can0 18F015F1#0000464C46A345CE
(1784675315.764092) can0 18FEF1F8#FF0000FFFFFFFFFF
(1784675315.765220) can0 18F005F8#7DFFFF7DFFFFFFFF
(1784675315.787785) can0 1CECFFF1#20120003FF19F000
(1784675315.788762) can0 1CEBFFF1#0127100000000000
(1784675315.789769) can0 1CEBFFF1#0200000000000000
(1784675315.790763) can0 1CEBFFF1#03005F2EB5FFFFFF
(1784675315.816770) can0 18F015F1#0000464C46A345CE
(1784675315.864102) can0 18FEF1F8#FF0000FFFFFFFFFF
(1784675315.865306) can0 18F005F8#7DFFFF7DFFFFFFFF
(1784675315.886786) can0 1CECFFF1#20120003FF19F000
(1784675315.887794) can0 1CEBFFF1#0127100000000000
(1784675315.888789) can0 1CEBFFF1#0200000000000000
(1784675315.889772) can0 1CEBFFF1#03005F2EB5FFFFFF
(1784675315.916849) can0 18F015F1#0000464C46A345CE
(1784675315.926798) can0 18F017F1#FE06FCD8973B
(1784675315.927121) can0 18F018F1#FD87FC6D95EE
(1784675315.964194) can0 18FEF1F8#FF0000FFFFFFFFFF
(1784675315.965378) can0 18F005F8#7DFFFF7DFFFFFFFF
(1784675315.987945) can0 1CECFFF1#20120003FF19F000
(1784675315.988856) can0 1CEBFFF1#0127100000000000
(1784675315.989786) can0 1CEBFFF1#0200000000000000
(1784675315.990811) can0 1CEBFFF1#03005F2EB5FFFFFF
(1784675316.016795) can0 18F015F1#0000464C46A345CE
(1784675316.064169) can0 18FEF1F8#FF0000FFFFFFFFFF
(1784675316.065430) can0 18F005F8#7DFFFF7DFFFFFFFF
(1784675316.087839) can0 1CECFFF1#20120003FF19F000
(1784675316.088763) can0 1CEBFFF1#0127100000000000
(1784675316.089770) can0 1CEBFFF1#0200000000000000
(1784675316.090768) can0 1CEBFFF1#03005F2EB5FFFFFF
(1784675316.116749) can0 18F015F1#0000464C46A345CE
(1784675316.164078) can0 18FEF1F8#FF0000FFFFFFFFFF
(1784675316.165194) can0 18F005F8#7DFFFF7DFFFFFFFF
(1784675316.187771) can0 1CECFFF1#20120003FF19F000
(1784675316.188760) can0 1CEBFFF1#0127100000000000
(1784675316.189769) can0 1CEBFFF1#0200000000000000
(1784675316.190761) can0 1CEBFFF1#03005F2EB5FFFFFF
(1784675316.216771) can0 18F015F1#0000464C46A345CE
(1784675316.264343) can0 18FEF1F8#FF0000FFFFFFFFFF
(1784675316.265592) can0 18F005F8#7DFFFF7DFFFFFFFF
(1784675316.287971) can0 1CECFFF1#20120003FF19F000
(1784675316.288796) can0 1CEBFFF1#0127100000000000
(1784675316.289810) can0 1CEBFFF1#0200000000000000
(1784675316.290825) can0 1CEBFFF1#03005F2EB5FFFFFF
(1784675316.316935) can0 18F015F1#0000464C46A345CE
(1784675316.364094) can0 18FEF1F8#FF0000FFFFFFFFFF
(1784675316.365232) can0 18F005F8#7DFFFF7DFFFFFFFF
(1784675316.387848) can0 1CECFFF1#20120003FF19F000
(1784675316.388775) can0 1CEBFFF1#0127100000000000
(1784675316.389780) can0 1CEBFFF1#0200000000000000
(1784675316.390768) can0 1CEBFFF1#03005F2EB5FFFFFF
(1784675316.416776) can0 18F015F1#0000464C46A345CE
(1784675316.467288) can0 18FEF1F8#FF0000FFFFFFFFFF
(1784675316.468642) can0 18F005F8#7DFFFF7DFFFFFFFF
(1784675316.487858) can0 1CECFFF1#20120003FF19F000
(1784675316.488775) can0 1CEBFFF1#0127100000000000
(1784675316.489796) can0 1CEBFFF1#0200000000000000
(1784675316.490773) can0 1CEBFFF1#03005F2EB5FFFFFF
(1784675316.516782) can0 18F015F1#0000464C46A345CE
(1784675316.564198) can0 18FEF1F8#FF0000FFFFFFFFFF
(1784675316.565464) can0 18F005F8#7DFFFF7DFFFFFFFF
(1784675316.588908) can0 1CECFFF1#20120003FF19F000
(1784675316.589780) can0 1CEBFFF1#0127100000000000
(1784675316.590798) can0 1CEBFFF1#0200000000000000
(1784675316.591768) can0 1CEBFFF1#03005F2EB5FFFFFF
(1784675316.617930) can0 18F015F1#0000464C46A345CE
(1784675316.664535) can0 18FEF1F8#FF0000FFFFFFFFFF
(1784675316.665738) can0 18F005F8#7DFFFF7DFFFFFFFF
(1784675316.688851) can0 1CECFFF1#20120003FF19F000
(1784675316.689767) can0 1CEBFFF1#0127100000000000
(1784675316.690993) can0 1CEBFFF1#0200000000000000
(1784675316.691767) can0 1CEBFFF1#03005F2EB5FFFFFF
(1784675316.717853) can0 18F015F1#0000464C46A345CE
(1784675316.764428) can0 18FEF1F8#FF0000FFFFFFFFFF
(1784675316.765825) can0 18F005F8#7DFFFF7DFFFFFFFF
(1784675316.788905) can0 1CECFFF1#20120003FF19F000
(1784675316.789810) can0 1CEBFFF1#0127100000000000
(1784675316.790826) can0 1CEBFFF1#0200000000000000
(1784675316.791787) can0 1CEBFFF1#03005F2EB5FFFFFF
(1784675316.817854) can0 18F015F1#0000464C46A345CE
(1784675316.864098) can0 18FEF1F8#FF0000FFFFFFFFFF
(1784675316.865233) can0 18F005F8#7DFFFF7DFFFFFFFF
(1784675316.888793) can0 1CECFFF1#20120003FF19F000
(1784675316.889773) can0 1CEBFFF1#0127100000000000
(1784675316.890800) can0 1CEBFFF1#0200000000000000
(1784675316.891776) can0 1CEBFFF1#03005F2EB5FFFFFF
(1784675316.917835) can0 18F015F1#0000464C46A345CE
(1784675316.927816) can0 18F017F1#FDEDFCD396C3
(1784675316.928158) can0 18F018F1#FDA6FC5C9606
(1784675316.964352) can0 18FEF1F8#FF0000FFFFFFFFFF
(1784675316.965665) can0 18F005F8#7DFFFF7DFFFFFFFF
(1784675316.989268) can0 1CECFFF1#20120003FF19F000
(1784675316.990323) can0 1CEBFFF1#0127100000000000
(1784675316.990878) can0 1CEBFFF1#0200000000000000
(1784675316.991946) can0 1CEBFFF1#03005F2EB5FFFFFF
(1784675317.018455) can0 18F015F1#0000464C46A345CE
(1784675317.064575) can0 18FEF1F8#FF0000FFFFFFFFFF
(1784675317.066181) can0 18F005F8#7DFFFF7DFFFFFFFF
(1784675317.088838) can0 1CECFFF1#20120003FF19F000
(1784675317.089775) can0 1CEBFFF1#0127100000000000
(1784675317.091035) can0 1CEBFFF1#0200000000000000
(1784675317.091769) can0 1CEBFFF1#0300603EF5FFFFFF
(1784675317.117775) can0 18F015F1#0000464C46A345CE
(1784675317.164098) can0 18FEF1F8#FF0000FFFFFFFFFF
(1784675317.165248) can0 18F005F8#7DFFFF7DFFFFFFFF
(1784675317.188803) can0 1CECFFF1#20120003FF19F000
(1784675317.189782) can0 1CEBFFF1#0127100000000000
(1784675317.190810) can0 1CEBFFF1#0200000000000000
(1784675317.191785) can0 1CEBFFF1#0300603EF5FFFFFF
(1784675317.217778) can0 18F015F1#0000464C46A345CE
(1784675317.264278) can0 18FEF1F8#FF0000FFFFFFFFFF
(1784675317.265565) can0 18F005F8#7DFFFF7DFFFFFFFF
(1784675317.288992) can0 1CECFFF1#20120003FF19F000
(1784675317.289803) can0 1CEBFFF1#0127100000000000
(1784675317.290887) can0 1CEBFFF1#0200000000000000
(1784675317.291822) can0 1CEBFFF1#0300603EF5FFFFFF
(1784675317.317944) can0 18F015F1#0000464C46A345CE
(1784675317.364597) can0 18FEF1F8#FF0000FFFFFFFFFF
(1784675317.365741) can0 18F005F8#7DFFFF7DFFFFFFFF
(1784675317.389868) can0 1CECFFF1#20120003FF19F000
(1784675317.390803) can0 1CEBFFF1#0127100000000000
(1784675317.391811) can0 1CEBFFF1#0200000000000000
(1784675317.392797) can0 1CEBFFF1#0300603EF5FFFFFF
(1784675317.418796) can0 18F015F1#0000464C46A345CE
(1784675317.464104) can0 18FEF1F8#FF0000FFFFFFFFFF
(1784675317.465265) can0 18F005F8#7DFFFF7DFFFFFFFF
(1784675317.489826) can0 1CECFFF1#20120003FF19F000
(1784675317.490791) can0 1CEBFFF1#0127100000000000
(1784675317.491792) can0 1CEBFFF1#0200000000000000
(1784675317.492779) can0 1CEBFFF1#0300603EF5FFFFFF
(1784675317.518772) can0 18F015F1#0000464C46A345CE
(1784675317.564134) can0 18FEF1F8#FF0000FFFFFFFFFF
(1784675317.565360) can0 18F005F8#7DFFFF7DFFFFFFFF
(1784675317.589883) can0 1CECFFF1#20120003FF19F000
(1784675317.590802) can0 1CEBFFF1#0127100000000000
(1784675317.591806) can0 1CEBFFF1#0200000000000000
(1784675317.592791) can0 1CEBFFF1#0300603EF5FFFFFF
(1784675317.618856) can0 18F015F1#0000464C46A345CE
(1784675317.664295) can0 18FEF1F8#FF0000FFFFFFFFFF
(1784675317.665440) can0 18F005F8#7DFFFF7DFFFFFFFF
(1784675317.689788) can0 1CECFFF1#20120003FF19F000
(1784675317.690790) can0 1CEBFFF1#0127100000000000
(1784675317.691796) can0 1CEBFFF1#0200000000000000
(1784675317.692783) can0 1CEBFFF1#0300603EF5FFFFFF
(1784675317.718805) can0 18F015F1#0000464C46A345CE
(1784675317.764135) can0 18FEF1F8#FF0000FFFFFFFFFF
(1784675317.765292) can0 18F005F8#7DFFFF7DFFFFFFFF
(1784675317.789802) can0 1CECFFF1#20120003FF19F000
(1784675317.790791) can0 1CEBFFF1#0127100000000000
(1784675317.791803) can0 1CEBFFF1#0200000000000000
(1784675317.792785) can0 1CEBFFF1#0300603EF5FFFFFF
(1784675317.818787) can0 18F015F1#0000464C46A345CE
(1784675317.864106) can0 18FEF1F8#FF0000FFFFFFFFFF
(1784675317.865262) can0 18F005F8#7DFFFF7DFFFFFFFF
(1784675317.889801) can0 1CECFFF1#20120003FF19F000
(1784675317.890800) can0 1CEBFFF1#0127100000000000
(1784675317.891801) can0 1CEBFFF1#0200000000000000
(1784675317.892798) can0 1CEBFFF1#0300603EF5FFFFFF
(1784675317.918864) can0 18F015F1#0000464C46A345CE
(1784675317.928739) can0 18F017F1#FDEDFCD396C3
(1784675317.929169) can0 18F018F1#FDA6FC5C9606
(1784675317.964532) can0 18FEF1F8#FF0000FFFFFFFFFF
(1784675317.965929) can0 18F005F8#7DFFFF7DFFFFFFFF
(1784675317.989902) can0 1CECFFF1#20120003FF19F000
(1784675317.991160) can0 1CEBFFF1#0127100000000000
(1784675317.991914) can0 1CEBFFF1#0200000000000000
(1784675317.992816) can0 1CEBFFF1#0300603EF5FFFFFF
(1784675318.018790) can0 18F015F1#0000464C46A345CE
(1784675318.064154) can0 18FEF1F8#FF0000FFFFFFFFFF
(1784675318.065295) can0 18F005F8#7DFFFF7DFFFFFFFF
(1784675318.089839) can0 1CECFFF1#20120003FF19F000
(1784675318.090785) can0 1CEBFFF1#0127100000000000
(1784675318.091792) can0 1CEBFFF1#0200000000000000
(1784675318.092779) can0 1CEBFFF1#0300603EF5FFFFFF
(1784675318.118768) can0 18F015F1#0000464C46A345CE
(1784675318.164094) can0 18FEF1F8#FF0000FFFFFFFFFF
(1784675318.165289) can0 18F005F8#7DFFFF7DFFFFFFFF
(1784675318.190816) can0 1CECFFF1#20120003FF19F000
(1784675318.191799) can0 1CEBFFF1#0127100000000000
(1784675318.192809) can0 1CEBFFF1#0200000000000000
(1784675318.193796) can0 1CEBFFF1#0300603EF5FFFFFF
(1784675318.219780) can0 18F015F1#0000464C46A345CE
(1784675318.264595) can0 18FEF1F8#FF0000FFFFFFFFFF
(1784675318.265765) can0 18F005F8#7DFFFF7DFFFFFFFF
(1784675318.290944) can0 1CECFFF1#20120003FF19F000
(1784675318.291815) can0 1CEBFFF1#0127100000000000
(1784675318.292992) can0 1CEBFFF1#0200000000000000
(1784675318.293936) can0 1CEBFFF1#0300603EF5FFFFFF
(1784675318.320404) can0 18F015F1#0000464C46A345CE
(1784675318.364200) can0 18FEF1F8#FF0000FFFFFFFFFF
(1784675318.365390) can0 18F005F8#7DFFFF7DFFFFFFFF
(1784675318.390861) can0 1CECFFF1#20120003FF19F000
(1784675318.392078) can0 1CEBFFF1#0127100000000000
(1784675318.392826) can0 1CEBFFF1#0200000000000000
(1784675318.393810) can0 1CEBFFF1#030061FE34FFFFFF
(1784675318.419864) can0 18F015F1#0000464C46A345CE
(1784675318.464144) can0 18FEF1F8#FF0000FFFFFFFFFF
(1784675318.465337) can0 18F005F8#7DFFFF7DFFFFFFFF
(1784675318.490850) can0 1CECFFF1#20120003FF19F000
(1784675318.491790) can0 1CEBFFF1#0127100000000000
(1784675318.492798) can0 1CEBFFF1#0200000000000000
(1784675318.493774) can0 1CEBFFF1#030061FE34FFFFFF
(1784675318.519836) can0 18F015F1#0000464C46A345CE
(1784675318.564117) can0 18FEF1F8#FF0000FFFFFFFFFF
(1784675318.565290) can0 18F005F8#7DFFFF7DFFFFFFFF
(1784675318.590848) can0 1CECFFF1#20120003FF19F000
(1784675318.591804) can0 1CEBFFF1#0127100000000000
(1784675318.592810) can0 1CEBFFF1#0200000000000000
(1784675318.593783) can0 1CEBFFF1#030061FE34FFFFFF
(1784675318.619874) can0 18F015F1#0000464C46A345CE
(1784675318.664737) can0 18FEF1F8#FF0000FFFFFFFFFF
(1784675318.665921) can0 18F005F8#7DFFFF7DFFFFFFFF
(1784675318.690824) can0 1CECFFF1#20120003FF19F000
(1784675318.691827) can0 1CEBFFF1#0127100000000000
(1784675318.692804) can0 1CEBFFF1#0200000000000000
(1784675318.693859) can0 1CEBFFF1#030061FE34FFFFFF
(1784675318.719826) can0 18F015F1#0000464C46A345CE
(1784675318.764143) can0 18FEF1F8#FF0000FFFFFFFFFF
(1784675318.765378) can0 18F005F8#7DFFFF7DFFFFFFFF
(1784675318.790886) can0 1CECFFF1#20120003FF19F000
(1784675318.791800) can0 1CEBFFF1#0127100000000000
(1784675318.792821) can0 1CEBFFF1#0200000000000000
(1784675318.793795) can0 1CEBFFF1#030061FE34FFFFFF
(1784675318.819918) can0 18F015F1#0000464C46A345CE
(1784675318.864401) can0 18FEF1F8#FF0000FFFFFFFFFF
(1784675318.865653) can0 18F005F8#7DFFFF7DFFFFFFFF
(1784675318.890875) can0 1CECFFF1#20120003FF19F000
(1784675318.891803) can0 1CEBFFF1#0127100000000000
(1784675318.893089) can0 1CEBFFF1#0200000000000000
(1784675318.893850) can0 1CEBFFF1#030061FE34FFFFFF
(1784675318.919835) can0 18F015F1#0000464C46A345CE
(1784675318.930715) can0 18F017F1#FDF7FCAE96D5
(1784675318.931179) can0 18F018F1#FD6FFC399610
(1784675318.964302) can0 18FEF1F8#FF0000FFFFFFFFFF
(1784675318.965481) can0 18F005F8#7DFFFF7DFFFFFFFF
(1784675318.991935) can0 1CECFFF1#20120003FF19F000
(1784675318.992842) can0 1CEBFFF1#0127100000000000
(1784675318.993870) can0 1CEBFFF1#0200000000000000
(1784675318.994872) can0 1CEBFFF1#030061FE34FFFFFF
(1784675319.020904) can0 18F015F1#0000464C46A345CE
(1784675319.064940) can0 18FEF1F8#FF0000FFFFFFFFFF
(1784675319.066994) can0 18F005F8#7DFFFF7DFFFFFFFF
(1784675319.091850) can0 1CECFFF1#20120003FF19F000
(1784675319.092795) can0 1CEBFFF1#0127100000000000
(1784675319.093804) can0 1CEBFFF1#0200000000000000
(1784675319.094783) can0 1CEBFFF1#030061FE34FFFFFF
(1784675319.120852) can0 18F015F1#0000464C46A345CE
(1784675319.164248) can0 18FEF1F8#FF0000FFFFFFFFFF
(1784675319.165447) can0 18F005F8#7DFFFF7DFFFFFFFF
(1784675319.191853) can0 1CECFFF1#20120003FF19F000
(1784675319.192806) can0 1CEBFFF1#0127100000000000
(1784675319.193805) can0 1CEBFFF1#0200000000000000
(1784675319.194779) can0 1CEBFFF1#030061FE34FFFFFF
(1784675319.220932) can0 18F015F1#0000464C46A345CE
(1784675319.264276) can0 18FEF1F8#FF0000FFFFFFFFFF
(1784675319.265457) can0 18F005F8#7DFFFF7DFFFFFFFF
(1784675319.291854) can0 1CECFFF1#20120003FF19F000
(1784675319.292798) can0 1CEBFFF1#0127100000000000
(1784675319.293808) can0 1CEBFFF1#0200000000000000
(1784675319.294788) can0 1CEBFFF1#030061FE34FFFFFF
(1784675319.320838) can0 18F015F1#0000464C46A345CE
(1784675319.364881) can0 18FEF1F8#FF0000FFFFFFFFFF
(1784675319.366070) can0 18F005F8#7DFFFF7DFFFFFFFF
(1784675319.392109) can0 1CECFFF1#20120003FF19F000
(1784675319.392835) can0 1CEBFFF1#0127100000000000
(1784675319.393851) can0 1CEBFFF1#0200000000000000
(1784675319.395022) can0 1CEBFFF1#030061FE34FFFFFF
(1784675319.420828) can0 18F015F1#0000464C46A345CE
(1784675319.464254) can0 18FEF1F8#FF0000FFFFFFFFFF
(1784675319.465420) can0 18F005F8#7DFFFF7DFFFFFFFF
(1784675319.491863) can0 1CECFFF1#20120003FF19F000
(1784675319.492800) can0 1CEBFFF1#0127100000000000
(1784675319.493807) can0 1CEBFFF1#0200000000000000
(1784675319.494786) can0 1CEBFFF1#030062FF74FFFFFF
(1784675319.520833) can0 18F015F1#0000464C46A345CE
(1784675319.564145) can0 18FEF1F8#FF0000FFFFFFFFFF
(1784675319.565283) can0 18F005F8#7DFFFF7DFFFFFFFF
(1784675319.591868) can0 1CECFFF1#20120003FF19F000
(1784675319.592813) can0 1CEBFFF1#0127100000000000
(1784675319.593826) can0 1CEBFFF1#0200000000000000
(1784675319.594806) can0 1CEBFFF1#030062FF74FFFFFF
(1784675319.620888) can0 18F015F1#0000464C46A345CE
(1784675319.664475) can0 18FEF1F8#FF0000FFFFFFFFFF
(1784675319.666093) can0 18F005F8#7DFFFF7DFFFFFFFF
(1784675319.692855) can0 1CECFFF1#20120003FF19F000
(1784675319.693801) can0 1CEBFFF1#0127100000000000
(1784675319.694811) can0 1CEBFFF1#0200000000000000
(1784675319.695790) can0 1CEBFFF1#030062FF74FFFFFF
(1784675319.721791) can0 18F015F1#0000464C46A345CE
(1784675319.764136) can0 18FEF1F8#FF0000FFFFFFFFFF
(1784675319.765391) can0 18F005F8#7DFFFF7DFFFFFFFF
(1784675319.792822) can0 1CECFFF1#20120003FF19F000
(1784675319.793808) can0 1CEBFFF1#0127100000000000
(1784675319.794819) can0 1CEBFFF1#0200000000000000
(1784675319.795797) can0 1CEBFFF1#030062FF74FFFFFF
(1784675319.821842) can0 18F015F1#0000464C46A345CE
(1784675319.864108) can0 18FEF1F8#FF0000FFFFFFFFFF
(1784675319.865241) can0 18F005F8#7DFFFF7DFFFFFFFF
(1784675319.892835) can0 1CECFFF1#20120003FF19F000
(1784675319.893810) can0 1CEBFFF1#0127100000000000
(1784675319.894821) can0 1CEBFFF1#0200000000000000
(1784675319.895802) can0 1CEBFFF1#030062FF74FFFFFF
(1784675319.921977) can0 18F015F1#0000464C46A345CE
(1784675319.931789) can0 18F017F1#FDF7FCAE96D5
(1784675319.932144) can0 18F018F1#FD6FFC399610
(1784675319.964515) can0 18FEF1F8#FF0000FFFFFFFFFF
(1784675319.966082) can0 18F005F8#7DFFFF7DFFFFFFFF
(1784675319.993035) can0 1CECFFF1#20120003FF19F000
(1784675319.993827) can0 1CEBFFF1#0127100000000000
(1784675319.994835) can0 1CEBFFF1#0200000000000000
(1784675319.995919) can0 1CEBFFF1#030062FF74FFFFFF
(1784675320.022055) can0 18F015F1#0000464C46A345CE
(1784675320.064120) can0 18FEF1F8#FF0000FFFFFFFFFF
(1784675320.065234) can0 18F005F8#7DFFFF7DFFFFFFFF
(1784675320.092871) can0 1CECFFF1#20120003FF19F000
(1784675320.093821) can0 1CEBFFF1#0127100000000000
(1784675320.094816) can0 1CEBFFF1#0200000000000000
(1784675320.095794) can0 1CEBFFF1#030062FF74FFFFFF
(1784675320.121820) can0 18F015F1#0000464C46A345CE
(1784675320.164081) can0 18FEF1F8#FF0000FFFFFFFFFF
(1784675320.165242) can0 18F005F8#7DFFFF7DFFFFFFFF
(1784675320.192831) can0 1CECFFF1#20120003FF19F000
(1784675320.193821) can0 1CEBFFF1#0127100000000000
(1784675320.194836) can0 1CEBFFF1#0200000000000000
(1784675320.195812) can0 1CEBFFF1#030062FF74FFFFFF
(1784675320.221801) can0 18F015F1#0000464C46A345CE
(1784675320.264325) can0 18FEF1F8#FF0000FFFFFFFFFF
(1784675320.265635) can0 18F005F8#7DFFFF7DFFFFFFFF
(1784675320.292983) can0 1CECFFF1#20120003FF19F000
(1784675320.293816) can0 1CEBFFF1#0127100000000000
(1784675320.294841) can0 1CEBFFF1#0200000000000000
(1784675320.295815) can0 1CEBFFF1#030062FF74FFFFFF
(1784675320.322108) can0 18F015F1#0000464C46A345CD
(1784675320.364118) can0 18FEF1F8#FF0000FFFFFFFFFF
(1784675320.365254) can0 18F005F8#7DFFFF7DFFFFFFFF
(1784675320.393226) can0 1CECFFF1#20120003FF19F000
(1784675320.393904) can0 1CEBFFF1#0127100000000000
(1784675320.394843) can0 1CEBFFF1#0200000000000000
(1784675320.395804) can0 1CEBFFF1#030062FF74FFFFFF
(1784675320.421836) can0 18F015F1#0000464C46A345CD
(1784675320.464162) can0 18FEF1F8#FF0000FFFFFFFFFF
(1784675320.465503) can0 18F005F8#7DFFFF7DFFFFFFFF
(1784675320.493879) can0 1CECFFF1#20120003FF19F000
(1784675320.494828) can0 1CEBFFF1#0127100000000000
(1784675320.495843) can0 1CEBFFF1#0200000000000000
(1784675320.496817) can0 1CEBFFF1#0300633FB5FFFFFF
(1784675320.522816) can0 18F015F1#0000464C46A345CD
(1784675320.564112) can0 18FEF1F8#FF0000FFFFFFFFFF
(1784675320.565294) can0 18F005F8#7DFFFF7DFFFFFFFF
(1784675320.593989) can0 1CECFFF1#20120003FF19F000
(1784675320.594832) can0 1CEBFFF1#0127100000000000
(1784675320.595864) can0 1CEBFFF1#0200000000000000
(1784675320.596847) can0 1CEBFFF1#0300633FB5FFFFFF
(1784675320.623015) can0 18F015F1#0000464C46A345CD
(1784675320.664634) can0 18FEF1F8#FF0000FFFFFFFFFF
(1784675320.665868) can0 18F005F8#7DFFFF7DFFFFFFFF
(1784675320.693978) can0 1CECFFF1#20120003FF19F000
(1784675320.695153) can0 1CEBFFF1#0127100000000000
(1784675320.695821) can0 1CEBFFF1#0200000000000000
(1784675320.696800) can0 1CEBFFF1#0300633FB5FFFFFF
(1784675320.722807) can0 18F015F1#0000464C46A345CD
(1784675320.764140) can0 18FEF1F8#FF0000FFFFFFFFFF
(1784675320.765294) can0 18F005F8#7DFFFF7DFFFFFFFF
(1784675320.793853) can0 1CECFFF1#20120003FF19F000
(1784675320.794829) can0 1CEBFFF1#0127100000000000
(1784675320.795836) can0 1CEBFFF1#0200000000000000
(1784675320.796813) can0 1CEBFFF1#0300633FB5FFFFFF
(1784675320.822825) can0 18F015F1#0000464C46A345CE
(1784675320.864094) can0 18FEF1F8#FF0000FFFFFFFFFF
(1784675320.865248) can0 18F005F8#7DFFFF7DFFFFFFFF
(1784675320.893942) can0 1CECFFF1#20120003FF19F000
(1784675320.894901) can0 1CEBFFF1#0127100000000000
(1784675320.895897) can0 1CEBFFF1#0200000000000000
(1784675320.896887) can0 1CEBFFF1#0300633FB5FFFFFF
(1784675320.922930) can0 18F015F1#0000464C46A345CE
(1784675320.932876) can0 18F017F1#FE12FCB0969B
(1784675320.933416) can0 18F018F1#FD83FC649607
(1784675320.964322) can0 18FEF1F8#FF0000FFFFFFFFFF
(1784675320.965611) can0 18F005F8#7DFFFF7DFFFFFFFF
(1784675320.994162) can0 1CECFFF1#20120003FF19F000
(1784675320.994940) can0 1CEBFFF1#0127100000000000
(1784675320.995875) can0 1CEBFFF1#0200000000000000
(1784675320.996847) can0 1CEBFFF1#0300633FB5FFFFFF
(1784675321.022924) can0 18F015F1#0000464B46A345CE
(1784675321.065219) can0 18FEF1F8#FF0000FFFFFFFFFF
(1784675321.066895) can0 18F005F8#7DFFFF7DFFFFFFFF
(1784675321.093947) can0 1CECFFF1#20120003FF19F000
(1784675321.094876) can0 1CEBFFF1#0127100000000000
(1784675321.095869) can0 1CEBFFF1#0200000000000000
(1784675321.099021) can0 1CEBFFF1#0300633FB5FFFFFF
(1784675321.123960) can0 18F015F1#0000464B46A345CE
(1784675321.164449) can0 18FEF1F8#FF0000FFFFFFFFFF
(1784675321.165661) can0 18F005F8#7DFFFF7DFFFFFFFF
(1784675321.194011) can0 1CECFFF1#20120003FF19F000
(1784675321.194849) can0 1CEBFFF1#0127100000000000
(1784675321.195842) can0 1CEBFFF1#0200000000000000
(1784675321.196846) can0 1CEBFFF1#0300633FB5FFFFFF
(1784675321.222936) can0 18F015F1#0000464B46A345CE
(1784675321.264162) can0 18FEF1F8#FF0000FFFFFFFFFF
(1784675321.265318) can0 18F005F8#7DFFFF7DFFFFFFFF
(1784675321.295140) can0 1CECFFF1#20120003FF19F000
(1784675321.295850) can0 1CEBFFF1#0127100000000000
(1784675321.296845) can0 1CEBFFF1#0200000000000000
(1784675321.297820) can0 1CEBFFF1#0300633FB5FFFFFF
(1784675321.323890) can0 18F015F1#0000464B46A345CE
(1784675321.364269) can0 18FEF1F8#FF0000FFFFFFFFFF
(1784675321.365552) can0 18F005F8#7DFFFF7DFFFFFFFF
(1784675321.395195) can0 1CECFFF1#20120003FF19F000
(1784675321.395900) can0 1CEBFFF1#0127100000000000
(1784675321.397013) can0 1CEBFFF1#0200000000000000
(1784675321.397867) can0 1CEBFFF1#0300633FB5FFFFFF
(1784675321.424225) can0 18F015F1#0000464C46A345CE
(1784675321.464121) can0 18FEF1F8#FF0000FFFFFFFFFF
(1784675321.465364) can0 18F005F8#7DFFFF7DFFFFFFFF
(1784675321.494893) can0 1CECFFF1#20120003FF19F000
(1784675321.495833) can0 1CEBFFF1#0127100000000000
(1784675321.496838) can0 1CEBFFF1#0200000000000000
(1784675321.497825) can0 1CEBFFF1#0300633FB5FFFFFF
(1784675321.523880) can0 18F015F1#0000464B46A345CE
(1784675321.564141) can0 18FEF1F8#FF0000FFFFFFFFFF
(1784675321.565378) can0 18F005F8#7DFFFF7DFFFFFFFF
(1784675321.594889) can0 1CECFFF1#20120003FF19F000
(1784675321.595840) can0 1CEBFFF1#0127100000000000
(1784675321.596849) can0 1CEBFFF1#0200000000000000
(1784675321.597829) can0 1CEBFFF1#0300633FB5FFFFFF
(1784675321.624040) can0 18F015F1#0000464B46A345CE
(1784675321.664527) can0 18FEF1F8#FF0000FFFFFFFFFF
(1784675321.665881) can0 18F005F8#7DFFFF7DFFFFFFFF
(1784675321.694996) can0 1CECFFF1#20120003FF19F000
(1784675321.695841) can0 1CEBFFF1#0127100000000000
(1784675321.696847) can0 1CEBFFF1#0200000000000000
(1784675321.697822) can0 1CEBFFF1#030064FDF4FFFFFF
(1784675321.723825) can0 18F015F1#0000464C46A345CE
(1784675321.764128) can0 18FEF1F8#FF0000FFFFFFFFFF
(1784675321.765318) can0 18F005F8#7DFFFF7DFFFFFFFF
(1784675321.794868) can0 1CECFFF1#20120003FF19F000
(1784675321.795837) can0 1CEBFFF1#0127100000000000
(1784675321.796850) can0 1CEBFFF1#0200000000000000
(1784675321.797827) can0 1CEBFFF1#030064FDF4FFFFFF
(1784675321.823844) can0 18F015F1#0000464C46A345CE
(1784675321.864101) can0 18FEF1F8#FF0000FFFFFFFFFF
(1784675321.865317) can0 18F005F8#7DFFFF7DFFFFFFFF
(1784675321.895859) can0 1CECFFF1#20120003FF19F000
(1784675321.896848) can0 1CEBFFF1#0127100000000000
(1784675321.897854) can0 1CEBFFF1#0200000000000000
(1784675321.898833) can0 1CEBFFF1#030064FDF4FFFFFF
(1784675321.923943) can0 18F015F1#0000464C46A345CE
(1784675321.933878) can0 18F017F1#FE12FCB0969B
(1784675321.934326) can0 18F018F1#FD83FC649607
(1784675321.964417) can0 18FEF1F8#FF0000FFFFFFFFFF
(1784675321.965592) can0 18F005F8#7DFFFF7DFFFFFFFF
(1784675321.996104) can0 1CECFFF1#20120003FF19F000
(1784675321.996911) can0 1CEBFFF1#0127100000000000
(1784675321.997908) can0 1CEBFFF1#0200000000000000
(1784675321.998853) can0 1CEBFFF1#030064FDF4FFFFFF
(1784675322.024038) can0 18F015F1#0000464B46A345CE
(1784675322.064126) can0 18FEF1F8#FF0000FFFFFFFFFF
(1784675322.065302) can0 18F005F8#7DFFFF7DFFFFFFFF
(1784675322.096074) can0 1CECFFF1#20120003FF19F000
(1784675322.096898) can0 1CEBFFF1#0127100000000000
(1784675322.097908) can0 1CEBFFF1#0200000000000000
(1784675322.098909) can0 1CEBFFF1#030064FDF4FFFFFF
(1784675322.124849) can0 18F015F1#0000464B46A345CE
(1784675322.164084) can0 18FEF1F8#FF0000FFFFFFFFFF
(1784675322.165225) can0 18F005F8#7DFFFF7DFFFFFFFF
(1784675322.195870) can0 1CECFFF1#20120003FF19F000
(1784675322.196849) can0 1CEBFFF1#0127100000000000
(1784675322.197864) can0 1CEBFFF1#0200000000000000
(1784675322.198838) can0 1CEBFFF1#030064FDF4FFFFFF
(1784675322.224839) can0 18F015F1#0000464B46A345CE
(1784675322.264099) can0 18FEF1F8#FF0000FFFFFFFFFF
(1784675322.265315) can0 18F005F8#7DFFFF7DFFFFFFFF
(1784675322.295998) can0 1CECFFF1#20120003FF19F000
(1784675322.296828) can0 1CEBFFF1#0127100000000000
(1784675322.297870) can0 1CEBFFF1#0200000000000000
(1784675322.298846) can0 1CEBFFF1#030064FDF4FFFFFF
(1784675322.325480) can0 18F015F1#0000464B46A345CE
(1784675322.364110) can0 18FEF1F8#FF0000FFFFFFFFFF
(1784675322.365242) can0 18F005F8#7DFFFF7DFFFFFFFF
(1784675322.395861) can0 1CECFFF1#20120003FF19F000
(1784675322.396834) can0 1CEBFFF1#0127100000000000
(1784675322.397849) can0 1CEBFFF1#0200000000000000
(1784675322.398833) can0 1CEBFFF1#030064FDF4FFFFFF
(1784675322.424885) can0 18F015F1#0000464C46A345CE
(1784675322.464135) can0 18FEF1F8#FF0000FFFFFFFFFF
(1784675322.465400) can0 18F005F8#7DFFFF7DFFFFFFFF
(1784675322.495900) can0 1CECFFF1#20120003FF19F000
(1784675322.496848) can0 1CEBFFF1#0127100000000000
(1784675322.497871) can0 1CEBFFF1#0200000000000000
(1784675322.498844) can0 1CEBFFF1#030064FDF4FFFFFF
(1784675322.524839) can0 18F015F1#0000464C46A345CE
(1784675322.564126) can0 18FEF1F8#FF0000FFFFFFFFFF
(1784675322.565344) can0 18F005F8#7DFFFF7DFFFFFFFF
(1784675322.595944) can0 1CECFFF1#20120003FF19F000
(1784675322.596864) can0 1CEBFFF1#0127100000000000
(1784675322.597887) can0 1CEBFFF1#0200000000000000
(1784675322.598868) can0 1CEBFFF1#030064FDF4FFFFFF
(1784675322.624960) can0 18F015F1#0000464B46A345CE
(1784675322.664547) can0 18FEF1F8#FF0000FFFFFFFFFF
(1784675322.665732) can0 18F005F8#7DFFFF7DFFFFFFFF
(1784675322.696950) can0 1CECFFF1#20120003FF19F000
(1784675322.697845) can0 1CEBFFF1#0127100000000000
(1784675322.698851) can0 1CEBFFF1#0200000000000000
(1784675322.699823) can0 1CEBFFF1#0300653D35FFFFFF
(1784675322.725835) can0 18F015F1#0000464B46A345CE
(1784675322.764135) can0 18FEF1F8#FF0000FFFFFFFFFF
(1784675322.765282) can0 18F005F8#7DFFFF7DFFFFFFFF
(1784675322.796880) can0 1CECFFF1#20120003FF19F000
(1784675322.797844) can0 1CEBFFF1#0127100000000000
(1784675322.798858) can0 1CEBFFF1#0200000000000000
(1784675322.799830) can0 1CEBFFF1#0300653D35FFFFFF
(1784675322.825886) can0 18F015F1#0000464C46A345CE
(1784675322.864098) can0 18FEF1F8#FF0000FFFFFFFFFF
(1784675322.865282) can0 18F005F8#7DFFFF7DFFFFFFFF
(1784675322.896857) can0 1CECFFF1#20120003FF19F000
(1784675322.897844) can0 1CEBFFF1#0127100000000000
(1784675322.898857) can0 1CEBFFF1#0200000000000000
(1784675322.899833) can0 1CEBFFF1#0300653D35FFFFFF
(1784675322.925963) can0 18F015F1#0000464B46A345CE
(1784675322.935917) can0 18F017F1#FDC8FCB69699
(1784675322.936256) can0 18F018F1#FD91FC5B9624
(1784675322.964307) can0 18FEF1F8#FF0000FFFFFFFFFF
(1784675322.965581) can0 18F005F8#7DFFFF7DFFFFFFFF
(1784675322.997796) can0 1CECFFF1#20120003FF19F000
(1784675322.999234) can0 1CEBFFF1#0200000000000000
(1784675322.999719) can0 1CEBFFF1#0127100000000000
(1784675323.000392) can0 1CEBFFF1#0300653D35FFFFFF
(1784675323.025921) can0 18F015F1#0000464B46A345CE
(1784675323.065068) can0 18FEF1F8#FF0000FFFFFFFFFF
(1784675323.066434) can0 18F005F8#7DFFFF7DFFFFFFFF
(1784675323.097490) can0 1CECFFF1#20120003FF19F000
(1784675323.098191) can0 1CEBFFF1#0127100000000000
(1784675323.098926) can0 1CEBFFF1#0200000000000000
(1784675323.099979) can0 1CEBFFF1#0300653D35FFFFFF
(1784675323.125877) can0 18F015F1#0000464B46A345CE
(1784675323.164156) can0 18FEF1F8#FF0000FFFFFFFFFF
(1784675323.165290) can0 18F005F8#7DFFFF7DFFFFFFFF
(1784675323.196916) can0 1CECFFF1#20120003FF19F000
(1784675323.197852) can0 1CEBFFF1#0127100000000000
(1784675323.198862) can0 1CEBFFF1#0200000000000000
(1784675323.199835) can0 1CEBFFF1#0300653D35FFFFFF
(1784675323.225924) can0 18F015F1#0000464B46A345CE
(1784675323.264158) can0 18FEF1F8#FF0000FFFFFFFFFF
(1784675323.265280) can0 18F005F8#7DFFFF7DFFFFFFFF
(1784675323.296926) can0 1CECFFF1#20120003FF19F000
(1784675323.297890) can0 1CEBFFF1#0127100000000000
(1784675323.298896) can0 1CEBFFF1#0200000000000000
(1784675323.299879) can0 1CEBFFF1#0300653D35FFFFFF
(1784675323.326001) can0 18F015F1#0000464B46A345CE
(1784675323.364899) can0 18FEF1F8#FF0000FFFFFFFFFF
(1784675323.366707) can0 18F005F8#7DFFFF7DFFFFFFFF
(1784675323.396996) can0 1CECFFF1#20120003FF19F000
(1784675323.397928) can0 1CEBFFF1#0127100000000000
(1784675323.398871) can0 1CEBFFF1#0200000000000000
(1784675323.399829) can0 1CEBFFF1#0300653D35FFFFFF
(1784675323.425904) can0 18F015F1#0000464B46A345CE
(1784675323.464127) can0 18FEF1F8#FF0000FFFFFFFFFF
(1784675323.465302) can0 18F005F8#7DFFFF7DFFFFFFFF
(1784675323.497898) can0 1CECFFF1#20120003FF19F000
(1784675323.498855) can0 1CEBFFF1#0127100000000000
(1784675323.499869) can0 1CEBFFF1#0200000000000000
(1784675323.500843) can0 1CEBFFF1#0300653D35FFFFFF
(1784675323.526851) can0 18F015F1#0000464B46A345CE
(1784675323.564107) can0 18FEF1F8#FF0000FFFFFFFFFF
(1784675323.565304) can0 18F005F8#7DFFFF7DFFFFFFFF
(1784675323.597918) can0 1CECFFF1#20120003FF19F000
(1784675323.598881) can0 1CEBFFF1#0127100000000000
(1784675323.599896) can0 1CEBFFF1#0200000000000000
(1784675323.600890) can0 1CEBFFF1#0300653D35FFFFFF
(1784675323.626953) can0 18F015F1#0000464B46A345CE
(1784675323.664515) can0 18FEF1F8#FF0000FFFFFFFFFF
(1784675323.666258) can0 18F005F8#7DFFFF7DFFFFFFFF
(1784675323.697943) can0 1CECFFF1#20120003FF19F000
(1784675323.698908) can0 1CEBFFF1#0127100000000000
(1784675323.699908) can0 1CEBFFF1#0200000000000000
(1784675323.700843) can0 1CEBFFF1#0300653D35FFFFFF
(1784675323.726851) can0 18F015F1#0000464B46A345CE
(1784675323.764143) can0 18FEF1F8#FF0000FFFFFFFFFF
(1784675323.765282) can0 18F005F8#7DFFFF7DFFFFFFFF
(1784675323.797876) can0 1CECFFF1#20120003FF19F000
(1784675323.798856) can0 1CEBFFF1#0127100000000000
(1784675323.799863) can0 1CEBFFF1#0200000000000000
(1784675323.800843) can0 1CEBFFF1#0300653D35FFFFFF
(1784675323.826874) can0 18F015F1#0000464B46A345CE
(1784675323.864095) can0 18FEF1F8#FF0000FFFFFFFFFF
(1784675323.865222) can0 18F005F8#7DFFFF7DFFFFFFFF
(1784675323.897874) can0 1CECFFF1#20120003FF19F000
(1784675323.898852) can0 1CEBFFF1#0127100000000000
(1784675323.899860) can0 1CEBFFF1#0200000000000000
(1784675323.900842) can0 1CEBFFF1#0300663C75FFFFFF
(1784675323.926899) can0 18F015F1#0000464B46A345CE
(1784675323.936923) can0 18F017F1#FDC8FCB69699
(1784675323.937404) can0 18F018F1#FD91FC5B9624
(1784675323.964372) can0 18FEF1F8#FF0000FFFFFFFFFF
(1784675323.965596) can0 18F005F8#7DFFFF7DFFFFFFFF
(1784675323.997932) can0 1CECFFF1#20120003FF19F000
(1784675323.998903) can0 1CEBFFF1#0127100000000000
(1784675323.999917) can0 1CEBFFF1#0200000000000000
(1784675324.000994) can0 1CEBFFF1#0300663C75FFFFFF
(1784675324.027040) can0 18F015F1#0000464B46A345CE
(1784675324.064112) can0 18FEF1F8#FF0000FFFFFFFFFF
(1784675324.065250) can0 18F005F8#7DFFFF7DFFFFFFFF
(1784675324.097926) can0 1CECFFF1#20120003FF19F000
(1784675324.098919) can0 1CEBFFF1#0127100000000000
(1784675324.099865) can0 1CEBFFF1#0200000000000000
(1784675324.100848) can0 1CEBFFF1#0300663C75FFFFFF
(1784675324.126867) can0 18F015F1#0000464B46A345CE
(1784675324.164090) can0 18FEF1F8#FF0000FFFFFFFFFF
(1784675324.165297) can0 18F005F8#7DFFFF7DFFFFFFFF
(1784675324.197881) can0 1CECFFF1#20120003FF19F000
(1784675324.198867) can0 1CEBFFF1#0127100000000000
(1784675324.199870) can0 1CEBFFF1#0200000000000000
(1784675324.200855) can0 1CEBFFF1#0300663C75FFFFFF
(1784675324.226878) can0 18F015F1#0000464B46A445CE
(1784675324.264183) can0 18FEF1F8#FF0000FFFFFFFFFF
(1784675324.265400) can0 18F005F8#7DFFFF7DFFFFFFFF
(1784675324.299120) can0 1CECFFF1#20120003FF19F000
(1784675324.299873) can0 1CEBFFF1#0127100000000000
(1784675324.300911) can0 1CEBFFF1#0200000000000000
(1784675324.301893) can0 1CEBFFF1#0300663C75FFFFFF
(1784675324.328050) can0 18F015F1#0000464B46A345CE
(1784675324.364102) can0 18FEF1F8#FF0000FFFFFFFFFF
(1784675324.365226) can0 18F005F8#7DFFFF7DFFFFFFFF
(1784675324.398867) can0 1CECFFF1#20120003FF19F000
(1784675324.399908) can0 1CEBFFF1#0127100000000000
(1784675324.400875) can0 1CEBFFF1#0200000000000000
(1784675324.401852) can0 1CEBFFF1#0300663C75FFFFFF
(1784675324.428072) can0 18F015F1#0000464B46A445CE
(1784675324.464224) can0 18FEF1F8#FF0000FFFFFFFFFF
(1784675324.465447) can0 18F005F8#7DFFFF7DFFFFFFFF
(1784675324.498987) can0 1CECFFF1#20120003FF19F000
(1784675324.499974) can0 1CEBFFF1#0127100000000000
(1784675324.500989) can0 1CEBFFF1#0200000000000000
(1784675324.501936) can0 1CEBFFF1#0300663C75FFFFFF
(1784675324.527958) can0 18F015F1#0000464B46A445CE
(1784675324.564225) can0 18FEF1F8#FF0000FFFFFFFFFF
(1784675324.565416) can0 18F005F8#7DFFFF7DFFFFFFFF
(1784675324.598993) can0 1CECFFF1#20120003FF19F000
(1784675324.599876) can0 1CEBFFF1#0127100000000000
(1784675324.600909) can0 1CEBFFF1#0200000000000000
(1784675324.601891) can0 1CEBFFF1#0300663C75FFFFFF
(1784675324.627930) can0 18F015F1#0000464B46A445CE
(1784675324.664224) can0 18FEF1F8#FF0000FFFFFFFFFF
(1784675324.665400) can0 18F005F8#7DFFFF7DFFFFFFFF
(1784675324.699171) can0 1CECFFF1#20120003FF19F000
(1784675324.699874) can0 1CEBFFF1#0127100000000000
(1784675324.700998) can0 1CEBFFF1#0200000000000000
(1784675324.701948) can0 1CEBFFF1#0300663C75FFFFFF
(1784675324.727956) can0 18F015F1#0000464B46A345CD
(1784675324.764124) can0 18FEF1F8#FF0000FFFFFFFFFF
(1784675324.765242) can0 18F005F8#7DFFFF7DFFFFFFFF
(1784675324.798932) can0 1CECFFF1#20120003FF19F000
(1784675324.799864) can0 1CEBFFF1#0127100000000000
(1784675324.800883) can0 1CEBFFF1#0200000000000000
(1784675324.801858) can0 1CEBFFF1#0300663C75FFFFFF
(1784675324.827882) can0 18F015F1#0000464B46A345CD
(1784675324.864094) can0 18FEF1F8#FF0000FFFFFFFFFF
(1784675324.865229) can0 18F005F8#7DFFFF7DFFFFFFFF
(1784675324.898888) can0 1CECFFF1#20120003FF19F000
(1784675324.899869) can0 1CEBFFF1#0127100000000000
(1784675324.900885) can0 1CEBFFF1#0200000000000000
(1784675324.901859) can0 1CEBFFF1#0300663C75FFFFFF
(1784675324.929430) can0 18F015F1#0000464B46A345CD
(1784675324.937871) can0 18F017F1#FDDFFC9F96A0
(1784675324.938261) can0 18F018F1#FD83FC559610
(1784675324.964293) can0 18FEF1F8#FF0000FFFFFFFFFF
(1784675324.965553) can0 18F005F8#7DFFFF7DFFFFFFFF
(1784675324.999361) can0 1CECFFF1#20120003FF19F000
(1784675324.999918) can0 1CEBFFF1#0127100000000000
(1784675325.000981) can0 1CEBFFF1#0200000000000000
(1784675325.002014) can0 1CEBFFF1#030067FCB4FFFFFF
(1784675325.029067) can0 18F015F1#0000464B46A345CD
(1784675325.064118) can0 18FEF1F8#FF0000FFFFFFFFFF
(1784675325.065238) can0 18F005F8#7DFFFF7DFFFFFFFF
(1784675325.100389) can0 1CECFFF1#20120003FF19F000
(1784675325.101038) can0 1CEBFFF1#0127100000000000
(1784675325.101909) can0 1CEBFFF1#0200000000000000
(1784675325.103475) can0 1CEBFFF1#030067FCB4FFFFFF
(1784675325.129155) can0 18F015F1#0000464B46A345CE
(1784675325.164234) can0 18FEF1F8#FF0000FFFFFFFFFF
(1784675325.165512) can0 18F005F8#7DFFFF7DFFFFFFFF
(1784675325.199960) can0 1CECFFF1#20120003FF19F000
(1784675325.200878) can0 1CEBFFF1#0127100000000000
(1784675325.201894) can0 1CEBFFF1#0200000000000000
(1784675325.202870) can0 1CEBFFF1#030067FCB4FFFFFF
(1784675325.228874) can0 18F015F1#0000464B46A345CD
(1784675325.264132) can0 18FEF1F8#FF0000FFFFFFFFFF
(1784675325.265351) can0 18F005F8#7DFFFF7DFFFFFFFF
(1784675325.299922) can0 1CECFFF1#20120003FF19F000
(1784675325.300873) can0 1CEBFFF1#0127100000000000
(1784675325.301876) can0 1CEBFFF1#0200000000000000
(1784675325.302855) can0 1CEBFFF1#030067FCB4FFFFFF
(1784675325.328912) can0 18F015F1#0000464B46A345CD
(1784675325.364192) can0 18FEF1F8#FF0000FFFFFFFFFF
(1784675325.365346) can0 18F005F8#7DFFFF7DFFFFFFFF
(1784675325.400126) can0 1CECFFF1#20120003FF19F000
(1784675325.400880) can0 1CEBFFF1#0127100000000000
(1784675325.401875) can0 1CEBFFF1#0200000000000000
(1784675325.402858) can0 1CEBFFF1#030067FCB4FFFFFF
(1784675325.428931) can0 18F015F1#0000464B46A345CD
(1784675325.464631) can0 18FEF1F8#FF0000FFFFFFFFFF
(1784675325.465795) can0 18F005F8#7DFFFF7DFFFFFFFF
(1784675325.499955) can0 1CECFFF1#20120003FF19F000
(1784675325.500897) can0 1CEBFFF1#0127100000000000
(1784675325.501899) can0 1CEBFFF1#0200000000000000
(1784675325.502865) can0 1CEBFFF1#030067FCB4FFFFFF
(1784675325.528904) can0 18F015F1#0000464B46A345CE
(1784675325.564130) can0 18FEF1F8#FF0000FFFFFFFFFF
(1784675325.565313) can0 18F005F8#7DFFFF7DFFFFFFFF
(1784675325.599891) can0 1CECFFF1#20120003FF19F000
(1784675325.600878) can0 1CEBFFF1#0127100000000000
(1784675325.601883) can0 1CEBFFF1#0200000000000000
(1784675325.602862) can0 1CEBFFF1#030067FCB4FFFFFF
(1784675325.628868) can0 18F015F1#0000464B46A345CD
(1784675325.664164) can0 18FEF1F8#FF0000FFFFFFFFFF
(1784675325.665338) can0 18F005F8#7DFFFF7DFFFFFFFF
(1784675325.700049) can0 1CECFFF1#20120003FF19F000
(1784675325.700913) can0 1CEBFFF1#0127100000000000
(1784675325.701946) can0 1CEBFFF1#0200000000000000
(1784675325.702916) can0 1CEBFFF1#030067FCB4FFFFFF
(1784675325.729042) can0 18F015F1#0000464B46A345CD
(1784675325.764108) can0 18FEF1F8#FF0000FFFFFFFFFF
(1784675325.765300) can0 18F005F8#7DFFFF7DFFFFFFFF
(1784675325.801085) can0 1CECFFF1#20120003FF19F000
(1784675325.801905) can0 1CEBFFF1#0127100000000000
(1784675325.802921) can0 1CEBFFF1#0200000000000000
(1784675325.804368) can0 1CEBFFF1#030067FCB4FFFFFF
(1784675325.830115) can0 18F015F1#0000464E46A345CE
(1784675325.864105) can0 18FEF1F8#FF0000FFFFFFFFFF
(1784675325.865293) can0 18F005F8#7DFFFF7DFFFFFFFF
(1784675325.900911) can0 1CECFFF1#20120003FF19F000
(1784675325.901879) can0 1CEBFFF1#0127100000000000
(1784675325.902889) can0 1CEBFFF1#0200000000000000
(1784675325.903867) can0 1CEBFFF1#030068F8F4FFFFFF
(1784675325.929866) can0 18F015F1#0000464E46A345CE
(1784675325.939798) can0 18F017F1#FDDFFC9F96A0
(1784675325.940283) can0 18F018F1#FD83FC559610
(1784675325.964061) can0 18FEF1F8#FF0000FFFFFFFFFF
(1784675325.965272) can0 18F005F8#7DFFFF7DFFFFFFFF
(1784675326.000935) can0 1CECFFF1#20120003FF19F000
(1784675326.001953) can0 1CEBFFF1#0127100000000000
(1784675326.002951) can0 1CEBFFF1#0200000000000000
(1784675326.003907) can0 1CEBFFF1#030068F8F4FFFFFF
(1784675326.029999) can0 18F015F1#0000464E46A345CE
(1784675326.065283) can0 18FEF1F8#FF0000FFFFFFFFFF
(1784675326.067029) can0 18F005F8#7DFFFF7DFFFFFFFF
(1784675326.101064) can0 1CECFFF1#20120003FF19F000
(1784675326.101959) can0 1CEBFFF1#0127100000000000
(1784675326.102918) can0 1CEBFFF1#0200000000000000
(1784675326.103900) can0 1CEBFFF1#030068F8F4FFFFFF
(1784675326.130270) can0 18F015F1#0000464E46A345CE
(1784675326.164096) can0 18FEF1F8#FF0000FFFFFFFFFF
(1784675326.165221) can0 18F005F8#7DFFFF7DFFFFFFFF
(1784675326.200912) can0 1CECFFF1#20120003FF19F000
(1784675326.201883) can0 1CEBFFF1#0127100000000000
(1784675326.202937) can0 1CEBFFF1#0200000000000000
(1784675326.203868) can0 1CEBFFF1#030068F8F4FFFFFF
(1784675326.230050) can0 18F015F1#0000464E46A345CE
(1784675326.264120) can0 18FEF1F8#FF0000FFFFFFFFFF
(1784675326.265274) can0 18F005F8#7DFFFF7DFFFFFFFF
(1784675326.300943) can0 1CECFFF1#20120003FF19F000
(1784675326.301917) can0 1CEBFFF1#0127100000000000
(1784675326.302898) can0 1CEBFFF1#0200000000000000
(1784675326.303870) can0 1CEBFFF1#030068F8F4FFFFFF
(1784675326.330077) can0 18F015F1#0000464E46A345CE
(1784675326.364247) can0 18FEF1F8#FF0000FFFFFFFFFF
(1784675326.365497) can0 18F005F8#7DFFFF7DFFFFFFFF
(1784675326.400942) can0 1CECFFF1#20120003FF19F000
(1784675326.401878) can0 1CEBFFF1#0127100000000000
(1784675326.402882) can0 1CEBFFF1#0200000000000000
(1784675326.403873) can0 1CEBFFF1#030068F8F4FFFFFF
(1784675326.430127) can0 18F015F1#0000464E46A345CE
(1784675326.466057) can0 18FEF1F8#FF0000FFFFFFFFFF
(1784675326.467689) can0 18F005F8#7DFFFF7DFFFFFFFF
(1784675326.501038) can0 1CECFFF1#20120003FF19F000
(1784675326.505852) can0 1CEBFFF1#0127100000000000
(1784675326.506102) can0 1CEBFFF1#0200000000000000
(1784675326.506652) can0 1CEBFFF1#030068F8F4FFFFFF
(1784675326.529899) can0 18F015F1#0000464E46A345CD
(1784675326.564119) can0 18FEF1F8#FF0000FFFFFFFFFF
(1784675326.565259) can0 18F005F8#7DFFFF7DFFFFFFFF
(1784675326.601913) can0 1CECFFF1#20120003FF19F000
(1784675326.602887) can0 1CEBFFF1#0127100000000000
(1784675326.603893) can0 1CEBFFF1#0200000000000000
(1784675326.604869) can0 1CEBFFF1#030068F8F4FFFFFF
(1784675326.630892) can0 18F015F1#0000464E46A345CE
(1784675326.664162) can0 18FEF1F8#FF0000FFFFFFFFFF
(1784675326.665425) can0 18F005F8#7DFFFF7DFFFFFFFF
(1784675326.702015) can0 1CECFFF1#20120003FF19F000
(1784675326.702934) can0 1CEBFFF1#0127100000000000
(1784675326.703945) can0 1CEBFFF1#0200000000000000
(1784675326.704925) can0 1CEBFFF1#030068F8F4FFFFFF
(1784675326.731031) can0 18F015F1#0000464E46A345CE
(1784675326.764094) can0 18FEF1F8#FF0000FFFFFFFFFF
(1784675326.765251) can0 18F005F8#7DFFFF7DFFFFFFFF
(1784675326.801954) can0 1CECFFF1#20120003FF19F000
(1784675326.802910) can0 1CEBFFF1#0127100000000000
(1784675326.803890) can0 1CEBFFF1#0200000000000000
(1784675326.804882) can0 1CEBFFF1#030068F8F4FFFFFF
(1784675326.830923) can0 18F015F1#0000464E46A345CD
(1784675326.864124) can0 18FEF1F8#FF0000FFFFFFFFFF
(1784675326.865265) can0 18F005F8#7DFFFF7DFFFFFFFF
(1784675326.901916) can0 1CECFFF1#20120003FF19F000
(1784675326.902897) can0 1CEBFFF1#0127100000000000
(1784675326.903904) can0 1CEBFFF1#0200000000000000
(1784675326.904896) can0 1CEBFFF1#0300693835FFFFFF
(1784675326.930885) can0 18F015F1#0000464E46A345CD
(1784675326.940807) can0 18F017F1#FDE7FCBE991C
(1784675326.941279) can0 18F018F1#FCCFF9A491B2
(1784675326.964112) can0 18FEF1F8#FF0000FFFFFFFFFF
(1784675326.965319) can0 18F005F8#7DFFFF7DFFFFFFFF
(1784675327.002024) can0 1CECFFF1#20120003FF19F000
(1784675327.002943) can0 1CEBFFF1#0127100000000000
(1784675327.003957) can0 1CEBFFF1#0200000000000000
(1784675327.004929) can0 1CEBFFF1#0300693835FFFFFF
(1784675327.031605) can0 18F015F1#0000464E46A345CE
(1784675327.064712) can0 18FEF1F8#FF0000FFFFFFFFFF
(1784675327.066541) can0 18F005F8#7DFFFF7DFFFFFFFF
(1784675327.102038) can0 1CECFFF1#20120003FF19F000
(1784675327.102905) can0 1CEBFFF1#0127100000000000
(1784675327.103894) can0 1CEBFFF1#0200000000000000
(1784675327.104873) can0 1CEBFFF1#0300663C75FFFFFF
(1784675327.130941) can0 18F015F1#0000464E46A345CD
(1784675327.164089) can0 18FEF1F8#FF0000FFFFFFFFFF
(1784675327.165233) can0 18F005F8#7DFFFF7DFFFFFFFF
(1784675327.203084) can0 1CECFFF1#20120003FF19F000
(1784675327.203939) can0 1CEBFFF1#0127100000000000
(1784675327.204942) can0 1CEBFFF1#0200000000000000
(1784675327.205912) can0 1CEBFFF1#0300663C75FFFFFF
(1784675327.230950) can0 18F015F1#0000464E46A345CD
(1784675327.264149) can0 18FEF1F8#FF0000FFFFFFFFFF
(1784675327.265289) can0 18F005F8#7DFFFF7DFFFFFFFF
(1784675327.301931) can0 1CECFFF1#20120003FF19F000
(1784675327.302894) can0 1CEBFFF1#0127100000000000
(1784675327.303898) can0 1CEBFFF1#0200000000000000
(1784675327.304876) can0 1CEBFFF1#0300663C75FFFFFF
(1784675327.330976) can0 18F015F1#0000464E46A345CD
(1784675327.364357) can0 18FEF1F8#FF0000FFFFFFFFFF
(1784675327.365607) can0 18F005F8#7DFFFF7DFFFFFFFF
(1784675327.403063) can0 1CECFFF1#20120003FF19F000
(1784675327.403974) can0 1CEBFFF1#0127100000000000
(1784675327.404941) can0 1CEBFFF1#0200000000000000
(1784675327.405905) can0 1CEBFFF1#0300663C75FFFFFF
(1784675327.431922) can0 18F015F1#0000464D46A345CD
(1784675327.464748) can0 18FEF1F8#FF0000FFFFFFFFFF
(1784675327.466435) can0 18F005F8#7DFFFF7DFFFFFFFF
(1784675327.503052) can0 1CECFFF1#20120003FF19F000
(1784675327.503912) can0 1CEBFFF1#0127100000000000
(1784675327.504902) can0 1CEBFFF1#0200000000000000
(1784675327.505927) can0 1CEBFFF1#0300663C75FFFFFF
(1784675327.532431) can0 18F015F1#0000464E46A345CE
(1784675327.564508) can0 18FEF1F8#FF0000FFFFFFFFFF
(1784675327.565713) can0 18F005F8#7DFFFF7DFFFFFFFF
(1784675327.602960) can0 1CECFFF1#20120003FF19F000
(1784675327.603897) can0 1CEBFFF1#0127100000000000
(1784675327.604907) can0 1CEBFFF1#0200000000000000
(1784675327.605889) can0 1CEBFFF1#0300663C75FFFFFF
(1784675327.631991) can0 18F015F1#0000465046A345CE
(1784675327.664308) can0 18FEF1F8#FF0000FFFFFFFFFF
(1784675327.665543) can0 18F005F8#7DFFFF7DFFFFFFFF
(1784675327.703034) can0 1CECFFF1#20120003FF19F000
(1784675327.703926) can0 1CEBFFF1#0127100000000000
(1784675327.704954) can0 1CEBFFF1#0200000000000000
(1784675327.705921) can0 1CEBFFF1#030067FCB4FFFFFF
(1784675327.731979) can0 18F015F1#0000465046A345CE
(1784675327.764513) can0 18FEF1F8#FF0000FFFFFFFFFF
(1784675327.765897) can0 18F005F8#7DFFFF7DFFFFFFFF
(1784675327.802985) can0 1CECFFF1#20120003FF19F000
(1784675327.803899) can0 1CEBFFF1#0127100000000000
(1784675327.804915) can0 1CEBFFF1#0200000000000000
(1784675327.805887) can0 1CEBFFF1#030067FCB4FFFFFF
(1784675327.831956) can0 18F015F1#0000465046A345CE
(1784675327.864153) can0 18FEF1F8#FF0000FFFFFFFFFF
(1784675327.865401) can0 18F005F8#7DFFFF7DFFFFFFFF
(1784675327.902944) can0 1CECFFF1#20120003FF19F000
(1784675327.903896) can0 1CEBFFF1#0127100000000000
(1784675327.904905) can0 1CEBFFF1#0200000000000000
(1784675327.905897) can0 1CEBFFF1#030067FCB4FFFFFF
(1784675327.931909) can0 18F015F1#0000465246A345CE
(1784675327.941821) can0 18F017F1#FDE7FCBE991C
(1784675327.942283) can0 18F018F1#FCCFF9A491B2
(1784675327.964079) can0 18FEF1F8#FF0000FFFFFFFFFF
(1784675327.965204) can0 18F005F8#7DFFFF7DFFFFFFFF
(1784675328.003263) can0 1CECFFF1#20120003FF19F000
(1784675328.003925) can0 1CEBFFF1#0127100000000000
(1784675328.004961) can0 1CEBFFF1#0200000000000000
(1784675328.005957) can0 1CEBFFF1#030067FCB4FFFFFF
(1784675328.031958) can0 18F015F1#0000465246A345CE
(1784675328.064246) can0 18FEF1F8#FF0000FFFFFFFFFF
(1784675328.065678) can0 18F005F8#7DFFFF7DFFFFFFFF
(1784675328.104071) can0 1CECFFF1#20120003FF19F000
(1784675328.104969) can0 1CEBFFF1#0127100000000000
(1784675328.105936) can0 1CEBFFF1#0200000000000000
(1784675328.106900) can0 1CEBFFF1#030067FCB4FFFFFF
(1784675328.133129) can0 18F015F1#0000465246A345CE
(1784675328.164100) can0 18FEF1F8#FF0000FFFFFFFFFF
(1784675328.165236) can0 18F005F8#7DFFFF7DFFFFFFFF
(1784675328.203942) can0 1CECFFF1#20120003FF19F000
(1784675328.204913) can0 1CEBFFF1#0127100000000000
(1784675328.205919) can0 1CEBFFF1#0200000000000000
(1784675328.206897) can0 1CEBFFF1#030067FCB4FFFFFF
(1784675328.232904) can0 18F015F1#0000465246A345CE
(1784675328.264108) can0 18FEF1F8#FF0000FFFFFFFFFF
(1784675328.265263) can0 18F005F8#7DFFFF7DFFFFFFFF
(1784675328.303953) can0 1CECFFF1#20120003FF19F000
(1784675328.304902) can0 1CEBFFF1#0127100000000000
(1784675328.305921) can0 1CEBFFF1#0200000000000000
(1784675328.306895) can0 1CEBFFF1#030067FCB4FFFFFF
(1784675328.333000) can0 18F015F1#0000465246A345CE
(1784675328.364334) can0 18FEF1F8#FF0000FFFFFFFFFF
(1784675328.365571) can0 18F005F8#7DFFFF7DFFFFFFFF
(1784675328.403940) can0 1CECFFF1#20120003FF19F000
(1784675328.404899) can0 1CEBFFF1#0127100000000000
(1784675328.405909) can0 1CEBFFF1#0200000000000000
(1784675328.406888) can0 1CEBFFF1#030067FCB4FFFFFF
(1784675328.433018) can0 18F015F1#0000465246A345CE
(1784675328.464790) can0 18FEF1F8#FF0000FFFFFFFFFF
(1784675328.466268) can0 18F005F8#7DFFFF7DFFFFFFFF
(1784675328.503999) can0 1CECFFF1#20120003FF19F000
(1784675328.504939) can0 1CEBFFF1#0127100000000000
(1784675328.505923) can0 1CEBFFF1#0200000000000000
(1784675328.506893) can0 1CEBFFF1#030067FCB4FFFFFF
(1784675328.532944) can0 18F015F1#0000465246A345CE
(1784675328.564110) can0 18FEF1F8#FF0000FFFFFFFFFF
(1784675328.565299) can0 18F005F8#7DFFFF7DFFFFFFFF
(1784675328.603939) can0 1CECFFF1#20120003FF19F000
(1784675328.604906) can0 1CEBFFF1#0127100000000000
(1784675328.605915) can0 1CEBFFF1#0200000000000000
(1784675328.606896) can0 1CEBFFF1#030067FCB4FFFFFF
(1784675328.632913) can0 18F015F1#0000465246A345CE
(1784675328.664065) can0 18FEF1F8#FF0000FFFFFFFFFF
(1784675328.665201) can0 18F005F8#7DFFFF7DFFFFFFFF
(1784675328.704023) can0 1CECFFF1#20120003FF19F000
(1784675328.704924) can0 1CEBFFF1#0127100000000000
(1784675328.705972) can0 1CEBFFF1#0200000000000000
(1784675328.706947) can0 1CEBFFF1#030067FCB4FFFFFF
(1784675328.732990) can0 18F015F1#0000465246A345CE
(1784675328.764080) can0 18FEF1F8#FF0000FFFFFFFFFF
(1784675328.765196) can0 18F005F8#7DFFFF7DFFFFFFFF
(1784675328.804950) can0 1CECFFF1#20120003FF19F000
(1784675328.805919) can0 1CEBFFF1#0127100000000000
(1784675328.806923) can0 1CEBFFF1#0200000000000000
(1784675328.807944) can0 1CEBFFF1#0300653D35FFFFFF
(1784675328.834285) can0 18F015F1#0000465246A345CE
(1784675328.864107) can0 18FEF1F8#FF0000FFFFFFFFFF
(1784675328.865310) can0 18F005F8#7DFFFF7DFFFFFFFF
(1784675328.904941) can0 1CECFFF1#20120003FF19F000
(1784675328.905914) can0 1CEBFFF1#0127100000000000
(1784675328.906918) can0 1CEBFFF1#0200000000000000
(1784675328.907894) can0 1CEBFFF1#0300653D35FFFFFF
(1784675328.933909) can0 18F015F1#0000465246A345CE
(1784675328.943829) can0 18F017F1#FDFD055DB115
(1784675328.944291) can0 18F018F1#FA0CF3419365
(1784675328.964058) can0 18FEF1F8#FF0000FFFFFFFFFF
(1784675328.965165) can0 18F005F8#7DFFFF7DFFFFFFFF
(1784675329.004923) can0 1CECFFF1#20120003FF19F000
(1784675329.005907) can0 1CEBFFF1#0127100000000000
(1784675329.007413) can0 1CEBFFF1#0200000000000000
(1784675329.007896) can0 1CEBFFF1#0300653D35FFFFFF
(1784675329.034058) can0 18F015F1#0000465246A345CE
(1784675329.064451) can0 18FEF1F8#FF0000FFFFFFFFFF
(1784675329.065717) can0 18F005F8#7DFFFF7DFFFFFFFF
(1784675329.105131) can0 1CECFFF1#20120003FF19F000
(1784675329.105939) can0 1CEBFFF1#0127100000000000
(1784675329.107089) can0 1CEBFFF1#0200000000000000
(1784675329.107905) can0 1CEBFFF1#0300633FB5FFFFFF
(1784675329.133935) can0 18F015F1#0000465246A345CE
(1784675329.164129) can0 18FEF1F8#FF0000FFFFFFFFFF
(1784675329.165267) can0 18F005F8#7DFFFF7DFFFFFFFF
(1784675329.204943) can0 1CECFFF1#20120003FF19F000
(1784675329.205909) can0 1CEBFFF1#0127100000000000
(1784675329.206920) can0 1CEBFFF1#0200000000000000
(1784675329.207901) can0 1CEBFFF1#030064FDF4FFFFFF
(1784675329.233918) can0 18F015F1#0000465246A345CE
(1784675329.264317) can0 18FEF1F8#FF0000FFFFFFFFFF
(1784675329.265545) can0 18F005F8#7DFFFF7DFFFFFFFF
(1784675329.305023) can0 1CECFFF1#20120003FF19F000
(1784675329.305958) can0 1CEBFFF1#0127100000000000
(1784675329.306953) can0 1CEBFFF1#0200000000000000
(1784675329.307947) can0 1CEBFFF1#030064FDF4FFFFFF
(1784675329.333928) can0 18F015F1#0000465246A445CE
(1784675329.364247) can0 18FEF1F8#FF0000FFFFFFFFFF
(1784675329.365418) can0 18F005F8#7DFFFF7DFFFFFFFF
(1784675329.405035) can0 1CECFFF1#20120003FF19F000
(1784675329.405991) can0 1CEBFFF1#0127100000000000
(1784675329.407106) can0 1CEBFFF1#0200000000000000
(1784675329.407968) can0 1CEBFFF1#030064FDF4FFFFFF
(1784675329.434126) can0 18F015F1#0000465246A345CE
(1784675329.464586) can0 18FEF1F8#FF0000FFFFFFFFFF
(1784675329.466066) can0 18F005F8#7DFFFF7DFFFFFFFF
(1784675329.505045) can0 1CECFFF1#20120003FF19F000
(1784675329.506040) can0 1CEBFFF1#0127100000000000
(1784675329.507292) can0 1CEBFFF1#0200000000000000
(1784675329.507970) can0 1CEBFFF1#030064FDF4FFFFFF
(1784675329.534140) can0 18F015F1#0000465246A445CE
(1784675329.564417) can0 18FEF1F8#FF0000FFFFFFFFFF
(1784675329.565652) can0 18F005F8#7DFFFF7DFFFFFFFF
(1784675329.606199) can0 1CECFFF1#20120003FF19F000
(1784675329.607135) can0 1CEBFFF1#0127100000000000
(1784675329.608073) can0 1CEBFFF1#0200000000000000
(1784675329.608968) can0 1CEBFFF1#030064FDF4FFFFFF
(1784675329.633946) can0 18F015F1#0000465246A445CE
(1784675329.664477) can0 18FEF1F8#FF0000FFFFFFFFFF
(1784675329.665843) can0 18F005F8#7DFFFF7DFFFFFFFF
(1784675329.705978) can0 1CECFFF1#20120003FF19F000
(1784675329.706932) can0 1CEBFFF1#0127100000000000
(1784675329.707944) can0 1CEBFFF1#0200000000000000
(1784675329.708922) can0 1CEBFFF1#030064FDF4FFFFFF
(1784675329.734963) can0 18F015F1#0000465246A445CE
(1784675329.764297) can0 18FEF1F8#FF0000FFFFFFFFFF
(1784675329.765546) can0 18F005F8#7DFFFF7DFFFFFFFF
(1784675329.806366) can0 1CECFFF1#20120003FF19F000
(1784675329.806965) can0 1CEBFFF1#0127100000000000
(1784675329.808109) can0 1CEBFFF1#0200000000000000
(1784675329.809043) can0 1CEBFFF1#030064FDF4FFFFFF
(1784675329.835074) can0 18F015F1#0000465246A445CE
(1784675329.864867) can0 18FEF1F8#FF0000FFFFFFFFFF
(1784675329.866196) can0 18F005F8#7DFFFF7DFFFFFFFF
(1784675329.906026) can0 1CECFFF1#20120003FF19F000
(1784675329.906941) can0 1CEBFFF1#0127100000000000
(1784675329.907955) can0 1CEBFFF1#0200000000000000
(1784675329.908929) can0 1CEBFFF1#030064FDF4FFFFFF
(1784675329.934979) can0 18F015F1#0000465246A445CE
(1784675329.944900) can0 18F017F1#FDFD055DB115
(1784675329.945326) can0 18F018F1#FA0CF3419365
(1784675329.964142) can0 18FEF1F8#FF0000FFFFFFFFFF
(1784675329.965334) can0 18F005F8#7DFFFF7DFFFFFFFF
(1784675330.005985) can0 1CECFFF1#20120003FF19F000
(1784675330.006927) can0 1CEBFFF1#0127100000000000
(1784675330.007948) can0 1CEBFFF1#0200000000000000
(1784675330.008926) can0 1CEBFFF1#030064FDF4FFFFFF
(1784675330.034978) can0 18F015F1#0000465246A445CE
(1784675330.064266) can0 18FEF1F8#FF0000FFFFFFFFFF
(1784675330.065475) can0 18F005F8#7DFFFF7DFFFFFFFF
(1784675330.106118) can0 1CECFFF1#20120003FF19F000
(1784675330.107073) can0 1CEBFFF1#0127100000000000
(1784675330.108019) can0 1CEBFFF1#0200000000000000
(1784675330.109057) can0 1CEBFFF1#030064FDF4FFFFFF
(1784675330.135059) can0 18F015F1#0000465246A445CE
(1784675330.164154) can0 18FEF1F8#FF0000FFFFFFFFFF
(1784675330.165408) can0 18F005F8#7DFFFF7DFFFFFFFF
(1784675330.205959) can0 1CECFFF1#20120003FF19F000
(1784675330.206942) can0 1CEBFFF1#0127100000000000
(1784675330.207941) can0 1CEBFFF1#0200000000000000
(1784675330.208931) can0 1CEBFFF1#030064FDF4FFFFFF
(1784675330.234937) can0 18F015F1#0000465246A445CE
(1784675330.264100) can0 18FEF1F8#FF0000FFFFFFFFFF
(1784675330.265278) can0 18F005F8#7DFFFF7DFFFFFFFF
(1784675330.305983) can0 1CECFFF1#20120003FF19F000
(1784675330.306931) can0 1CEBFFF1#0127100000000000
(1784675330.307937) can0 1CEBFFF1#0200000000000000
(1784675330.308909) can0 1CEBFFF1#0300653D35FFFFFF
(1784675330.334958) can0 18F015F1#0000465246A445CE
(1784675330.364191) can0 18FEF1F8#FF0000FFFFFFFFFF
(1784675330.365455) can0 18F005F8#7DFFFF7DFFFFFFFF
(1784675330.407224) can0 1CECFFF1#20120003FF19F000
(1784675330.407923) can0 1CEBFFF1#0127100000000000
(1784675330.409003) can0 1CEBFFF1#0200000000000000
(1784675330.409970) can0 1CEBFFF1#0300653D35FFFFFF
(1784675330.435994) can0 18F015F1#0000465246A345CE
(1784675330.464853) can0 18FEF1F8#FF0000FFFFFFFFFF
(1784675330.466035) can0 18F005F8#7DFFFF7DFFFFFFFF
(1784675330.507006) can0 1CECFFF1#20120003FF19F000
(1784675330.507993) can0 1CEBFFF1#0127100000000000
(1784675330.509113) can0 1CEBFFF1#0200000000000000
(1784675330.510179) can0 1CEBFFF1#0300653D35FFFFFF
(1784675330.535958) can0 18F015F1#0000465246A345CE
(1784675330.564091) can0 18FEF1F8#FF0000FFFFFFFFFF
(1784675330.565231) can0 18F005F8#7DFFFF7DFFFFFFFF
(1784675330.606974) can0 1CECFFF1#20120003FF19F000
(1784675330.607928) can0 1CEBFFF1#0127100000000000
(1784675330.608937) can0 1CEBFFF1#0200000000000000
(1784675330.609913) can0 1CEBFFF1#0300653D35FFFFFF
(1784675330.635934) can0 18F015F1#0000465246A345CE
(1784675330.664082) can0 18FEF1F8#FF0000FFFFFFFFFF
(1784675330.665276) can0 18F005F8#7DFFFF7DFFFFFFFF
(1784675330.707037) can0 1CECFFF1#20120003FF19F000
(1784675330.707960) can0 1CEBFFF1#0127100000000000
(1784675330.708969) can0 1CEBFFF1#0200000000000000
(1784675330.709946) can0 1CEBFFF1#0300653D35FFFFFF
(1784675330.736147) can0 18F015F1#0000465246A345CE
(1784675330.764089) can0 18FEF1F8#FF0000FFFFFFFFFF
(1784675330.765255) can0 18F005F8#7DFFFF7DFFFFFFFF
(1784675330.806978) can0 1CECFFF1#20120003FF19F000
(1784675330.807937) can0 1CEBFFF1#0127100000000000
(1784675330.808995) can0 1CEBFFF1#0200000000000000
(1784675330.809955) can0 1CEBFFF1#0300653D35FFFFFF
(1784675330.835958) can0 18F015F1#0000465246A445CE
(1784675330.864116) can0 18FEF1F8#FF0000FFFFFFFFFF
(1784675330.865301) can0 18F005F8#7DFFFF7DFFFFFFFF
(1784675330.906966) can0 1CECFFF1#20120003FF19F000
(1784675330.907931) can0 1CEBFFF1#0127100000000000
(1784675330.908947) can0 1CEBFFF1#0200000000000000
(1784675330.909922) can0 1CEBFFF1#0300653D35FFFFFF
(1784675330.935941) can0 18F015F1#0000465246A445CE
(1784675330.945857) can0 18F017F1#FF74FCA7969B
(1784675330.946327) can0 18F018F1#FD7DFC08945C
(1784675330.964071) can0 18FEF1F8#FF0000FFFFFFFFFF
(1784675330.965275) can0 18F005F8#7DFFFF7DFFFFFFFF
(1784675331.006953) can0 1CECFFF1#20120003FF19F000
(1784675331.007946) can0 1CEBFFF1#0127100000000000
(1784675331.008962) can0 1CEBFFF1#0200000000000000
(1784675331.009934) can0 1CEBFFF1#0300653D35FFFFFF
(1784675331.036110) can0 18F015F1#0000465246A445CE
(1784675331.064421) can0 18FEF1F8#FF0000FFFFFFFFFF
(1784675331.065614) can0 18F005F8#7DFFFF7DFFFFFFFF
(1784675331.107147) can0 1CECFFF1#20120003FF19F000
(1784675331.107964) can0 1CEBFFF1#0127100000000000
(1784675331.109011) can0 1CEBFFF1#0200000000000000
(1784675331.109922) can0 1CEBFFF1#0300653D35FFFFFF
(1784675331.136956) can0 18F015F1#0000465246A445CE
(1784675331.164094) can0 18FEF1F8#FF0000FFFFFFFFFF
(1784675331.165244) can0 18F005F8#7DFFFF7DFFFFFFFF
(1784675331.207982) can0 1CECFFF1#20120003FF19F000
(1784675331.208949) can0 1CEBFFF1#0127100000000000
(1784675331.209945) can0 1CEBFFF1#0200000000000000
(1784675331.210923) can0 1CEBFFF1#0300653D35FFFFFF
(1784675331.236931) can0 18F015F1#0000465246A445CE
(1784675331.264090) can0 18FEF1F8#FF0000FFFFFFFFFF
(1784675331.265276) can0 18F005F8#7DFFFF7DFFFFFFFF
(1784675331.308187) can0 1CECFFF1#20120003FF19F000
(1784675331.308955) can0 1CEBFFF1#0127100000000000
(1784675331.309971) can0 1CEBFFF1#0200000000000000
(1784675331.310948) can0 1CEBFFF1#0300653D35FFFFFF
(1784675331.337059) can0 18F015F1#0000465246A445CF
(1784675331.364261) can0 18FEF1F8#FF0000FFFFFFFFFF
(1784675331.365440) can0 18F005F8#7DFFFF7DFFFFFFFF
(1784675331.408068) can0 1CECFFF1#20120003FF19F000
(1784675331.408943) can0 1CEBFFF1#0127100000000000
(1784675331.409951) can0 1CEBFFF1#0200000000000000
(1784675331.410940) can0 1CEBFFF1#0300653D35FFFFFF
(1784675331.437348) can0 18F015F1#0000465246A445CF
(1784675331.464336) can0 18FEF1F8#FF0000FFFFFFFFFF
(1784675331.465624) can0 18F005F8#7DFFFF7DFFFFFFFF
(1784675331.508225) can0 1CECFFF1#20120003FF19F000
(1784675331.508996) can0 1CEBFFF1#0127100000000000
(1784675331.509983) can0 1CEBFFF1#0200000000000000
(1784675331.510947) can0 1CEBFFF1#0300653D35FFFFFF
(1784675331.537151) can0 18F015F1#0000465246A445CF
(1784675331.564092) can0 18FEF1F8#FF0000FFFFFFFFFF
(1784675331.565242) can0 18F005F8#7DFFFF7DFFFFFFFF
(1784675331.608000) can0 1CECFFF1#20120003FF19F000
(1784675331.608946) can0 1CEBFFF1#0127100000000000
(1784675331.609960) can0 1CEBFFF1#0200000000000000
(1784675331.610930) can0 1CEBFFF1#0300653D35FFFFFF
(1784675331.636950) can0 18F015F1#0000465246A445CF
(1784675331.664099) can0 18FEF1F8#FF0000FFFFFFFFFF
(1784675331.665248) can0 18F005F8#7DFFFF7DFFFFFFFF
(1784675331.708108) can0 1CECFFF1#20120003FF19F000
(1784675331.708980) can0 1CEBFFF1#0127100000000000
(1784675331.710000) can0 1CEBFFF1#0200000000000000
(1784675331.710970) can0 1CEBFFF1#0300663C75FFFFFF
(1784675331.737039) can0 18F015F1#0000465246A445CF
(1784675331.764720) can0 18FEF1F8#FF0000FFFFFFFFFF
(1784675331.766061) can0 18F005F8#7DFFFF7DFFFFFFFF
(1784675331.807992) can0 1CECFFF1#20120003FF19F000
(1784675331.808937) can0 1CEBFFF1#0127100000000000
(1784675331.809949) can0 1CEBFFF1#0200000000000000
(1784675331.810929) can0 1CEBFFF1#0300663C75FFFFFF
(1784675331.837150) can0 18F015F1#0000465246A445CF
(1784675331.865375) can0 18FEF1F8#FF0000FFFFFFFFFF
(1784675331.867166) can0 18F005F8#7DFFFF7DFFFFFFFF
(1784675331.908975) can0 1CECFFF1#20120003FF19F000
(1784675331.909942) can0 1CEBFFF1#0127100000000000
(1784675331.910964) can0 1CEBFFF1#0200000000000000
(1784675331.911939) can0 1CEBFFF1#0300663C75FFFFFF
(1784675331.937950) can0 18F015F1#0000465246A445CF
(1784675331.947854) can0 18F017F1#FF74FCA7969B
(1784675331.948319) can0 18F018F1#FD7DFC08945C
(1784675331.964167) can0 18FEF1F8#FF0000FFFFFFFFFF
(1784675331.965353) can0 18F005F8#7DFFFF7DFFFFFFFF
(1784675332.009005) can0 1CECFFF1#20120003FF19F000
(1784675332.009956) can0 1CEBFFF1#0127100000000000
(1784675332.010983) can0 1CEBFFF1#0200000000000000
(1784675332.012034) can0 1CEBFFF1#0300663C75FFFFFF
(1784675332.038012) can0 18F015F1#0000465246A445CF
(1784675332.064325) can0 18FEF1F8#FF0000FFFFFFFFFF
(1784675332.065597) can0 18F005F8#7DFFFF7DFFFFFFFF
(1784675332.109190) can0 1CECFFF1#20120003FF19F000
(1784675332.109979) can0 1CEBFFF1#0127100000000000
(1784675332.111008) can0 1CEBFFF1#0200000000000000
(1784675332.111993) can0 1CEBFFF1#0300663C75FFFFFF
(1784675332.138122) can0 18F015F1#0000465246A445CF
(1784675332.164170) can0 18FEF1F8#FF0000FFFFFFFFFF
(1784675332.165492) can0 18F005F8#7DFFFF7DFFFFFFFF
(1784675332.209005) can0 1CECFFF1#20120003FF19F000
(1784675332.209970) can0 1CEBFFF1#0127100000000000
(1784675332.210963) can0 1CEBFFF1#0200000000000000
(1784675332.211938) can0 1CEBFFF1#0300663C75FFFFFF
(1784675332.237937) can0 18F015F1#0000465246A445CF
(1784675332.264120) can0 18FEF1F8#FF0000FFFFFFFFFF
(1784675332.265251) can0 18F005F8#7DFFFF7DFFFFFFFF
(1784675332.309002) can0 1CECFFF1#20120003FF19F000
(1784675332.309946) can0 1CEBFFF1#0127100000000000
(1784675332.310958) can0 1CEBFFF1#0200000000000000
(1784675332.311934) can0 1CEBFFF1#0300663C75FFFFFF
(1784675332.337949) can0 18F015F1#0000465246A445CF
(1784675332.364190) can0 18FEF1F8#FF0000FFFFFFFFFF
(1784675332.365361) can0 18F005F8#7DFFFF7DFFFFFFFF
(1784675332.409059) can0 1CECFFF1#20120003FF19F000
(1784675332.409974) can0 1CEBFFF1#0127100000000000
(1784675332.410998) can0 1CEBFFF1#0200000000000000
(1784675332.411956) can0 1CEBFFF1#0300663C75FFFFFF
(1784675332.438593) can0 18F015F1#0000465246A445CF
(1784675332.465004) can0 18FEF1F8#FF0000FFFFFFFFFF
(1784675332.466474) can0 18F005F8#7DFFFF7DFFFFFFFF
(1784675332.509122) can0 1CECFFF1#20120003FF19F000
(1784675332.509944) can0 1CEBFFF1#0127100000000000
(1784675332.510954) can0 1CEBFFF1#0200000000000000
(1784675332.511932) can0 1CEBFFF1#0300663C75FFFFFF
(1784675332.537987) can0 18F015F1#0000465246A445CF
(1784675332.564114) can0 18FEF1F8#FF0000FFFFFFFFFF
(1784675332.565276) can0 18F005F8#7DFFFF7DFFFFFFFF
(1784675332.609010) can0 1CECFFF1#20120003FF19F000
(1784675332.609958) can0 1CEBFFF1#0127100000000000
(1784675332.610970) can0 1CEBFFF1#0200000000000000
(1784675332.611945) can0 1CEBFFF1#0300663C75FFFFFF
(1784675332.637977) can0 18F015F1#0000465246A445CF
(1784675332.664107) can0 18FEF1F8#FF0000FFFFFFFFFF
(1784675332.665296) can0 18F005F8#7DFFFF7DFFFFFFFF
(1784675332.710161) can0 1CECFFF1#20120003FF19F000
(1784675332.710979) can0 1CEBFFF1#0127100000000000
(1784675332.711983) can0 1CEBFFF1#0200000000000000
(1784675332.712953) can0 1CEBFFF1#0300663C75FFFFFF
(1784675332.739053) can0 18F015F1#0000465246A445CF
(1784675332.765034) can0 18FEF1F8#FF0000FFFFFFFFFF
(1784675332.766337) can0 18F005F8#7DFFFF7DFFFFFFFF
(1784675332.810036) can0 1CECFFF1#20120003FF19F000
(1784675332.810982) can0 1CEBFFF1#0127100000000000
(1784675332.811962) can0 1CEBFFF1#0200000000000000
(1784675332.812940) can0 1CEBFFF1#030067FCB4FFFFFF
(1784675332.839196) can0 18F015F1#0000465246A345CF
(1784675332.865216) can0 18FEF1F8#FF0000FFFFFFFFFF
(1784675332.866847) can0 18F005F8#7DFFFF7DFFFFFFFF
(1784675332.910018) can0 1CECFFF1#20120003FF19F000
(1784675332.910991) can0 1CEBFFF1#0127100000000000
(1784675332.911968) can0 1CEBFFF1#0200000000000000
(1784675332.912966) can0 1CEBFFF1#030067FCB4FFFFFF
(1784675332.938975) can0 18F015F1#0000465246A345CF
(1784675332.948881) can0 18F017F1#FEB7FD01977D
(1784675332.949351) can0 18F018F1#FCAFFBF49564
(1784675332.964081) can0 18FEF1F8#FF0000FFFFFFFFFF
(1784675332.965277) can0 18F005F8#7DFFFF7DFFFFFFFF
(1784675333.009990) can0 1CECFFF1#20120003FF19F000
(1784675333.010968) can0 1CEBFFF1#0127100000000000
(1784675333.011975) can0 1CEBFFF1#0200000000000000
(1784675333.012958) can0 1CEBFFF1#030067FCB4FFFFFF
(1784675333.038997) can0 18F015F1#0000465246A345CF
(1784675333.064306) can0 18FEF1F8#FF0000FFFFFFFFFF
(1784675333.065492) can0 18F005F8#7DFFFF7DFFFFFFFF
(1784675333.110255) can0 1CECFFF1#20120003FF19F000
(1784675333.111065) can0 1CEBFFF1#0127100000000000
(1784675333.111995) can0 1CEBFFF1#0200000000000000
(1784675333.112995) can0 1CEBFFF1#030067FCB4FFFFFF
(1784675333.139077) can0 18F015F1#0000465246A345CF
(1784675333.164055) can0 18FEF1F8#FF0000FFFFFFFFFF
(1784675333.165162) can0 18F005F8#7DFFFF7DFFFFFFFF
(1784675333.210046) can0 1CECFFF1#20120003FF19F000
(1784675333.210958) can0 1CEBFFF1#0127100000000000
(1784675333.211974) can0 1CEBFFF1#0200000000000000
(1784675333.212950) can0 1CEBFFF1#030067FCB4FFFFFF
(1784675333.238981) can0 18F015F1#0000465246A345CF
(1784675333.264346) can0 18FEF1F8#FF0000FFFFFFFFFF
(1784675333.265601) can0 18F005F8#7DFFFF7DFFFFFFFF
(1784675333.311012) can0 1CECFFF1#20120003FF19F000
(1784675333.311962) can0 1CEBFFF1#0127100000000000
(1784675333.312967) can0 1CEBFFF1#0200000000000000
(1784675333.313953) can0 1CEBFFF1#030067FCB4FFFFFF
(1784675333.338962) can0 18F015F1#0000465246A345CF
(1784675333.364221) can0 18FEF1F8#FF0000FFFFFFFFFF
(1784675333.365414) can0 18F005F8#7DFFFF7DFFFFFFFF
(1784675333.411255) can0 1CECFFF1#20120003FF19F000
(1784675333.412000) can0 1CEBFFF1#0127100000000000
(1784675333.413056) can0 1CEBFFF1#0200000000000000
(1784675333.414003) can0 1CEBFFF1#030067FCB4FFFFFF
(1784675333.440988) can0 18F015F1#0000465246A345CF
(1784675333.464348) can0 18FEF1F8#FF0000FFFFFFFFFF
(1784675333.465512) can0 18F005F8#7DFFFF7DFFFFFFFF
(1784675333.511148) can0 1CECFFF1#20120003FF19F000
(1784675333.511975) can0 1CEBFFF1#0127100000000000
(1784675333.512981) can0 1CEBFFF1#0200000000000000
(1784675333.514003) can0 1CEBFFF1#030067FCB4FFFFFF
(1784675333.540044) can0 18F015F1#0000465246A345CF
(1784675333.564098) can0 18FEF1F8#FF0000FFFFFFFFFF
(1784675333.565222) can0 18F005F8#7DFFFF7DFFFFFFFF
(1784675333.611022) can0 1CECFFF1#20120003FF19F000
(1784675333.611969) can0 1CEBFFF1#0127100000000000
(1784675333.612970) can0 1CEBFFF1#0200000000000000
(1784675333.613953) can0 1CEBFFF1#030067FCB4FFFFFF
(1784675333.639991) can0 18F015F1#0000465246A345CF
(1784675333.664092) can0 18FEF1F8#FF0000FFFFFFFFFF
(1784675333.665277) can0 18F005F8#7DFFFF7DFFFFFFFF
(1784675333.711116) can0 1CECFFF1#20120003FF19F000
(1784675333.711995) can0 1CEBFFF1#0127100000000000
(1784675333.713013) can0 1CEBFFF1#0200000000000000
(1784675333.713996) can0 1CEBFFF1#030067FCB4FFFFFF
(1784675333.740163) can0 18F015F1#0000465246A445CF
(1784675333.764281) can0 18FEF1F8#FF0000FFFFFFFFFF
(1784675333.765493) can0 18F005F8#7DFFFF7DFFFFFFFF
(1784675333.811016) can0 1CECFFF1#20120003FF19F000
(1784675333.811962) can0 1CEBFFF1#0127100000000000
(1784675333.812971) can0 1CEBFFF1#0200000000000000
(1784675333.813950) can0 1CEBFFF1#030067FCB4FFFFFF
(1784675333.840178) can0 18F015F1#0000465246A445CF
(1784675333.866380) can0 18FEF1F8#FF0000FFFFFFFFFF
(1784675333.867788) can0 18F005F8#7DFFFF7DFFFFFFFF
(1784675333.911023) can0 1CECFFF1#20120003FF19F000
(1784675333.911988) can0 1CEBFFF1#0127100000000000
(1784675333.913002) can0 1CEBFFF1#0200000000000000
(1784675333.913970) can0 1CEBFFF1#030067FCB4FFFFFF
(1784675333.939973) can0 18F015F1#0000465246A445CF
(1784675333.949911) can0 18F017F1#FEB7FD01977D
(1784675333.950371) can0 18F018F1#FCAFFBF49564
(1784675333.964083) can0 18FEF1F8#FF0000FFFFFFFFFF
(1784675333.965244) can0 18F005F8#7DFFFF7DFFFFFFFF
(1784675334.011023) can0 1CECFFF1#20120003FF19F000
(1784675334.012076) can0 1CEBFFF1#0127100000000000
(1784675334.013007) can0 1CEBFFF1#0200000000000000
(1784675334.013976) can0 1CEBFFF1#030067FCB4FFFFFF
(1784675334.040015) can0 18F015F1#0000465246A445CF
(1784675334.064338) can0 18FEF1F8#FF0000FFFFFFFFFF
(1784675334.065631) can0 18F005F8#7DFFFF7DFFFFFFFF
(1784675334.112195) can0 1CECFFF1#20120003FF19F000
(1784675334.113015) can0 1CEBFFF1#0127100000000000
(1784675334.114036) can0 1CEBFFF1#0200000000000000
(1784675334.114974) can0 1CEBFFF1#030068F8F4FFFFFF
(1784675334.140296) can0 18F015F1#0000465246A445CF
(1784675334.164426) can0 18FEF1F8#FF0000FFFFFFFFFF
(1784675334.165586) can0 18F005F8#7DFFFF7DFFFFFFFF
(1784675334.212032) can0 1CECFFF1#20120003FF19F000
(1784675334.212992) can0 1CEBFFF1#0127100000000000
(1784675334.213988) can0 1CEBFFF1#0200000000000000
(1784675334.214963) can0 1CEBFFF1#030068F8F4FFFFFF
(1784675334.241083) can0 18F015F1#0000465246A445CF
(1784675334.264130) can0 18FEF1F8#FF0000FFFFFFFFFF
(1784675334.265346) can0 18F005F8#7DFFFF7DFFFFFFFF
(1784675334.312064) can0 1CECFFF1#20120003FF19F000
(1784675334.312997) can0 1CEBFFF1#0127100000000000
(1784675334.313981) can0 1CEBFFF1#0200000000000000
(1784675334.314956) can0 1CEBFFF1#030068F8F4FFFFFF
(1784675334.341064) can0 18F015F1#0000465246A445CF
(1784675334.364191) can0 18FEF1F8#FF0000FFFFFFFFFF
(1784675334.365371) can0 18F005F8#7DFFFF7DFFFFFFFF
(1784675334.412147) can0 1CECFFF1#20120003FF19F000
(1784675334.412982) can0 1CEBFFF1#0127100000000000
(1784675334.413993) can0 1CEBFFF1#0200000000000000
(1784675334.414968) can0 1CEBFFF1#030068F8F4FFFFFF
(1784675334.441449) can0 18F015F1#0000465246A445CF
(1784675334.464925) can0 18FEF1F8#FF0000FFFFFFFFFF
(1784675334.466397) can0 18F005F8#7DFFFF7DFFFFFFFF
(1784675334.512150) can0 1CECFFF1#20120003FF19F000
(1784675334.512985) can0 1CEBFFF1#0127100000000000
(1784675334.513982) can0 1CEBFFF1#0200000000000000
(1784675334.514974) can0 1CEBFFF1#030068F8F4FFFFFF
(1784675334.541040) can0 18F015F1#0000465246A445CF
(1784675334.564120) can0 18FEF1F8#FF0000FFFFFFFFFF
(1784675334.565296) can0 18F005F8#7DFFFF7DFFFFFFFF
(1784675334.612015) can0 1CECFFF1#20120003FF19F000
(1784675334.612986) can0 1CEBFFF1#0127100000000000
(1784675334.614000) can0 1CEBFFF1#0200000000000000
(1784675334.614968) can0 1CEBFFF1#030068F8F4FFFFFF
(1784675334.641009) can0 18F015F1#0000465246A445CF
(1784675334.664156) can0 18FEF1F8#FF0000FFFFFFFFFF
(1784675334.665323) can0 18F005F8#7DFFFF7DFFFFFFFF
(1784675334.712055) can0 1CECFFF1#20120003FF19F000
(1784675334.713004) can0 1CEBFFF1#0127100000000000
(1784675334.714010) can0 1CEBFFF1#0200000000000000
(1784675334.714984) can0 1CEBFFF1#030068F8F4FFFFFF
(1784675334.741087) can0 18F015F1#0000465246A445CF
(1784675334.764411) can0 18FEF1F8#FF0000FFFFFFFFFF
(1784675334.765663) can0 18F005F8#7DFFFF7DFFFFFFFF
(1784675334.812021) can0 1CECFFF1#20120003FF19F000
(1784675334.812979) can0 1CEBFFF1#0127100000000000
(1784675334.813981) can0 1CEBFFF1#0200000000000000
(1784675334.814957) can0 1CEBFFF1#030068F8F4FFFFFF
(1784675334.841282) can0 18F015F1#0000465246A445CF
(1784675334.864537) can0 18FEF1F8#FF0000FFFFFFFFFF
(1784675334.866043) can0 18F005F8#7DFFFF7DFFFFFFFF
(1784675334.912041) can0 1CECFFF1#20120003FF19F000
(1784675334.912981) can0 1CEBFFF1#0127100000000000
(1784675334.913986) can0 1CEBFFF1#0200000000000000
(1784675334.914959) can0 1CEBFFF1#030068F8F4FFFFFF
(1784675334.940983) can0 18F015F1#0000465246A445CF
(1784675334.951950) can0 18F017F1#FDD0FCCA9767
(1784675334.960321) can0 18F018F1#FD6FFC4795DF
(1784675334.964075) can0 18FEF1F8#FF0000FFFFFFFFFF
(1784675334.965241) can0 18F005F8#7DFFFF7DFFFFFFFF
(1784675335.013022) can0 1CECFFF1#20120003FF19F000
(1784675335.013990) can0 1CEBFFF1#0127100000000000
(1784675335.015000) can0 1CEBFFF1#0200000000000000
(1784675335.015976) can0 1CEBFFF1#030068F8F4FFFFFF
(1784675335.042013) can0 18F015F1#0000465246A445CF
(1784675335.064215) can0 18FEF1F8#FF0000FFFFFFFFFF
(1784675335.065414) can0 18F005F8#7DFFFF7DFFFFFFFF
(1784675335.113319) can0 1CECFFF1#20120003FF19F000
(1784675335.114034) can0 1CEBFFF1#0127100000000000
(1784675335.115112) can0 1CEBFFF1#0200000000000000
(1784675335.116065) can0 1CEBFFF1#030068F8F4FFFFFF
(1784675335.142202) can0 18F015F1#0000465246A445CF
(1784675335.164346) can0 18FEF1F8#FF0000FFFFFFFFFF
(1784675335.165543) can0 18F005F8#7DFFFF7DFFFFFFFF
(1784675335.213283) can0 1CECFFF1#20120003FF19F000
(1784675335.214134) can0 1CEBFFF1#0127100000000000
(1784675335.214990) can0 1CEBFFF1#0200000000000000
(1784675335.215970) can0 1CEBFFF1#030068F8F4FFFFFF
(1784675335.242026) can0 18F015F1#0000465246A345CF
(1784675335.264085) can0 18FEF1F8#FF0000FFFFFFFFFF
(1784675335.265219) can0 18F005F8#7DFFFF7DFFFFFFFF
(1784675335.313047) can0 1CECFFF1#20120003FF19F000
(1784675335.313982) can0 1CEBFFF1#0127100000000000
(1784675335.314989) can0 1CEBFFF1#0200000000000000
(1784675335.315965) can0 1CEBFFF1#030068F8F4FFFFFF
(1784675335.341992) can0 18F015F1#0000465246A445CF
(1784675335.365278) can0 18FEF1F8#FF0000FFFFFFFFFF
(1784675335.366411) can0 18F005F8#7DFFFF7DFFFFFFFF
(1784675335.413102) can0 1CECFFF1#20120003FF19F000
(1784675335.413985) can0 1CEBFFF1#0127100000000000
(1784675335.415004) can0 1CEBFFF1#0200000000000000
(1784675335.415984) can0 1CEBFFF1#0300693835FFFFFF
(1784675335.442143) can0 18F015F1#0000465246A445CF
(1784675335.464484) can0 18FEF1F8#FF0000FFFFFFFFFF
(1784675335.465775) can0 18F005F8#7DFFFF7DFFFFFFFF
(1784675335.513254) can0 1CECFFF1#20120003FF19F000
(1784675335.513987) can0 1CEBFFF1#0127100000000000
(1784675335.515023) can0 1CEBFFF1#0200000000000000
(1784675335.516064) can0 1CEBFFF1#0300693835FFFFFF
(1784675335.542048) can0 18F015F1#0000465246A445CF
(1784675335.564197) can0 18FEF1F8#FF0000FFFFFFFFFF
(1784675335.565333) can0 18F005F8#7DFFFF7DFFFFFFFF
(1784675335.614053) can0 1CECFFF1#20120003FF19F000
(1784675335.614988) can0 1CEBFFF1#0127100000000000
(1784675335.615996) can0 1CEBFFF1#0200000000000000
(1784675335.616987) can0 1CEBFFF1#0300693835FFFFFF
(1784675335.643006) can0 18F015F1#0000465246A445CF
(1784675335.664085) can0 18FEF1F8#FF0000FFFFFFFFFF
(1784675335.665232) can0 18F005F8#7DFFFF7DFFFFFFFF
(1784675335.713015) can0 1CECFFF1#20120003FF19F000
(1784675335.713995) can0 1CEBFFF1#0127100000000000
(1784675335.715004) can0 1CEBFFF1#0200000000000000
(1784675335.715990) can0 1CEBFFF1#0300693835FFFFFF
(1784675335.741997) can0 18F015F1#0000465246A445CF
(1784675335.764066) can0 18FEF1F8#FF0000FFFFFFFFFF
(1784675335.765256) can0 18F005F8#7DFFFF7DFFFFFFFF
(1784675335.814161) can0 1CECFFF1#20120003FF19F000
(1784675335.815021) can0 1CEBFFF1#0127100000000000
(1784675335.816048) can0 1CEBFFF1#0200000000000000
(1784675335.817028) can0 1CEBFFF1#0300693835FFFFFF
(1784675335.843128) can0 18F015F1#0000465246A445CF
(1784675335.864191) can0 18FEF1F8#FF0000FFFFFFFFFF
(1784675335.865318) can0 18F005F8#7DFFFF7DFFFFFFFF
(1784675335.914041) can0 1CECFFF1#20120003FF19F000
(1784675335.914987) can0 1CEBFFF1#0127100000000000
(1784675335.915998) can0 1CEBFFF1#0200000000000000
(1784675335.916989) can0 1CEBFFF1#0300693835FFFFFF
(1784675335.943009) can0 18F015F1#0000465246A445CE
(1784675335.952906) can0 18F017F1#FDD0FCCA9767
(1784675335.953379) can0 18F018F1#FD6FFC4795DF
(1784675335.964076) can0 18FEF1F8#FF0000FFFFFFFFFF
(1784675335.965257) can0 18F005F8#7DFFFF7DFFFFFFFF
(1784675336.014058) can0 1CECFFF1#20120003FF19F000
(1784675336.015001) can0 1CEBFFF1#0127100000000000
(1784675336.016003) can0 1CEBFFF1#0200000000000000
(1784675336.016996) can0 1CEBFFF1#0300693835FFFFFF
(1784675336.043022) can0 18F015F1#0000465246A445CE
(1784675336.064073) can0 18FEF1F8#FF0000FFFFFFFFFF
(1784675336.065270) can0 18F005F8#7DFFFF7DFFFFFFFF
(1784675336.114235) can0 1CECFFF1#20120003FF19F000
(1784675336.115045) can0 1CEBFFF1#0127100000000000
(1784675336.116072) can0 1CEBFFF1#0200000000000000
(1784675336.117057) can0 1CEBFFF1#0300693835FFFFFF
(1784675336.143356) can0 18F015F1#0000465246A445CE
(1784675336.164260) can0 18FEF1F8#FF0000FFFFFFFFFF
(1784675336.165780) can0 18F005F8#7DFFFF7DFFFFFFFF
(1784675336.214011) can0 1CECFFF1#20120003FF19F000
(1784675336.214990) can0 1CEBFFF1#0127100000000000
(1784675336.215998) can0 1CEBFFF1#0200000000000000
(1784675336.216987) can0 1CEBFFF1#0300693835FFFFFF
(1784675336.243044) can0 18F015F1#0000465246A445CE
(1784675336.264087) can0 18FEF1F8#FF0000FFFFFFFFFF
(1784675336.265239) can0 18F005F8#7DFFFF7DFFFFFFFF
(1784675336.314066) can0 1CECFFF1#20120003FF19F000
(1784675336.315003) can0 1CEBFFF1#0127100000000000
(1784675336.316012) can0 1CEBFFF1#0200000000000000
(1784675336.317000) can0 1CEBFFF1#0300693835FFFFFF
(1784675336.343009) can0 18F015F1#0000465246A445CE
(1784675336.364107) can0 18FEF1F8#FF0000FFFFFFFFFF
(1784675336.365254) can0 18F005F8#7DFFFF7DFFFFFFFF
(1784675336.415164) can0 1CECFFF1#20120003FF19F000
(1784675336.416020) can0 1CEBFFF1#0127100000000000
(1784675336.417038) can0 1CEBFFF1#0200000000000000
(1784675336.418022) can0 1CEBFFF1#0300693835FFFFFF
(1784675336.444159) can0 18F015F1#0000465246A445CF
(1784675336.464558) can0 18FEF1F8#FF0000FFFFFFFFFF
(1784675336.465839) can0 18F005F8#7DFFFF7DFFFFFFFF
(1784675336.516214) can0 1CECFFF1#20120003FF19F000
(1784675336.516958) can0 1CEBFFF1#0127100000000000
(1784675336.517324) can0 1CEBFFF1#0200000000000000
(1784675336.518252) can0 1CEBFFF1#0300693835FFFFFF
(1784675336.544031) can0 18F015F1#0000465246A445CF
(1784675336.564122) can0 18FEF1F8#FF0000FFFFFFFFFF
(1784675336.566107) can0 18F005F8#7DFFFF7DFFFFFFFF
(1784675336.615090) can0 1CECFFF1#20120003FF19F000
(1784675336.616006) can0 1CEBFFF1#0127100000000000
(1784675336.617395) can0 1CEBFFF1#0200000000000000
(1784675336.617995) can0 1CEBFFF1#0300693835FFFFFF
(1784675336.644038) can0 18F015F1#0000465246A445CF
(1784675336.664103) can0 18FEF1F8#FF0000FFFFFFFFFF
(1784675336.665304) can0 18F005F8#7DFFFF7DFFFFFFFF
(1784675336.715036) can0 1CECFFF1#20120003FF19F000
(1784675336.716001) can0 1CEBFFF1#0127100000000000
(1784675336.717015) can0 1CEBFFF1#0200000000000000
(1784675336.718002) can0 1CEBFFF1#0300693835FFFFFF
(1784675336.744121) can0 18F015F1#0000465246A445CF
(1784675336.764257) can0 18FEF1F8#FF0000FFFFFFFFFF
(1784675336.765445) can0 18F005F8#7DFFFF7DFFFFFFFF
(1784675336.815174) can0 1CECFFF1#20120003FF19F000
(1784675336.816081) can0 1CEBFFF1#0127100000000000
(1784675336.817141) can0 1CEBFFF1#0200000000000000
(1784675336.818011) can0 1CEBFFF1#03006A3975FFFFFF
(1784675336.844132) can0 18F015F1#0000465246A445CF
(1784675336.864986) can0 18FEF1F8#FF0000FFFFFFFFFF
(1784675336.866180) can0 18F005F8#7DFFFF7DFFFFFFFF
(1784675336.915066) can0 1CECFFF1#20120003FF19F000
(1784675336.916009) can0 1CEBFFF1#0127100000000000
(1784675336.917028) can0 1CEBFFF1#0200000000000000
(1784675336.917987) can0 1CEBFFF1#03006A3975FFFFFF
(1784675336.944015) can0 18F015F1#0000465246A445CF
(1784675336.953923) can0 18F017F1#FDD1FCE39707
(1784675336.954384) can0 18F018F1#FD79FC5F95D5
(1784675336.964074) can0 18FEF1F8#FF0000FFFFFFFFFF
(1784675336.965238) can0 18F005F8#7DFFFF7DFFFFFFFF
(1784675337.015090) can0 1CECFFF1#20120003FF19F000
(1784675337.016004) can0 1CEBFFF1#0127100000000000
(1784675337.017021) can0 1CEBFFF1#0200000000000000
(1784675337.017993) can0 1CEBFFF1#03006A3975FFFFFF
(1784675337.044024) can0 18F015F1#0000465246A445CF
(1784675337.064090) can0 18FEF1F8#FF0000FFFFFFFFFF
(1784675337.065419) can0 18F005F8#7DFFFF7DFFFFFFFF
(1784675337.115185) can0 1CECFFF1#20120003FF19F000
(1784675337.116039) can0 1CEBFFF1#0127100000000000
(1784675337.117062) can0 1CEBFFF1#0200000000000000
(1784675337.118040) can0 1CEBFFF1#03006A3975FFFFFF
(1784675337.144582) can0 18F015F1#0000465246A445CE
(1784675337.164283) can0 18FEF1F8#FF0000FFFFFFFFFF
(1784675337.165570) can0 18F005F8#7DFFFF7DFFFFFFFF
(1784675337.216037) can0 1CECFFF1#20120003FF19F000
(1784675337.217016) can0 1CEBFFF1#0127100000000000
(1784675337.218020) can0 1CEBFFF1#0200000000000000
(1784675337.218994) can0 1CEBFFF1#03006A3975FFFFFF
(1784675337.245107) can0 18F015F1#0000465246A445CE
(1784675337.264106) can0 18FEF1F8#FF0000FFFFFFFFFF
(1784675337.265294) can0 18F005F8#7DFFFF7DFFFFFFFF
(1784675337.316072) can0 1CECFFF1#20120003FF19F000
(1784675337.317005) can0 1CEBFFF1#0127100000000000
(1784675337.318015) can0 1CEBFFF1#0200000000000000
(1784675337.318987) can0 1CEBFFF1#03006A3975FFFFFF
(1784675337.345015) can0 18F015F1#0000465246A445CE
(1784675337.364134) can0 18FEF1F8#FF0000FFFFFFFFFF
(1784675337.365360) can0 18F005F8#7DFFFF7DFFFFFFFF
(1784675337.416120) can0 1CECFFF1#20120003FF19F000
(1784675337.417034) can0 1CEBFFF1#0127100000000000
(1784675337.418054) can0 1CEBFFF1#0200000000000000
(1784675337.419025) can0 1CEBFFF1#03006A3975FFFFFF
(1784675337.445120) can0 18F015F1#0000465246A445CE
(1784675337.464273) can0 18FEF1F8#FF0000FFFFFFFFFF
(1784675337.465491) can0 18F005F8#7DFFFF7DFFFFFFFF
(1784675337.516067) can0 1CECFFF1#20120003FF19F000
(1784675337.517007) can0 1CEBFFF1#0127100000000000
(1784675337.518013) can0 1CEBFFF1#0200000000000000
(1784675337.518987) can0 1CEBFFF1#03006A3975FFFFFF
(1784675337.545008) can0 18F015F1#0000465246A445CE
(1784675337.564704) can0 18FEF1F8#FF0000FFFFFFFFFF
(1784675337.565968) can0 18F005F8#7DFFFF7DFFFFFFFF
(1784675337.616121) can0 1CECFFF1#20120003FF19F000
(1784675337.617059) can0 1CEBFFF1#0127100000000000
(1784675337.618093) can0 1CEBFFF1#0200000000000000
(1784675337.619049) can0 1CEBFFF1#03006A3975FFFFFF
(1784675337.645071) can0 18F015F1#0000465246A445CE
(1784675337.664084) can0 18FEF1F8#FF0000FFFFFFFFFF
(1784675337.665303) can0 18F005F8#7DFFFF7DFFFFFFFF
(1784675337.716054) can0 1CECFFF1#20120003FF19F000
(1784675337.717030) can0 1CEBFFF1#0127100000000000
(1784675337.718031) can0 1CEBFFF1#0200000000000000
(1784675337.719017) can0 1CEBFFF1#03006A3975FFFFFF
(1784675337.745019) can0 18F015F1#0000465246A445CE
(1784675337.764061) can0 18FEF1F8#FF0000FFFFFFFFFF
(1784675337.765271) can0 18F005F8#7DFFFF7DFFFFFFFF
(1784675337.816194) can0 1CECFFF1#20120003FF19F000
(1784675337.817067) can0 1CEBFFF1#0127100000000000
(1784675337.819584) can0 1CEBFFF1#0200000000000000
(1784675337.819867) can0 1CEBFFF1#03006A3975FFFFFF
(1784675337.845202) can0 18F015F1#0000465246A445CE
(1784675337.865994) can0 18FEF1F8#FF0000FFFFFFFFFF
(1784675337.867282) can0 18F005F8#7DFFFF7DFFFFFFFF
(1784675337.916420) can0 1CECFFF1#20120003FF19F000
(1784675337.917115) can0 1CEBFFF1#0127100000000000
(1784675337.918097) can0 1CEBFFF1#0200000000000000
(1784675337.919144) can0 1CEBFFF1#03006A3975FFFFFF
(1784675337.945147) can0 18F015F1#0000465246A445CE
(1784675337.955955) can0 18F017F1#FDD1FCE39707
(1784675337.956395) can0 18F018F1#FD79FC5F95D5
(1784675337.964069) can0 18FEF1F8#FF0000FFFFFFFFFF
(1784675337.965219) can0 18F005F8#7DFFFF7DFFFFFFFF
(1784675338.017090) can0 1CECFFF1#20120003FF19F000
(1784675338.018024) can0 1CEBFFF1#0127100000000000
(1784675338.019061) can0 1CEBFFF1#0200000000000000
(1784675338.020031) can0 1CEBFFF1#03006A3975FFFFFF
(1784675338.046053) can0 18F015F1#0000465246A445CE
(1784675338.064112) can0 18FEF1F8#FF0000FFFFFFFFFF
(1784675338.065243) can0 18F005F8#7DFFFF7DFFFFFFFF
(1784675338.117180) can0 1CECFFF1#20120003FF19F000
(1784675338.118034) can0 1CEBFFF1#0127100000000000
(1784675338.119038) can0 1CEBFFF1#0200000000000000
(1784675338.120045) can0 1CEBFFF1#03006A3975FFFFFF
(1784675338.146141) can0 18F015F1#0000465246A445CE
(1784675338.164878) can0 18FEF1F8#FF0000FFFFFFFFFF
(1784675338.166298) can0 18F005F8#7DFFFF7DFFFFFFFF
(1784675338.217061) can0 1CECFFF1#20120003FF19F000
(1784675338.218017) can0 1CEBFFF1#0127100000000000
(1784675338.219024) can0 1CEBFFF1#0200000000000000
(1784675338.220019) can0 1CEBFFF1#03006BF9B4FFFFFF
(1784675338.246078) can0 18F015F1#0000465246A445CE
(1784675338.264079) can0 18FEF1F8#FF0000FFFFFFFFFF
(1784675338.265253) can0 18F005F8#7DFFFF7DFFFFFFFF
(1784675338.317107) can0 1CECFFF1#20120003FF19F000
(1784675338.318032) can0 1CEBFFF1#0127100000000000
(1784675338.319035) can0 1CEBFFF1#0200000000000000
(1784675338.320031) can0 1CEBFFF1#03006BF9B4FFFFFF
(1784675338.346050) can0 18F015F1#0000465246A445CE
(1784675338.364094) can0 18FEF1F8#FF0000FFFFFFFFFF
(1784675338.365238) can0 18F005F8#7DFFFF7DFFFFFFFF
(1784675338.417122) can0 1CECFFF1#20120003FF19F000
(1784675338.418039) can0 1CEBFFF1#0127100000000000
(1784675338.419058) can0 1CEBFFF1#0200000000000000
(1784675338.420101) can0 1CEBFFF1#03006BF9B4FFFFFF
(1784675338.446101) can0 18F015F1#0000465246A445CF
