(1785789682.978317) can0 18FEF1F8#FF0000FFFFFFFFFF
(1785789682.979620) can0 18F005F8#7DFFFF7DFFFFFFFF
(1785789683.031159) can0 1CECFFF1#20120003FF19F000
(1785789683.032113) can0 1CEBFFF1#0127100000000000
(1785789683.033145) can0 1CEBFFF1#0200000000000000
(1785789683.034134) can0 1CEBFFF1#03FFF461B5FFFFFF
(1785789683.038756) can0 18FF09D1#01000A00D59CE6
(1785789683.060108) can0 18F015F1#00004643477E4556
(1785789683.078065) can0 18FEF1F8#FF0000FFFFFFFFFF
(1785789683.079246) can0 18F005F8#7DFFFF7DFFFFFFFF
(1785789683.131157) can0 1CECFFF1#20120003FF19F000
(1785789683.132079) can0 1CEBFFF1#0127100000000000
(1785789683.133092) can0 1CEBFFF1#0200000000000000
(1785789683.134075) can0 1CEBFFF1#03FFF461B5FFFFFF
(1785789683.138604) can0 18FF09D1#01000A00D59CE6
(1785789683.161071) can0 18F015F1#00004643477D4556
(1785789683.178500) can0 18FEF1F8#FF0000FFFFFFFFFF
(1785789683.179651) can0 18F005F8#7DFFFF7DFFFFFFFF
(1785789683.231306) can0 1CECFFF1#20120003FF19F000
(1785789683.232122) can0 1CEBFFF1#0127100000000000
(1785789683.233172) can0 1CEBFFF1#0200000000000000
(1785789683.234188) can0 1CEBFFF1#03FFF461B5FFFFFF
(1785789683.238891) can0 18FF09D1#01000A00D538E6
(1785789683.239414) can0 18FF14D1#
(1785789683.239681) can0 18FF16D1#01000A0064
(1785789683.260196) can0 18F015F1#00004643477D4556
(1785789683.278040) can0 18FEF1F8#FF0000FFFFFFFFFF
(1785789683.279230) can0 18F005F8#7DFFFF7DFFFFFFFF
(1785789683.331135) can0 1CECFFF1#20120003FF19F000
(1785789683.332089) can0 1CEBFFF1#0127100000000000
(1785789683.333160) can0 1CEBFFF1#0200000000000000
(1785789683.334118) can0 1CEBFFF1#03FFF461B5FFFFFF
(1785789683.338629) can0 18FF09D1#01000A00D538E6
(1785789683.360107) can0 18F015F1#00004643477E4556
(1785789683.378038) can0 18FEF1F8#FF0000FFFFFFFFFF
(1785789683.379239) can0 18F005F8#7DFFFF7DFFFFFFFF
(1785789683.431119) can0 1CECFFF1#20120003FF19F000
(1785789683.432085) can0 1CEBFFF1#0127100000000000
(1785789683.433095) can0 1CEBFFF1#0200000000000000
(1785789683.434077) can0 1CEBFFF1#03FFF461B5FFFFFF
(1785789683.438578) can0 18FF09D1#01000A00D538E6
(1785789683.460076) can0 18F015F1#00004643477D4556
(1785789683.478009) can0 18FEF1F8#FF0000FFFFFFFFFF
(1785789683.479121) can0 18F005F8#7DFFFF7DFFFFFFFF
(1785789683.532228) can0 1CECFFF1#20120003FF19F000
(1785789683.533095) can0 1CEBFFF1#0127100000000000
(1785789683.534103) can0 1CEBFFF1#0200000000000000
(1785789683.535082) can0 1CEBFFF1#03FFF461B5FFFFFF
(1785789683.538611) can0 18FF09D1#01000A00D538E6
(1785789683.561279) can0 18F015F1#00004643477D4556
(1785789683.578557) can0 18FEF1F8#FF0000FFFFFFFFFF
(1785789683.579892) can0 18F005F8#7DFFFF7DFFFFFFFF
(1785789683.632149) can0 1CECFFF1#20120003FF19F000
(1785789683.633089) can0 1CEBFFF1#0127100000000000
(1785789683.634096) can0 1CEBFFF1#0200000000000000
(1785789683.635077) can0 1CEBFFF1#03FFF461B5FFFFFF
(1785789683.638592) can0 18FF09D1#01000A00D538E6
(1785789683.661246) can0 18F015F1#00004643477E4556
(1785789683.671090) can0 18F017F1#FAFEFD509CF4
(1785789683.671417) can0 18F018F1#F5ABF7329250
(1785789683.679133) can0 18FEF1F8#FF0000FFFFFFFFFF
(1785789683.680289) can0 18F005F8#7DFFFF7DFFFFFFFF
(1785789683.732140) can0 1CECFFF1#20120003FF19F000
(1785789683.733094) can0 1CEBFFF1#0127100000000000
(1785789683.734102) can0 1CEBFFF1#0200000000000000
(1785789683.735095) can0 1CEBFFF1#03FFF461B5FFFFFF
(1785789683.738657) can0 18FF09D1#01000A00D538E6
(1785789683.739003) can0 18FF14D1#
(1785789683.761090) can0 18F015F1#00004643477D4556
(1785789683.778078) can0 18FEF1F8#FF0000FFFFFFFFFF
(1785789683.779218) can0 18F005F8#7DFFFF7DFFFFFFFF
(1785789683.832122) can0 1CECFFF1#20120003FF19F000
(1785789683.833112) can0 1CEBFFF1#0127100000000000
(1785789683.834115) can0 1CEBFFF1#0200000000000000
(1785789683.835093) can0 1CEBFFF1#03FFF461B5FFFFFF
(1785789683.838913) can0 18FF09D1#01000A00D538E6
(1785789683.861089) can0 18F015F1#00004643477E4556
(1785789683.878338) can0 18FEF1F8#FF0000FFFFFFFFFF
(1785789683.879575) can0 18F005F8#7DFFFF7DFFFFFFFF
(1785789683.932263) can0 1CECFFF1#20120003FF19F000
(1785789683.933104) can0 1CEBFFF1#0127100000000000
(1785789683.934100) can0 1CEBFFF1#0200000000000000
(1785789683.935112) can0 1CEBFFF1#03FFF461B5FFFFFF
(1785789683.938656) can0 18FF09D1#01000A00D538E6
(1785789683.961214) can0 18F015F1#00004643477E4556
(1785789683.978013) can0 18FEF1F8#FF0000FFFFFFFFFF
(1785789683.979147) can0 18F005F8#7DFFFF7DFFFFFFFF
(1785789684.032176) can0 1CECFFF1#20120003FF19F000
(1785789684.033105) can0 1CEBFFF1#0127100000000000
(1785789684.034113) can0 1CEBFFF1#0200000000000000
(1785789684.035096) can0 1CEBFFF1#03FFF461B5FFFFFF
(1785789684.038618) can0 18FF09D1#01000A00D538E6
(1785789684.061106) can0 18F015F1#00004643477D4556
(1785789684.078059) can0 18FEF1F8#FF0000FFFFFFFFFF
(1785789684.079243) can0 18F005F8#7DFFFF7DFFFFFFFF
(1785789684.132144) can0 1CECFFF1#20120003FF19F000
(1785789684.133105) can0 1CEBFFF1#0127100000000000
(1785789684.134110) can0 1CEBFFF1#0200000000000000
(1785789684.135093) can0 1CEBFFF1#03FFF461B5FFFFFF
(1785789684.138564) can0 18FF09D1#01000A00D538E6
(1785789684.162092) can0 18F015F1#00004643477E4556
(1785789684.178100) can0 18FEF1F8#FF0000FFFFFFFFFF
(1785789684.179519) can0 18F005F8#7DFFFF7DFFFFFFFF
(1785789684.233372) can0 1CECFFF1#20120003FF19F000
(1785789684.234170) can0 1CEBFFF1#0127100000000000
(1785789684.235099) can0 1CEBFFF1#0200000000000000
(1785789684.236091) can0 1CEBFFF1#03FFF461B5FFFFFF
(1785789684.238865) can0 18FF09D1#01000A00D5E0E3
(1785789684.239419) can0 18FF14D1#
(1785789684.262088) can0 18F015F1#00004642477D4556
(1785789684.278034) can0 18FEF1F8#FF0000FFFFFFFFFF
(1785789684.279152) can0 18F005F8#7DFFFF7DFFFFFFFF
(1785789684.333138) can0 1CECFFF1#20120003FF19F000
(1785789684.334094) can0 1CEBFFF1#0127100000000000
(1785789684.335102) can0 1CEBFFF1#0200000000000000
(1785789684.336096) can0 1CEBFFF1#03FFF3A3F4FFFFFF
(1785789684.338645) can0 18FF09D1#01000A00D5E0E3
(1785789684.362118) can0 18F015F1#00004643477D4556
(1785789684.378057) can0 18FEF1F8#FF0000FFFFFFFFFF
(1785789684.379272) can0 18F005F8#7DFFFF7DFFFFFFFF
(1785789684.433146) can0 1CECFFF1#20120003FF19F000
(1785789684.434109) can0 1CEBFFF1#0127100000000000
(1785789684.435110) can0 1CEBFFF1#0200000000000000
(1785789684.436098) can0 1CEBFFF1#03FFF3A3F4FFFFFF
(1785789684.438565) can0 18FF09D1#01000A00D5E0E3
(1785789684.462097) can0 18F015F1#00004642477E4556
(1785789684.478011) can0 18FEF1F8#FF0000FFFFFFFFFF
(1785789684.479223) can0 18F005F8#7DFFFF7DFFFFFFFF
(1785789684.533211) can0 1CECFFF1#20120003FF19F000
(1785789684.534110) can0 1CEBFFF1#0127100000000000
(1785789684.535114) can0 1CEBFFF1#0200000000000000
(1785789684.536112) can0 1CEBFFF1#03FFF3A3F4FFFFFF
(1785789684.538556) can0 18FF09D1#01000A00D5E0E3
(1785789684.562165) can0 18F015F1#00004642477D4556
(1785789684.578581) can0 18FEF1F8#FF0000FFFFFFFFFF
(1785789684.579917) can0 18F005F8#7DFFFF7DFFFFFFFF
(1785789684.633150) can0 1CECFFF1#20120003FF19F000
(1785789684.634092) can0 1CEBFFF1#0127100000000000
(1785789684.635101) can0 1CEBFFF1#0200000000000000
(1785789684.636098) can0 1CEBFFF1#03FFF3A3F4FFFFFF
(1785789684.638486) can0 18FF09D1#01000A00D5E0E3
(1785789684.663122) can0 18F015F1#00004642477D4556
(1785789684.672037) can0 18F017F1#FAFEFD509CF4
(1785789684.672486) can0 18F018F1#F5ABF7329250
(1785789684.678118) can0 18FEF1F8#FF0000FFFFFFFFFF
(1785789684.679394) can0 18F005F8#7DFFFF7DFFFFFFFF
(1785789684.733149) can0 1CECFFF1#20120003FF19F000
(1785789684.734102) can0 1CEBFFF1#0127100000000000
(1785789684.735112) can0 1CEBFFF1#0200000000000000
(1785789684.736099) can0 1CEBFFF1#03FFF3A3F4FFFFFF
(1785789684.738609) can0 18FF09D1#01000A00D50CE5
(1785789684.738950) can0 18FF14D1#
(1785789684.762109) can0 18F015F1#00004642477E4556
(1785789684.778075) can0 18FEF1F8#FF0000FFFFFFFFFF
(1785789684.779228) can0 18F005F8#7DFFFF7DFFFFFFFF
(1785789684.834141) can0 1CECFFF1#20120003FF19F000
(1785789684.835107) can0 1CEBFFF1#0127100000000000
(1785789684.836117) can0 1CEBFFF1#0200000000000000
(1785789684.837102) can0 1CEBFFF1#03FFF3A3F4FFFFFF
(1785789684.838552) can0 18FF09D1#01000A00D50CE5
(1785789684.863161) can0 18F015F1#00004642477D4556
(1785789684.878315) can0 18FEF1F8#FF0000FFFFFFFFFF
(1785789684.879523) can0 18F005F8#7DFFFF7DFFFFFFFF
(1785789684.933512) can0 1CECFFF1#20120003FF19F000
(1785789684.934372) can0 1CEBFFF1#0127100000000000
(1785789684.935214) can0 1CEBFFF1#0200000000000000
(1785789684.936117) can0 1CEBFFF1#03FFF3A3F4FFFFFF
(1785789684.938557) can0 18FF09D1#01000A00D50CE5
(1785789684.962220) can0 18F015F1#00004643477D4556
(1785789684.978278) can0 18FEF1F8#FF0000FFFFFFFFFF
(1785789684.979547) can0 18F005F8#7DFFFF7DFFFFFFFF
(1785789685.035008) can0 1CECFFF1#20120003FF19F000
(1785789685.036081) can0 1CEBFFF1#0127100000000000
(1785789685.036355) can0 1CEBFFF1#0200000000000000
(1785789685.037174) can0 1CEBFFF1#03FFF3A3F4FFFFFF
(1785789685.038580) can0 18FF09D1#01000A00D50CE5
(1785789685.063192) can0 18F015F1#00004642477E4557
(1785789685.078234) can0 18FEF1F8#FF0000FFFFFFFFFF
(1785789685.079449) can0 18F005F8#7DFFFF7DFFFFFFFF
(1785789685.134180) can0 1CECFFF1#20120003FF19F000
(1785789685.135109) can0 1CEBFFF1#0127100000000000
(1785789685.136122) can0 1CEBFFF1#0200000000000000
(1785789685.137098) can0 1CEBFFF1#03FFF3A3F4FFFFFF
(1785789685.138543) can0 18FF09D1#01000A00D50CE5
(1785789685.163121) can0 18F015F1#00004642477D4557
(1785789685.178223) can0 18FEF1F8#FF0000FFFFFFFFFF
(1785789685.179465) can0 18F005F8#7DFFFF7DFFFFFFFF
(1785789685.234209) can0 1CECFFF1#20120003FF19F000
(1785789685.235120) can0 1CEBFFF1#0127100000000000
(1785789685.236136) can0 1CEBFFF1#0200000000000000
(1785789685.237122) can0 1CEBFFF1#03FFF3A3F4FFFFFF
(1785789685.238741) can0 18FF09D1#01000A00D50CE5
(1785789685.239106) can0 18FF14D1#
(1785789685.239399) can0 18FF16D1#01000A0064
(1785789685.263197) can0 18F015F1#00004642477D4557
(1785789685.278229) can0 18FEF1F8#FF0000FFFFFFFFFF
(1785789685.279385) can0 18F005F8#7DFFFF7DFFFFFFFF
(1785789685.334128) can0 1CECFFF1#20120003FF19F000
(1785789685.335104) can0 1CEBFFF1#0127100000000000
(1785789685.336119) can0 1CEBFFF1#0200000000000000
(1785789685.337104) can0 1CEBFFF1#03FFF3A3F4FFFFFF
(1785789685.338780) can0 18FF09D1#01000A00D50CE5
(1785789685.363143) can0 18F015F1#00004642477E4557
(1785789685.378017) can0 18FEF1F8#FF0000FFFFFFFFFF
(1785789685.379173) can0 18F005F8#7DFFFF7DFFFFFFFF
(1785789685.434165) can0 1CECFFF1#20120003FF19F000
(1785789685.435111) can0 1CEBFFF1#0127100000000000
(1785789685.436119) can0 1CEBFFF1#0200000000000000
(1785789685.437110) can0 1CEBFFF1#03FFF3A3F4FFFFFF
(1785789685.438522) can0 18FF09D1#01000A00D50CE5
(1785789685.463095) can0 18F015F1#00004642477D4557
(1785789685.478030) can0 18FEF1F8#FF0000FFFFFFFFFF
(1785789685.479207) can0 18F005F8#7DFFFF7DFFFFFFFF
(1785789685.534249) can0 1CECFFF1#20120003FF19F000
(1785789685.535129) can0 1CEBFFF1#0127100000000000
(1785789685.536151) can0 1CEBFFF1#0200000000000000
(1785789685.537133) can0 1CEBFFF1#03FFF3A3F4FFFFFF
(1785789685.538540) can0 18FF09D1#01000A00D50CE5
(1785789685.563237) can0 18F015F1#00004642477D4557
(1785789685.578592) can0 18FEF1F8#FF0000FFFFFFFFFF
(1785789685.580803) can0 18F005F8#7DFFFF7DFFFFFFFF
(1785789685.635164) can0 1CECFFF1#20120003FF19F000
(1785789685.636119) can0 1CEBFFF1#0127100000000000
(1785789685.637112) can0 1CEBFFF1#0200000000000000
(1785789685.638098) can0 1CEBFFF1#03FFF3A3F4FFFFFF
(1785789685.638622) can0 18FF09D1#01000A00D50CE5
(1785789685.664178) can0 18F015F1#00004642477E4557
(1785789685.673105) can0 18F017F1#FA35FBF49C0C
(1785789685.673720) can0 18F018F1#F53CF7089281
(1785789685.678835) can0 18FEF1F8#FF0000FFFFFFFFFF
(1785789685.680682) can0 18F005F8#7DFFFF7DFFFFFFFF
(1785789685.735160) can0 1CECFFF1#20120003FF19F000
(1785789685.736120) can0 1CEBFFF1#0127100000000000
(1785789685.737133) can0 1CEBFFF1#0200000000000000
(1785789685.738122) can0 1CEBFFF1#03FFF3A3F4FFFFFF
(1785789685.738641) can0 18FF09D1#01000A00D50CE5
(1785789685.738900) can0 18FF14D1#
(1785789685.764122) can0 18F015F1#00004642477D4557
(1785789685.778063) can0 18FEF1F8#FF0000FFFFFFFFFF
(1785789685.779197) can0 18F005F8#7DFFFF7DFFFFFFFF
(1785789685.835180) can0 1CECFFF1#20120003FF19F000
(1785789685.836123) can0 1CEBFFF1#0127100000000000
(1785789685.837122) can0 1CEBFFF1#0200000000000000
(1785789685.838142) can0 1CEBFFF1#03FFF3A3F4FFFFFF
(1785789685.838632) can0 18FF09D1#01000A00D5A8E4
(1785789685.864213) can0 18F015F1#00004642477E4557
(1785789685.878170) can0 18FEF1F8#FF0000FFFFFFFFFF
(1785789685.879336) can0 18F005F8#7DFFFF7DFFFFFFFF
(1785789685.935284) can0 1CECFFF1#20120003FF19F000
(1785789685.936131) can0 1CEBFFF1#0127100000000000
(1785789685.937125) can0 1CEBFFF1#0200000000000000
(1785789685.938107) can0 1CEBFFF1#03FFF3A3F4FFFFFF
(1785789685.938634) can0 18FF09D1#01000A00D5A8E4
(1785789685.964129) can0 18F015F1#00004642477D4557
(1785789685.978026) can0 18FEF1F8#FF0000FFFFFFFFFF
(1785789685.979153) can0 18F005F8#7DFFFF7DFFFFFFFF
(1785789686.035255) can0 1CECFFF1#20120003FF19F000
(1785789686.036127) can0 1CEBFFF1#0127100000000000
(1785789686.037134) can0 1CEBFFF1#0200000000000000
(1785789686.038116) can0 1CEBFFF1#03FFF3A3F4FFFFFF
(1785789686.038628) can0 18FF09D1#01000A00D5A8E4
(1785789686.064214) can0 18F015F1#00004642477D4557
(1785789686.078190) can0 18FEF1F8#FF0000FFFFFFFFFF
(1785789686.079374) can0 18F005F8#7DFFFF7DFFFFFFFF
(1785789686.135229) can0 1CECFFF1#20120003FF19F000
(1785789686.136128) can0 1CEBFFF1#0127100000000000
(1785789686.137131) can0 1CEBFFF1#0200000000000000
(1785789686.138127) can0 1CEBFFF1#03FFF3A3F4FFFFFF
(1785789686.138652) can0 18FF09D1#01000A00D5A8E4
(1785789686.165136) can0 18F015F1#00004642477E4557
(1785789686.178204) can0 18FEF1F8#FF0000FFFFFFFFFF
(1785789686.179433) can0 18F005F8#7DFFFF7DFFFFFFFF
(1785789686.235234) can0 1CECFFF1#20120003FF19F000
(1785789686.236146) can0 1CEBFFF1#0127100000000000
(1785789686.237166) can0 1CEBFFF1#0200000000000000
(1785789686.238155) can0 1CEBFFF1#03FFF3A3F4FFFFFF
(1785789686.238661) can0 18FF09D1#01000A00D5DAE4
(1785789686.239054) can0 18FF14D1#
(1785789686.264205) can0 18F015F1#00004642477D4557
(1785789686.278345) can0 18FEF1F8#FF0000FFFFFFFFFF
(1785789686.279805) can0 18F005F8#7DFFFF7DFFFFFFFF
(1785789686.335198) can0 1CECFFF1#20120003FF19F000
(1785789686.336141) can0 1CEBFFF1#0127100000000000
(1785789686.337181) can0 1CEBFFF1#0200000000000000
(1785789686.338125) can0 1CEBFFF1#03FFF3A3F4FFFFFF
(1785789686.338678) can0 18FF09D1#01000A00D5DAE4
(1785789686.364196) can0 18F015F1#00004642477D4557
(1785789686.378366) can0 18FEF1F8#FF0000FFFFFFFFFF
(1785789686.379667) can0 18F005F8#7DFFFF7DFFFFFFFF
(1785789686.436212) can0 1CECFFF1#20120003FF19F000
(1785789686.437148) can0 1CEBFFF1#0127100000000000
(1785789686.438162) can0 1CEBFFF1#0200000000000000
(1785789686.438672) can0 18FF09D1#01000A00D5DAE4
(1785789686.439254) can0 1CEBFFF1#03FFF3A3F4FFFFFF
(1785789686.465168) can0 18F015F1#00004642477E4557
(1785789686.478106) can0 18FEF1F8#FF0000FFFFFFFFFF
(1785789686.479342) can0 18F005F8#7DFFFF7DFFFFFFFF
(1785789686.536218) can0 1CECFFF1#20120003FF19F000
(1785789686.537119) can0 1CEBFFF1#0127100000000000
(1785789686.538129) can0 1CEBFFF1#0200000000000000
(1785789686.538764) can0 18FF09D1#01000A00D5DAE4
(1785789686.539332) can0 1CEBFFF1#03FFF3A3F4FFFFFF
(1785789686.565186) can0 18F015F1#00004642477D4557
(1785789686.578162) can0 18FEF1F8#FF0000FFFFFFFFFF
(1785789686.579425) can0 18F005F8#7DFFFF7DFFFFFFFF
(1785789686.636378) can0 1CECFFF1#20120003FF19F000
(1785789686.637140) can0 1CEBFFF1#0127100000000000
(1785789686.638188) can0 1CEBFFF1#0200000000000000
(1785789686.638666) can0 18FF09D1#01000A00D5DAE4
(1785789686.639243) can0 1CEBFFF1#03FFF3A3F4FFFFFF
(1785789686.665460) can0 18F015F1#00004642477D4557
(1785789686.675263) can0 18F017F1#FA35FBF49C0C
(1785789686.675908) can0 18F018F1#F53CF7089281
(1785789686.678356) can0 18FEF1F8#FF0000FFFFFFFFFF
(1785789686.679658) can0 18F005F8#7DFFFF7DFFFFFFFF
(1785789686.736307) can0 1CECFFF1#20120003FF19F000
(1785789686.737123) can0 1CEBFFF1#0127100000000000
(1785789686.738148) can0 1CEBFFF1#0200000000000000
(1785789686.738667) can0 18FF09D1#01000A00D5DAE4
(1785789686.738940) can0 18FF14D1#
(1785789686.765130) can0 18F015F1#00004642477E4557
(1785789686.778052) can0 18FEF1F8#FF0000FFFFFFFFFF
(1785789686.779234) can0 18F005F8#7DFFFF7DFFFFFFFF
(1785789686.836170) can0 1CECFFF1#20120003FF19F000
(1785789686.837128) can0 1CEBFFF1#0127100000000000
(1785789686.838135) can0 1CEBFFF1#0200000000000000
(1785789686.838660) can0 18FF09D1#01000A00D5DAE4
(1785789686.839245) can0 1CEBFFF1#03FFF3A3F4FFFFFF
(1785789686.865142) can0 18F015F1#00004642477D4558
(1785789686.878041) can0 18FEF1F8#FF0000FFFFFFFFFF
(1785789686.879181) can0 18F005F8#7DFFFF7DFFFFFFFF
(1785789686.936286) can0 1CECFFF1#20120003FF19F000
(1785789686.937166) can0 1CEBFFF1#0127100000000000
(1785789686.938171) can0 1CEBFFF1#0200000000000000
(1785789686.938671) can0 18FF09D1#01000A00D5DAE4
(1785789686.939268) can0 1CEBFFF1#03FFF3A3F4FFFFFF
(1785789686.965264) can0 18F015F1#00004642477E4557
(1785789686.978231) can0 18FEF1F8#FF0000FFFFFFFFFF
(1785789686.979399) can0 18F005F8#7DFFFF7DFFFFFFFF
(1785789687.036278) can0 1CECFFF1#20120003FF19F000
(1785789687.037195) can0 1CEBFFF1#0127100000000000
(1785789687.038245) can0 1CEBFFF1#0200000000000000
(1785789687.038704) can0 18FF09D1#01000A00D5DAE4
(1785789687.039244) can0 1CEBFFF1#03FFF3A3F4FFFFFF
(1785789687.065165) can0 18F015F1#00004642477E4557
(1785789687.078090) can0 18FEF1F8#FF0000FFFFFFFFFF
(1785789687.079298) can0 18F005F8#7DFFFF7DFFFFFFFF
(1785789687.137226) can0 1CECFFF1#20120003FF19F000
(1785789687.138130) can0 1CEBFFF1#0127100000000000
(1785789687.138917) can0 18FF09D1#01000A00D5DAE4
(1785789687.139510) can0 1CEBFFF1#0200000000000000
(1785789687.140123) can0 1CEBFFF1#03FFF3A3F4FFFFFF
(1785789687.166150) can0 18F015F1#00004642477D4557
(1785789687.178203) can0 18FEF1F8#FF0000FFFFFFFFFF
(1785789687.179459) can0 18F005F8#7DFFFF7DFFFFFFFF
(1785789687.237320) can0 1CECFFF1#20120003FF19F000
(1785789687.238128) can0 1CEBFFF1#0127100000000000
(1785789687.238646) can0 18FF09D1#01000A00D538E6
(1785789687.239056) can0 18FF14D1#
(1785789687.240135) can0 1CEBFFF1#03FFF3A3F4FFFFFF
(1785789687.266291) can0 18F015F1#00004642477E4557
(1785789687.278500) can0 18FEF1F8#FF0000FFFFFFFFFF
(1785789687.279660) can0 18F005F8#7DFFFF7DFFFFFFFF
(1785789687.337246) can0 1CECFFF1#20120003FF19F000
(1785789687.338129) can0 1CEBFFF1#0127100000000000
(1785789687.338636) can0 18FF09D1#01000A00D538E6
(1785789687.339227) can0 1CEBFFF1#0200000000000000
(1785789687.340119) can0 1CEBFFF1#03FFF3A3F4FFFFFF
(1785789687.366150) can0 18F015F1#00004642477E4557
(1785789687.378091) can0 18FEF1F8#FF0000FFFFFFFFFF
(1785789687.379298) can0 18F005F8#7DFFFF7DFFFFFFFF
(1785789687.437183) can0 1CECFFF1#20120003FF19F000
(1785789687.438125) can0 1CEBFFF1#0127100000000000
(1785789687.438639) can0 18FF09D1#01000A00D538E6
(1785789687.439238) can0 1CEBFFF1#0200000000000000
(1785789687.440120) can0 1CEBFFF1#03FFF3A3F4FFFFFF
(1785789687.466117) can0 18F015F1#00004642477D4557
(1785789687.478035) can0 18FEF1F8#FF0000FFFFFFFFFF
(1785789687.479191) can0 18F005F8#7DFFFF7DFFFFFFFF
(1785789687.537171) can0 1CECFFF1#20120003FF19F000
(1785789687.538140) can0 1CEBFFF1#0127100000000000
(1785789687.538651) can0 18FF09D1#01000A00D538E6
(1785789687.539236) can0 1CEBFFF1#0200000000000000
(1785789687.540138) can0 1CEBFFF1#03FFF3A3F4FFFFFF
(1785789687.566291) can0 18F015F1#00004642477E4557
(1785789687.578233) can0 18FEF1F8#FF0000FFFFFFFFFF
(1785789687.579499) can0 18F005F8#7DFFFF7DFFFFFFFF
(1785789687.637243) can0 1CECFFF1#20120003FF19F000
(1785789687.638122) can0 1CEBFFF1#0127100000000000
(1785789687.638637) can0 18FF09D1#01000A00D538E6
(1785789687.639230) can0 1CEBFFF1#0200000000000000
(1785789687.640124) can0 1CEBFFF1#03FFF3A3F4FFFFFF
(1785789687.667155) can0 18F015F1#00004642477E4557
(1785789687.676368) can0 18F017F1#FABAFCB29C04
(1785789687.677093) can0 18F018F1#F483F7959279
(1785789687.679054) can0 18FEF1F8#FF0000FFFFFFFFFF
(1785789687.680304) can0 18F005F8#7DFFFF7DFFFFFFFF
(1785789687.738176) can0 1CECFFF1#20120003FF19F000
(1785789687.738637) can0 18FF09D1#01000A00D538E6
(1785789687.738987) can0 18FF14D1#
(1785789687.740136) can0 1CEBFFF1#0200000000000000
(1785789687.741126) can0 1CEBFFF1#03FFF3A3F4FFFFFF
(1785789687.767116) can0 18F015F1#00004642477D4557
(1785789687.778058) can0 18FEF1F8#FF0000FFFFFFFFFF
(1785789687.779215) can0 18F005F8#7DFFFF7DFFFFFFFF
(1785789687.837166) can0 1CECFFF1#20120003FF19F000
(1785789687.838133) can0 1CEBFFF1#0127100000000000
(1785789687.838648) can0 18FF09D1#01000A00D538E6
(1785789687.839250) can0 1CEBFFF1#0200000000000000
(1785789687.840134) can0 1CEBFFF1#03FFF3A3F4FFFFFF
(1785789687.866140) can0 18F015F1#00004642477E4557
(1785789687.878058) can0 18FEF1F8#FF0000FFFFFFFFFF
(1785789687.879223) can0 18F005F8#7DFFFF7DFFFFFFFF
(1785789687.938513) can0 1CECFFF1#20120003FF19F000
(1785789687.939119) can0 18FF09D1#01000A00D538E6
(1785789687.939704) can0 1CEBFFF1#0127100000000000
(1785789687.940235) can0 1CEBFFF1#0200000000000000
(1785789687.941188) can0 1CEBFFF1#03FFF3A3F4FFFFFF
(1785789687.967275) can0 18F015F1#00004642477E4558
(1785789687.978042) can0 18FEF1F8#FF0000FFFFFFFFFF
(1785789687.979151) can0 18F005F8#7DFFFF7DFFFFFFFF
(1785789688.038223) can0 1CECFFF1#20120003FF19F000
(1785789688.038654) can0 18FF09D1#01000A00D538E6
(1785789688.039210) can0 1CEBFFF1#0127100000000000
(1785789688.040136) can0 1CEBFFF1#0200000000000000
(1785789688.041118) can0 1CEBFFF1#03FFF3A3F4FFFFFF
(1785789688.067169) can0 18F015F1#00004642477E4558
(1785789688.078042) can0 18FEF1F8#FF0000FFFFFFFFFF
(1785789688.079205) can0 18F005F8#7DFFFF7DFFFFFFFF
(1785789688.138182) can0 1CECFFF1#20120003FF19F000
(1785789688.138658) can0 18FF09D1#01000A00D538E6
(1785789688.139228) can0 1CEBFFF1#0127100000000000
(1785789688.140154) can0 1CEBFFF1#0200000000000000
(1785789688.141133) can0 1CEBFFF1#03FFF3A3F4FFFFFF
(1785789688.167135) can0 18F015F1#00004642477E4557
(1785789688.178197) can0 18FEF1F8#FF0000FFFFFFFFFF
(1785789688.179345) can0 18F005F8#7DFFFF7DFFFFFFFF
(1785789688.238261) can0 1CECFFF1#20120003FF19F000
(1785789688.238755) can0 18FF09D1#01000A00D538E6
(1785789688.239079) can0 18FF14D1#
(1785789688.240189) can0 1CEBFFF1#0200000000000000
(1785789688.241147) can0 1CEBFFF1#03FFF3A3F4FFFFFF
(1785789688.267180) can0 18F015F1#00004642477E4557
(1785789688.278217) can0 18FEF1F8#FF0000FFFFFFFFFF
(1785789688.279443) can0 18F005F8#7DFFFF7DFFFFFFFF
(1785789688.338159) can0 1CECFFF1#20120003FF19F000
(1785789688.338654) can0 18FF09D1#01000A00D538E6
(1785789688.339233) can0 1CEBFFF1#0127100000000000
(1785789688.340144) can0 1CEBFFF1#0200000000000000
(1785789688.341128) can0 1CEBFFF1#03FFF3A3F4FFFFFF
(1785789688.367157) can0 18F015F1#00004642477D4557
(1785789688.378118) can0 18FEF1F8#FF0000FFFFFFFFFF
(1785789688.379272) can0 18F005F8#7DFFFF7DFFFFFFFF
(1785789688.438192) can0 1CECFFF1#20120003FF19F000
(1785789688.438668) can0 18FF09D1#01000A00D538E6
(1785789688.439226) can0 1CEBFFF1#0127100000000000
(1785789688.440153) can0 1CEBFFF1#0200000000000000
(1785789688.441135) can0 1CEBFFF1#03FFF3A3F4FFFFFF
(1785789688.467165) can0 18F015F1#00004642477E4557
(1785789688.478039) can0 18FEF1F8#FF0000FFFFFFFFFF
(1785789688.479194) can0 18F005F8#7DFFFF7DFFFFFFFF
(1785789688.538452) can0 18FF09D1#01000A00D538E6
(1785789688.539166) can0 1CECFFF1#20120003FF19F000
(1785789688.540150) can0 1CEBFFF1#0127100000000000
(1785789688.541153) can0 1CEBFFF1#0200000000000000
(1785789688.542140) can0 1CEBFFF1#03FFF3A3F4FFFFFF
(1785789688.568245) can0 18F015F1#00004642477E4557
(1785789688.578101) can0 18FEF1F8#FF0000FFFFFFFFFF
(1785789688.579295) can0 18F005F8#7DFFFF7DFFFFFFFF
(1785789688.638628) can0 18FF09D1#01000A00D538E6
(1785789688.639134) can0 1CECFFF1#20120003FF19F000
(1785789688.642272) can0 1CEBFFF1#0127100000000000
(1785789688.642599) can0 1CEBFFF1#0200000000000000
(1785789688.643085) can0 1CEBFFF1#03FFF3A3F4FFFFFF
(1785789688.668153) can0 18F015F1#00004642477E4557
(1785789688.678143) can0 18FEF1F8#FF0000FFFFFFFFFF
(1785789688.678613) can0 18F017F1#FABAFCB29C04
(1785789688.679117) can0 18F018F1#F483F7959279
(1785789688.680288) can0 18F005F8#7DFFFF7DFFFFFFFF
(1785789688.738547) can0 18FF09D1#01000A00D538E6
(1785789688.738999) can0 18FF14D1#
(1785789688.739317) can0 1CECFFF1#20120003FF19F000
(1785789688.740135) can0 1CEBFFF1#0127100000000000
(1785789688.741139) can0 1CEBFFF1#0200000000000000
(1785789688.742126) can0 1CEBFFF1#03FFF3A3F4FFFFFF
(1785789688.768165) can0 18F015F1#00004642477E4557
(1785789688.778055) can0 18FEF1F8#FF0000FFFFFFFFFF
(1785789688.779232) can0 18F005F8#7DFFFF7DFFFFFFFF
(1785789688.838467) can0 18FF09D1#01000A00D538E6
(1785789688.839140) can0 1CECFFF1#20120003FF19F000
(1785789688.840140) can0 1CEBFFF1#0127100000000000
(1785789688.841147) can0 1CEBFFF1#0200000000000000
(1785789688.842134) can0 1CEBFFF1#03FFF3A3F4FFFFFF
(1785789688.868137) can0 18F015F1#00004641477E4557
(1785789688.878013) can0 18FEF1F8#FF0000FFFFFFFFFF
(1785789688.879185) can0 18F005F8#7DFFFF7DFFFFFFFF
(1785789688.938516) can0 18FF09D1#01000A00D538E6
(1785789688.939147) can0 1CECFFF1#20120003FF19F000
(1785789688.940179) can0 1CEBFFF1#0127100000000000
(1785789688.941307) can0 1CEBFFF1#0200000000000000
(1785789688.942229) can0 1CEBFFF1#03FFF26335FFFFFF
(1785789688.968240) can0 18F015F1#00004642477D4557
(1785789688.978201) can0 18FEF1F8#FF0000FFFFFFFFFF
(1785789688.979384) can0 18F005F8#7DFFFF7DFFFFFFFF
(1785789689.038491) can0 18FF09D1#01000A00D538E6
(1785789689.039138) can0 1CECFFF1#20120003FF19F000
(1785789689.040128) can0 1CEBFFF1#0127100000000000
(1785789689.041229) can0 1CEBFFF1#0200000000000000
(1785789689.042153) can0 1CEBFFF1#03FFF3A3F4FFFFFF
(1785789689.068179) can0 18F015F1#00004641477E4558
(1785789689.078060) can0 18FEF1F8#FF0000FFFFFFFFFF
(1785789689.079318) can0 18F005F8#7DFFFF7DFFFFFFFF
(1785789689.138521) can0 18FF09D1#01000A00D538E6
(1785789689.139164) can0 1CECFFF1#20120003FF19F000
(1785789689.140147) can0 1CEBFFF1#0127100000000000
(1785789689.141156) can0 1CEBFFF1#0200000000000000
(1785789689.142139) can0 1CEBFFF1#03FFF26335FFFFFF
(1785789689.169141) can0 18F015F1#00004641477E4557
(1785789689.178054) can0 18FEF1F8#FF0000FFFFFFFFFF
(1785789689.179242) can0 18F005F8#7DFFFF7DFFFFFFFF
(1785789689.238724) can0 18FF09D1#01000A00D5D4E5
(1785789689.239152) can0 1CECFFF1#20120003FF19F000
(1785789689.239406) can0 18FF14D1#
(1785789689.240146) can0 1CEBFFF1#0127100000000000
(1785789689.241185) can0 1CEBFFF1#0200000000000000
(1785789689.242163) can0 1CEBFFF1#03FFF26335FFFFFF
(1785789689.268329) can0 18F015F1#00004642477E4557
(1785789689.278285) can0 18FEF1F8#FF0000FFFFFFFFFF
(1785789689.279535) can0 18F005F8#7DFFFF7DFFFFFFFF
(1785789689.338467) can0 18FF09D1#01000A00D5D4E5
(1785789689.340129) can0 1CECFFF1#20120003FF19F000
(1785789689.341127) can0 1CEBFFF1#0127100000000000
(1785789689.342148) can0 1CEBFFF1#0200000000000000
(1785789689.343120) can0 1CEBFFF1#03FFF26335FFFFFF
(1785789689.369172) can0 18F015F1#00004641477E4557
(1785789689.378129) can0 18FEF1F8#FF0000FFFFFFFFFF
(1785789689.379310) can0 18F005F8#7DFFFF7DFFFFFFFF
(1785789689.438505) can0 18FF09D1#01000A00D5D4E5
(1785789689.440140) can0 1CECFFF1#20120003FF19F000
(1785789689.441140) can0 1CEBFFF1#0127100000000000
(1785789689.442153) can0 1CEBFFF1#0200000000000000
(1785789689.443144) can0 1CEBFFF1#03FFF26335FFFFFF
(1785789689.469188) can0 18F015F1#00004641477D4557
(1785789689.478092) can0 18FEF1F8#FF0000FFFFFFFFFF
(1785789689.479305) can0 18F005F8#7DFFFF7DFFFFFFFF
(1785789689.538487) can0 18FF09D1#01000A00D5D4E5
(1785789689.540142) can0 1CECFFF1#20120003FF19F000
(1785789689.541147) can0 1CEBFFF1#0127100000000000
(1785789689.542150) can0 1CEBFFF1#0200000000000000
(1785789689.543130) can0 1CEBFFF1#03FFF26335FFFFFF
(1785789689.569274) can0 18F015F1#00004642477E4557
(1785789689.578208) can0 18FEF1F8#FF0000FFFFFFFFFF
(1785789689.579469) can0 18F005F8#7DFFFF7DFFFFFFFF
(1785789689.638465) can0 18FF09D1#01000A00D5D4E5
(1785789689.640188) can0 1CECFFF1#20120003FF19F000
(1785789689.641165) can0 1CEBFFF1#0127100000000000
(1785789689.642185) can0 1CEBFFF1#0200000000000000
(1785789689.643176) can0 1CEBFFF1#03FFF26335FFFFFF
(1785789689.670186) can0 18F015F1#00004641477E4557
(1785789689.678079) can0 18FEF1F8#FF0000FFFFFFFFFF
(1785789689.679065) can0 18F017F1#F9BFFC8B9CC7
(1785789689.679614) can0 18F005F8#7DFFFF7DFFFFFFFF
(1785789689.738617) can0 18FF09D1#01000A00D5D4E5
(1785789689.739053) can0 18FF14D1#
(1785789689.740151) can0 1CECFFF1#20120003FF19F000
(1785789689.741138) can0 1CEBFFF1#0127100000000000
(1785789689.742148) can0 1CEBFFF1#0200000000000000
(1785789689.743126) can0 1CEBFFF1#03FFF26335FFFFFF
(1785789689.769171) can0 18F015F1#00004641477D4557
(1785789689.778027) can0 18FEF1F8#FF0000FFFFFFFFFF
(1785789689.779153) can0 18F005F8#7DFFFF7DFFFFFFFF
(1785789689.838446) can0 18FF09D1#01000A00D5D4E5
(1785789689.840165) can0 1CECFFF1#20120003FF19F000
(1785789689.841144) can0 1CEBFFF1#0127100000000000
(1785789689.842158) can0 1CEBFFF1#0200000000000000
(1785789689.843136) can0 1CEBFFF1#03FFF26335FFFFFF
(1785789689.869169) can0 18F015F1#00004641477E4557
(1785789689.878053) can0 18FEF1F8#FF0000FFFFFFFFFF
(1785789689.879270) can0 18F005F8#7DFFFF7DFFFFFFFF
(1785789689.938649) can0 18FF09D1#01000A00D5D4E5
(1785789689.940219) can0 1CECFFF1#20120003FF19F000
(1785789689.941179) can0 1CEBFFF1#0127100000000000
(1785789689.942270) can0 1CEBFFF1#0200000000000000
(1785789689.943183) can0 1CEBFFF1#03FFF26335FFFFFF
(1785789689.969287) can0 18F015F1#00004641477E4557
(1785789689.978054) can0 18FEF1F8#FF0000FFFFFFFFFF
(1785789689.979306) can0 18F005F8#7DFFFF7DFFFFFFFF
(1785789690.038472) can0 18FF09D1#01000A00D5D4E5
(1785789690.041159) can0 1CECFFF1#20120003FF19F000
(1785789690.042135) can0 1CEBFFF1#0127100000000000
(1785789690.043148) can0 1CEBFFF1#0200000000000000
(1785789690.044141) can0 1CEBFFF1#03FFF26335FFFFFF
(1785789690.070184) can0 18F015F1#00004641477D4557
(1785789690.078052) can0 18FEF1F8#FF0000FFFFFFFFFF
(1785789690.079175) can0 18F005F8#7DFFFF7DFFFFFFFF
(1785789690.138436) can0 18FF09D1#01000A00D5D4E5
(1785789690.141144) can0 1CECFFF1#20120003FF19F000
(1785789690.142141) can0 1CEBFFF1#0127100000000000
(1785789690.143156) can0 1CEBFFF1#0200000000000000
(1785789690.144145) can0 1CEBFFF1#03FFF26335FFFFFF
(1785789690.170142) can0 18F015F1#00004641477E4557
(1785789690.178041) can0 18FEF1F8#FF0000FFFFFFFFFF
(1785789690.179174) can0 18F005F8#7DFFFF7DFFFFFFFF
(1785789690.238603) can0 18FF09D1#01000A00D5D4E5
(1785789690.239062) can0 18FF14D1#
(1785789690.241168) can0 1CECFFF1#20120003FF19F000
(1785789690.242151) can0 1CEBFFF1#0127100000000000
(1785789690.243159) can0 1CEBFFF1#0200000000000000
(1785789690.244174) can0 1CEBFFF1#03FFF26335FFFFFF
(1785789690.270231) can0 18F015F1#00004641477E4557
(1785789690.278432) can0 18FEF1F8#FF0000FFFFFFFFFF
(1785789690.279660) can0 18F005F8#7DFFFF7DFFFFFFFF
(1785789690.338427) can0 18FF09D1#01000A00D5D4E5
(1785789690.341157) can0 1CECFFF1#20120003FF19F000
(1785789690.342141) can0 1CEBFFF1#0127100000000000
(1785789690.343155) can0 1CEBFFF1#0200000000000000
(1785789690.344148) can0 1CEBFFF1#03FFF26335FFFFFF
(1785789690.370190) can0 18F015F1#00004641477E4557
(1785789690.378004) can0 18FEF1F8#FF0000FFFFFFFFFF
(1785789690.379126) can0 18F005F8#7DFFFF7DFFFFFFFF
(1785789690.438428) can0 18FF09D1#01000A00D5D4E5
(1785789690.441146) can0 1CECFFF1#20120003FF19F000
(1785789690.442142) can0 1CEBFFF1#0127100000000000
(1785789690.443155) can0 1CEBFFF1#0200000000000000
(1785789690.444144) can0 1CEBFFF1#03FFF26335FFFFFF
(1785789690.470154) can0 18F015F1#00004641477E4557
(1785789690.478018) can0 18FEF1F8#FF0000FFFFFFFFFF
(1785789690.479145) can0 18F005F8#7DFFFF7DFFFFFFFF
(1785789690.538409) can0 18FF09D1#01000A00D5D4E5
(1785789690.541167) can0 1CECFFF1#20120003FF19F000
(1785789690.542158) can0 1CEBFFF1#0127100000000000
(1785789690.543171) can0 1CEBFFF1#0200000000000000
(1785789690.544161) can0 1CEBFFF1#03FFF26335FFFFFF
(1785789690.570275) can0 18F015F1#00004641477E4557
(1785789690.578113) can0 18FEF1F8#FF0000FFFFFFFFFF
(1785789690.583502) can0 18F005F8#7DFFFF7DFFFFFFFF
(1785789690.638717) can0 18FF09D1#01000A00D5D4E5
(1785789690.642283) can0 1CECFFF1#20120003FF19F000
(1785789690.643216) can0 1CEBFFF1#0127100000000000
(1785789690.644477) can0 1CEBFFF1#0200000000000000
(1785789690.645138) can0 1CEBFFF1#03FFF26335FFFFFF
(1785789690.671299) can0 18F015F1#00004641477D4557
(1785789690.678426) can0 18FEF1F8#FF0000FFFFFFFFFF
(1785789690.679656) can0 18F005F8#7DFFFF7DFFFFFFFF
(1785789690.680173) can0 18F017F1#F9BFFC8B9CC7
(1785789690.680682) can0 18F018F1#F461F6619251
(1785789690.738602) can0 18ECFFD1#200E0002FF09FF00
(1785789690.739254) can0 18EBFFD1#0101000A00D50CE5
(1785789690.739805) can0 18EBFFD1#0201000B00D348DB
(1785789690.740807) can0 18FF14D1#
(1785789690.741377) can0 1CECFFF1#20120003FF19F000
(1785789690.742148) can0 1CEBFFF1#0127100000000000
(1785789690.743194) can0 1CEBFFF1#0200000000000000
(1785789690.744145) can0 1CEBFFF1#03FFF26335FFFFFF
(1785789690.770171) can0 18F015F1#00004641477E4557
(1785789690.778022) can0 18FEF1F8#FF0000FFFFFFFFFF
(1785789690.779150) can0 18F005F8#7DFFFF7DFFFFFFFF
(1785789690.838556) can0 18ECFFD1#200E0002FF09FF00
(1785789690.839045) can0 18EBFFD1#0101000A00D50CE5
(1785789690.839591) can0 18EBFFD1#0201000B00D348DB
(1785789690.842153) can0 1CECFFF1#20120003FF19F000
(1785789690.843147) can0 1CEBFFF1#0127100000000000
(1785789690.844166) can0 1CEBFFF1#0200000000000000
(1785789690.845133) can0 1CEBFFF1#03FFF26335FFFFFF
(1785789690.871154) can0 18F015F1#00004641477E4557
(1785789690.878017) can0 18FEF1F8#FF0000FFFFFFFFFF
(1785789690.879145) can0 18F005F8#7DFFFF7DFFFFFFFF
(1785789690.939079) can0 18ECFFD1#200E0002FF09FF00
(1785789690.939426) can0 18EBFFD1#0101000A00D50CE5
(1785789690.940003) can0 18EBFFD1#0201000B00D348DB
(1785789690.942217) can0 1CECFFF1#20120003FF19F000
(1785789690.943187) can0 1CEBFFF1#0127100000000000
(1785789690.944190) can0 1CEBFFF1#0200000000000000
(1785789690.945171) can0 1CEBFFF1#03FFF26335FFFFFF
(1785789690.971473) can0 18F015F1#00004641477E4557
(1785789690.978629) can0 18FEF1F8#FF0000FFFFFFFFFF
(1785789690.979837) can0 18F005F8#7DFFFF7DFFFFFFFF
(1785789691.039244) can0 18ECFFD1#200E0002FF09FF00
(1785789691.039625) can0 18EBFFD1#0101000A00D50CE5
(1785789691.039900) can0 18EBFFD1#0201000B00D348DB
(1785789691.042207) can0 1CECFFF1#20120003FF19F000
(1785789691.043178) can0 1CEBFFF1#0127100000000000
(1785789691.044194) can0 1CEBFFF1#0200000000000000
(1785789691.045159) can0 1CEBFFF1#03FFF26335FFFFFF
(1785789691.071400) can0 18F015F1#00004641477E4557
(1785789691.078554) can0 18FEF1F8#FF0000FFFFFFFFFF
(1785789691.079918) can0 18F005F8#7DFFFF7DFFFFFFFF
(1785789691.138556) can0 18ECFFD1#200E0002FF09FF00
(1785789691.139020) can0 18EBFFD1#0101000A00D50CE5
(1785789691.139574) can0 18EBFFD1#0201000B00D348DB
(1785789691.142151) can0 1CECFFF1#20120003FF19F000
(1785789691.143148) can0 1CEBFFF1#0127100000000000
(1785789691.144164) can0 1CEBFFF1#0200000000000000
(1785789691.145135) can0 1CEBFFF1#03FFF26335FFFFFF
(1785789691.172158) can0 18F015F1#00004641477E4557
(1785789691.178042) can0 18FEF1F8#FF0000FFFFFFFFFF
(1785789691.179169) can0 18F005F8#7DFFFF7DFFFFFFFF
(1785789691.239021) can0 18ECFFD1#200E0002FF09FF00
(1785789691.239518) can0 18EBFFD1#0101000A00D50CE5
(1785789691.240074) can0 18EBFFD1#0201000B00D348DB
(1785789691.240736) can0 18FF14D1#
(1785789691.241226) can0 18FF16D1#01000A0064
(1785789691.242179) can0 1CECFFF1#20120003FF19F000
(1785789691.243152) can0 1CEBFFF1#0127100000000000
(1785789691.244168) can0 1CEBFFF1#0200000000000000
(1785789691.245141) can0 1CEBFFF1#03FFF26335FFFFFF
(1785789691.271294) can0 18F015F1#00004641477E4558
(1785789691.278166) can0 18FEF1F8#FF0000FFFFFFFFFF
(1785789691.279374) can0 18F005F8#7DFFFF7DFFFFFFFF
(1785789691.338502) can0 18ECFFD1#200E0002FF09FF00
(1785789691.339013) can0 18EBFFD1#0101000A00D57CE3
(1785789691.339565) can0 18EBFFD1#0201000B00D348DB
(1785789691.342162) can0 1CECFFF1#20120003FF19F000
(1785789691.343151) can0 1CEBFFF1#0127100000000000
(1785789691.344162) can0 1CEBFFF1#0200000000000000
(1785789691.345140) can0 1CEBFFF1#03FFF26335FFFFFF
(1785789691.371153) can0 18F015F1#00004641477E4558
(1785789691.378048) can0 18FEF1F8#FF0000FFFFFFFFFF
(1785789691.379164) can0 18F005F8#7DFFFF7DFFFFFFFF
(1785789691.438505) can0 18ECFFD1#200E0002FF09FF00
(1785789691.439021) can0 18EBFFD1#0101000A00D57CE3
(1785789691.439572) can0 18EBFFD1#0201000B00D348DB
(1785789691.443160) can0 1CECFFF1#20120003FF19F000
(1785789691.444158) can0 1CEBFFF1#0127100000000000
(1785789691.445168) can0 1CEBFFF1#0200000000000000
(1785789691.446151) can0 1CEBFFF1#03FFF26335FFFFFF
(1785789691.472160) can0 18F015F1#00004641477E4558
(1785789691.478028) can0 18FEF1F8#FF0000FFFFFFFFFF
(1785789691.479162) can0 18F005F8#7DFFFF7DFFFFFFFF
(1785789691.538554) can0 18ECFFD1#200E0002FF09FF00
(1785789691.539059) can0 18EBFFD1#0101000A00D57CE3
(1785789691.539612) can0 18EBFFD1#0201000B00D348DB
(1785789691.543177) can0 1CECFFF1#20120003FF19F000
(1785789691.544179) can0 1CEBFFF1#0127100000000000
(1785789691.545227) can0 1CEBFFF1#0200000000000000
(1785789691.546155) can0 1CEBFFF1#03FFF26335FFFFFF
(1785789691.572492) can0 18F015F1#00004641477E4557
(1785789691.578151) can0 18FEF1F8#FF0000FFFFFFFFFF
(1785789691.579317) can0 18F005F8#7DFFFF7DFFFFFFFF
(1785789691.639429) can0 18ECFFD1#200E0002FF09FF00
(1785789691.640060) can0 18EBFFD1#0101000A00D57CE3
(1785789691.640491) can0 18EBFFD1#0201000B00D348DB
(1785789691.643251) can0 1CECFFF1#20120003FF19F000
(1785789691.644220) can0 1CEBFFF1#0127100000000000
(1785789691.645204) can0 1CEBFFF1#0200000000000000
(1785789691.646201) can0 1CEBFFF1#03FFF26335FFFFFF
(1785789691.672392) can0 18F015F1#00004641477F4558
(1785789691.679244) can0 18FEF1F8#FF0000FFFFFFFFFF
(1785789691.680856) can0 18F005F8#7DFFFF7DFFFFFFFF
(1785789691.682088) can0 18F017F1#FACFFCAF9CA5
(1785789691.682665) can0 18F018F1#F50FF6A9921C
(1785789691.738615) can0 18ECFFD1#200E0002FF09FF00
(1785789691.739122) can0 18EBFFD1#0101000A00D57CE3
(1785789691.739674) can0 18EBFFD1#0201000B00D348DB
(1785789691.740335) can0 18FF14D1#
(1785789691.743176) can0 1CECFFF1#20120003FF19F000
(1785789691.744227) can0 1CEBFFF1#0127100000000000
(1785789691.745177) can0 1CEBFFF1#0200000000000000
(1785789691.746156) can0 1CEBFFF1#03FFF26335FFFFFF
(1785789691.772186) can0 18F015F1#00004641477E4557
(1785789691.778022) can0 18FEF1F8#FF0000FFFFFFFFFF
(1785789691.779139) can0 18F005F8#7DFFFF7DFFFFFFFF
(1785789691.838490) can0 18ECFFD1#200E0002FF09FF00
(1785789691.839006) can0 18EBFFD1#0101000A00D5E0E3
(1785789691.839563) can0 18EBFFD1#0201000B00D348DB
(1785789691.843157) can0 1CECFFF1#20120003FF19F000
(1785789691.844166) can0 1CEBFFF1#0127100000000000
(1785789691.845170) can0 1CEBFFF1#0200000000000000
(1785789691.846193) can0 1CEBFFF1#03FFF26335FFFFFF
(1785789691.872165) can0 18F015F1#00004641477E4557
(1785789691.878017) can0 18FEF1F8#FF0000FFFFFFFFFF
(1785789691.879180) can0 18F005F8#7DFFFF7DFFFFFFFF
(1785789691.938579) can0 18ECFFD1#200E0002FF09FF00
(1785789691.939042) can0 18EBFFD1#0101000A00D5E0E3
(1785789691.939588) can0 18EBFFD1#0201000B00D348DB
(1785789691.943251) can0 1CECFFF1#20120003FF19F000
(1785789691.944193) can0 1CEBFFF1#0127100000000000
(1785789691.945202) can0 1CEBFFF1#0200000000000000
(1785789691.946200) can0 1CEBFFF1#03FFF26335FFFFFF
(1785789691.972453) can0 18F015F1#00004641477E4557
(1785789691.978544) can0 18FEF1F8#FF0000FFFFFFFFFF
(1785789691.979842) can0 18F005F8#7DFFFF7DFFFFFFFF
(1785789692.038464) can0 18ECFFD1#200E0002FF09FF00
(1785789692.038978) can0 18EBFFD1#0101000A00D5E0E3
(1785789692.039532) can0 18EBFFD1#0201000B00D348DB
(1785789692.043157) can0 1CECFFF1#20120003FF19F000
(1785789692.044673) can0 1CEBFFF1#0127100000000000
(1785789692.046050) can0 1CEBFFF1#0200000000000000
(1785789692.046309) can0 1CEBFFF1#03FFF26335FFFFFF
(1785789692.072199) can0 18F015F1#00004641477E4558
(1785789692.078032) can0 18FEF1F8#FF0000FFFFFFFFFF
(1785789692.079155) can0 18F005F8#7DFFFF7DFFFFFFFF
(1785789692.138520) can0 18ECFFD1#200E0002FF09FF00
(1785789692.138980) can0 18EBFFD1#0101000A00D5E0E3
(1785789692.139535) can0 18EBFFD1#0201000B00D348DB
(1785789692.143157) can0 1CECFFF1#20120003FF19F000
(1785789692.144160) can0 1CEBFFF1#0127100000000000
(1785789692.145178) can0 1CEBFFF1#0200000000000000
(1785789692.146154) can0 1CEBFFF1#03FFF26335FFFFFF
(1785789692.173154) can0 18F015F1#00004641477E4557
(1785789692.178025) can0 18FEF1F8#FF0000FFFFFFFFFF
(1785789692.179173) can0 18F005F8#7DFFFF7DFFFFFFFF
(1785789692.238606) can0 18ECFFD1#200E0002FF09FF00
(1785789692.239098) can0 18EBFFD1#0101000A00D5E0E3
(1785789692.239639) can0 18EBFFD1#0201000B00D348DB
(1785789692.240645) can0 18FF14D1#
(1785789692.244234) can0 1CECFFF1#20120003FF19F000
(1785789692.245174) can0 1CEBFFF1#0127100000000000
(1785789692.246185) can0 1CEBFFF1#0200000000000000
(1785789692.247194) can0 1CEBFFF1#03FFF26335FFFFFF
(1785789692.273305) can0 18F015F1#00004641477E4557
(1785789692.278117) can0 18FEF1F8#FF0000FFFFFFFFFF
(1785789692.279347) can0 18F005F8#7DFFFF7DFFFFFFFF
(1785789692.338512) can0 18ECFFD1#200E0002FF09FF00
(1785789692.339048) can0 18EBFFD1#0101000A00D53EE5
(1785789692.339582) can0 18EBFFD1#0201000B00D348DB
(1785789692.344168) can0 1CECFFF1#20120003FF19F000
(1785789692.345163) can0 1CEBFFF1#0127100000000000
(1785789692.346176) can0 1CEBFFF1#0200000000000000
(1785789692.347153) can0 1CEBFFF1#03FFF26335FFFFFF
(1785789692.373151) can0 18F015F1#00004641477E4557
(1785789692.378006) can0 18FEF1F8#FF0000FFFFFFFFFF
(1785789692.379140) can0 18F005F8#7DFFFF7DFFFFFFFF
(1785789692.438482) can0 18ECFFD1#200E0002FF09FF00
(1785789692.438986) can0 18EBFFD1#0101000A00D53EE5
(1785789692.439537) can0 18EBFFD1#0201000B00D348DB
(1785789692.444182) can0 1CECFFF1#20120003FF19F000
(1785789692.445177) can0 1CEBFFF1#0127100000000000
(1785789692.446185) can0 1CEBFFF1#0200000000000000
(1785789692.447167) can0 1CEBFFF1#03FFF26335FFFFFF
(1785789692.473188) can0 18F015F1#00004641477E4557
(1785789692.478012) can0 18FEF1F8#FF0000FFFFFFFFFF
(1785789692.479140) can0 18F005F8#7DFFFF7DFFFFFFFF
(1785789692.538436) can0 18ECFFD1#200E0002FF09FF00
(1785789692.538969) can0 18EBFFD1#0101000A00D53EE5
(1785789692.539524) can0 18EBFFD1#0201000B00D348DB
(1785789692.544161) can0 1CECFFF1#20120003FF19F000
(1785789692.545159) can0 1CEBFFF1#0127100000000000
(1785789692.546176) can0 1CEBFFF1#0200000000000000
(1785789692.547154) can0 1CEBFFF1#03FFF26335FFFFFF
(1785789692.573270) can0 18F015F1#00004641477E4557
(1785789692.578127) can0 18FEF1F8#FF0000FFFFFFFFFF
(1785789692.579321) can0 18F005F8#7DFFFF7DFFFFFFFF
(1785789692.638516) can0 18ECFFD1#200E0002FF09FF00
(1785789692.639021) can0 18EBFFD1#0101000A00D53EE5
(1785789692.639542) can0 18EBFFD1#0201000B00D348DB
(1785789692.644273) can0 1CECFFF1#20120003FF19F000
(1785789692.645199) can0 1CEBFFF1#0127100000000000
(1785789692.646223) can0 1CEBFFF1#0200000000000000
(1785789692.647158) can0 1CEBFFF1#03FFF26335FFFFFF
(1785789692.674304) can0 18F015F1#00004641477E4557
(1785789692.678596) can0 18FEF1F8#FF0000FFFFFFFFFF
(1785789692.679929) can0 18F005F8#7DFFFF7DFFFFFFFF
(1785789692.683119) can0 18F017F1#FACFFCAF9CA5
(1785789692.683540) can0 18F018F1#F50FF6A9921C
(1785789692.738540) can0 18ECFFD1#200E0002FF09FF00
(1785789692.739157) can0 18EBFFD1#0101000A00D53EE5
(1785789692.739593) can0 18EBFFD1#0201000B00D348DB
(1785789692.740287) can0 18FF14D1#
(1785789692.744168) can0 1CECFFF1#20120003FF19F000
(1785789692.745172) can0 1CEBFFF1#0127100000000000
(1785789692.746178) can0 1CEBFFF1#0200000000000000
(1785789692.747151) can0 1CEBFFF1#03FFF26335FFFFFF
(1785789692.773193) can0 18F015F1#00004641477E4557
(1785789692.778028) can0 18FEF1F8#FF0000FFFFFFFFFF
(1785789692.779155) can0 18F005F8#7DFFFF7DFFFFFFFF
(1785789692.838424) can0 18ECFFD1#200E0002FF09FF00
(1785789692.838949) can0 18EBFFD1#0101000A00D53EE5
(1785789692.839502) can0 18EBFFD1#0201000B00D348DB
(1785789692.844166) can0 1CECFFF1#20120003FF19F000
(1785789692.845165) can0 1CEBFFF1#0127100000000000
(1785789692.846180) can0 1CEBFFF1#0200000000000000
(1785789692.847150) can0 1CEBFFF1#03FFF26335FFFFFF
(1785789692.873161) can0 18F015F1#00004641477F4558
(1785789692.878003) can0 18FEF1F8#FF0000FFFFFFFFFF
(1785789692.879129) can0 18F005F8#7DFFFF7DFFFFFFFF
(1785789692.938592) can0 18ECFFD1#200E0002FF09FF00
(1785789692.939102) can0 18EBFFD1#0101000A00D53EE5
(1785789692.939559) can0 18EBFFD1#0201000B00D348DB
(1785789692.945276) can0 1CECFFF1#20120003FF19F000
(1785789692.946189) can0 1CEBFFF1#0127100000000000
(1785789692.947207) can0 1CEBFFF1#0200000000000000
(1785789692.948176) can0 1CEBFFF1#03FFF26335FFFFFF
(1785789692.974400) can0 18F015F1#00004641477E4557
(1785789692.978131) can0 18FEF1F8#FF0000FFFFFFFFFF
(1785789692.979264) can0 18F005F8#7DFFFF7DFFFFFFFF
(1785789693.038471) can0 18ECFFD1#200E0002FF09FF00
(1785789693.038959) can0 18EBFFD1#0101000A00D53EE5
(1785789693.039509) can0 18EBFFD1#0201000B00D348DB
(1785789693.045236) can0 1CECFFF1#20120003FF19F000
(1785789693.046187) can0 1CEBFFF1#0127100000000000
(1785789693.047225) can0 1CEBFFF1#0200000000000000
(1785789693.048187) can0 1CEBFFF1#03FFF26335FFFFFF
(1785789693.074247) can0 18F015F1#00004641477E4557
(1785789693.078791) can0 18FEF1F8#FF0000FFFFFFFFFF
(1785789693.080107) can0 18F005F8#7DFFFF7DFFFFFFFF
(1785789693.138532) can0 18ECFFD1#200E0002FF09FF00
(1785789693.139017) can0 18EBFFD1#0101000A00D53EE5
(1785789693.139554) can0 18EBFFD1#0201000B00D348DB
(1785789693.145173) can0 1CECFFF1#20120003FF19F000
(1785789693.146169) can0 1CEBFFF1#0127100000000000
(1785789693.147174) can0 1CEBFFF1#0200000000000000
(1785789693.148153) can0 1CEBFFF1#03FFF26335FFFFFF
(1785789693.174174) can0 18F015F1#00004641477E4558
(1785789693.178050) can0 18FEF1F8#FF0000FFFFFFFFFF
(1785789693.179213) can0 18F005F8#7DFFFF7DFFFFFFFF
(1785789693.238482) can0 18FF09D1#01000A00D53EE5
(1785789693.238833) can0 18FF14D1#
(1785789693.245236) can0 1CECFFF1#20120003FF19F000
(1785789693.246192) can0 1CEBFFF1#0127100000000000
(1785789693.247191) can0 1CEBFFF1#0200000000000000
(1785789693.248165) can0 1CEBFFF1#03FFF26335FFFFFF
(1785789693.274262) can0 18F015F1#00004641477E4558
(1785789693.278179) can0 18FEF1F8#FF0000FFFFFFFFFF
(1785789693.279446) can0 18F005F8#7DFFFF7DFFFFFFFF
(1785789693.338336) can0 18FF09D1#01000A00D53EE5
(1785789693.345184) can0 1CECFFF1#20120003FF19F000
(1785789693.346184) can0 1CEBFFF1#0127100000000000
(1785789693.347186) can0 1CEBFFF1#0200000000000000
(1785789693.348156) can0 1CEBFFF1#03FFF16275FFFFFF
(1785789693.374159) can0 18F015F1#00004641477E4557
(1785789693.378009) can0 18FEF1F8#FF0000FFFFFFFFFF
(1785789693.379123) can0 18F005F8#7DFFFF7DFFFFFFFF
(1785789693.438363) can0 18FF09D1#01000A00D53EE5
(1785789693.445180) can0 1CECFFF1#20120003FF19F000
(1785789693.446172) can0 1CEBFFF1#0127100000000000
(1785789693.447176) can0 1CEBFFF1#0200000000000000
(1785789693.448155) can0 1CEBFFF1#03FFF26335FFFFFF
(1785789693.474168) can0 18F015F1#00004640477E4558
(1785789693.478028) can0 18FEF1F8#FF0000FFFFFFFFFF
(1785789693.479160) can0 18F005F8#7DFFFF7DFFFFFFFF
(1785789693.538332) can0 18FF09D1#01000A00D53EE5
(1785789693.545188) can0 1CECFFF1#20120003FF19F000
(1785789693.546180) can0 1CEBFFF1#0127100000000000
(1785789693.547192) can0 1CEBFFF1#0200000000000000
(1785789693.548175) can0 1CEBFFF1#03FFF16275FFFFFF
(1785789693.574169) can0 18F015F1#00004640477E4558
(1785789693.578011) can0 18FEF1F8#FF0000FFFFFFFFFF
(1785789693.579163) can0 18F005F8#7DFFFF7DFFFFFFFF
(1785789693.638422) can0 18FF09D1#01000A00D53EE5
(1785789693.645407) can0 1CECFFF1#20120003FF19F000
(1785789693.646258) can0 1CEBFFF1#0127100000000000
(1785789693.647285) can0 1CEBFFF1#0200000000000000
(1785789693.648238) can0 1CEBFFF1#03FFF16275FFFFFF
(1785789693.675314) can0 18F015F1#00004641477E4557
(1785789693.681390) can0 18FEF1F8#FF0000FFFFFFFFFF
(1785789693.683254) can0 18F005F8#7DFFFF7DFFFFFFFF
(1785789693.685150) can0 18F017F1#F9CCFD199D24
(1785789693.685578) can0 18F018F1#F51BF6C8928F
(1785789693.738440) can0 18FF09D1#01000A00D500E7
(1785789693.738860) can0 18FF14D1#
(1785789693.746224) can0 1CECFFF1#20120003FF19F000
(1785789693.747181) can0 1CEBFFF1#0127100000000000
(1785789693.748196) can0 1CEBFFF1#0200000000000000
(1785789693.749184) can0 1CEBFFF1#03FFF26335FFFFFF
(1785789693.775234) can0 18F015F1#00004640477E4558
(1785789693.778042) can0 18FEF1F8#FF0000FFFFFFFFFF
(1785789693.779231) can0 18F005F8#7DFFFF7DFFFFFFFF
(1785789693.838380) can0 18FF09D1#01000A00D500E7
(1785789693.846204) can0 1CECFFF1#20120003FF19F000
(1785789693.847175) can0 1CEBFFF1#0127100000000000
(1785789693.848181) can0 1CEBFFF1#0200000000000000
(1785789693.849167) can0 1CEBFFF1#03FFF16275FFFFFF
(1785789693.875236) can0 18F015F1#00004640477E4558
(1785789693.878037) can0 18FEF1F8#FF0000FFFFFFFFFF
(1785789693.879150) can0 18F005F8#7DFFFF7DFFFFFFFF
(1785789693.938468) can0 18FF09D1#01000A00D500E7
(1785789693.946259) can0 1CECFFF1#20120003FF19F000
(1785789693.947180) can0 1CEBFFF1#0127100000000000
(1785789693.948187) can0 1CEBFFF1#0200000000000000
(1785789693.949167) can0 1CEBFFF1#03FFF16275FFFFFF
(1785789693.975268) can0 18F015F1#00004640477E4557
(1785789693.978165) can0 18FEF1F8#FF0000FFFFFFFFFF
(1785789693.979378) can0 18F005F8#7DFFFF7DFFFFFFFF
(1785789694.038331) can0 18FF09D1#01000A00D500E7
(1785789694.046203) can0 1CECFFF1#20120003FF19F000
(1785789694.047203) can0 1CEBFFF1#0127100000000000
(1785789694.048190) can0 1CEBFFF1#0200000000000000
(1785789694.049159) can0 1CEBFFF1#03FFF26335FFFFFF
(1785789694.075408) can0 18F015F1#00004640477E4557
(1785789694.078337) can0 18FEF1F8#FF0000FFFFFFFFFF
(1785789694.079971) can0 18F005F8#7DFFFF7DFFFFFFFF
(1785789694.138325) can0 18FF09D1#01000A00D500E7
(1785789694.146206) can0 1CECFFF1#20120003FF19F000
(1785789694.147198) can0 1CEBFFF1#0127100000000000
(1785789694.148187) can0 1CEBFFF1#0200000000000000
(1785789694.149169) can0 1CEBFFF1#03FFF16275FFFFFF
(1785789694.176850) can0 18F015F1#00004640477E4557
(1785789694.178083) can0 18FEF1F8#FF0000FFFFFFFFFF
(1785789694.179221) can0 18F005F8#7DFFFF7DFFFFFFFF
(1785789694.238365) can0 18FF09D1#01000A00D564E7
(1785789694.238715) can0 18FF14D1#
(1785789694.246198) can0 1CECFFF1#20120003FF19F000
(1785789694.247186) can0 1CEBFFF1#0127100000000000
(1785789694.248199) can0 1CEBFFF1#0200000000000000
(1785789694.249180) can0 1CEBFFF1#03FFF16275FFFFFF
(1785789694.275312) can0 18F015F1#00004640477E4557
(1785789694.278090) can0 18FEF1F8#FF0000FFFFFFFFFF
(1785789694.279311) can0 18F005F8#7DFFFF7DFFFFFFFF
(1785789694.338398) can0 18FF09D1#01000A00D564E7
(1785789694.347229) can0 1CECFFF1#20120003FF19F000
(1785789694.348177) can0 1CEBFFF1#0127100000000000
(1785789694.349182) can0 1CEBFFF1#0200000000000000
(1785789694.350160) can0 1CEBFFF1#03FFF26335FFFFFF
(1785789694.376176) can0 18F015F1#00004640477E4557
(1785789694.377995) can0 18FEF1F8#FF0000FFFFFFFFFF
(1785789694.379094) can0 18F005F8#7DFFFF7DFFFFFFFF
(1785789694.438338) can0 18FF09D1#01000A00D564E7
(1785789694.447191) can0 1CECFFF1#20120003FF19F000
(1785789694.448174) can0 1CEBFFF1#0127100000000000
(1785789694.449183) can0 1CEBFFF1#0200000000000000
(1785789694.450164) can0 1CEBFFF1#03FFF16275FFFFFF
(1785789694.476179) can0 18F015F1#00004640477E4557
(1785789694.478088) can0 18FEF1F8#FF0000FFFFFFFFFF
(1785789694.479263) can0 18F005F8#7DFFFF7DFFFFFFFF
(1785789694.538281) can0 18FF09D1#01000A00D564E7
(1785789694.547193) can0 1CECFFF1#20120003FF19F000
(1785789694.548189) can0 1CEBFFF1#0127100000000000
(1785789694.549197) can0 1CEBFFF1#0200000000000000
(1785789694.550178) can0 1CEBFFF1#03FFF16275FFFFFF
(1785789694.576176) can0 18F015F1#00004640477E4557
(1785789694.578020) can0 18FEF1F8#FF0000FFFFFFFFFF
(1785789694.579183) can0 18F005F8#7DFFFF7DFFFFFFFF
(1785789694.638389) can0 18FF09D1#01000A00D564E7
(1785789694.647706) can0 1CECFFF1#20120003FF19F000
(1785789694.648178) can0 1CEBFFF1#0127100000000000
(1785789694.649224) can0 1CEBFFF1#0200000000000000
(1785789694.650189) can0 1CEBFFF1#03FFF16275FFFFFF
(1785789694.678151) can0 18F015F1#00004640477E4557
(1785789694.679760) can0 18FEF1F8#FF0000FFFFFFFFFF
(1785789694.681174) can0 18F005F8#7DFFFF7DFFFFFFFF
(1785789694.686124) can0 18F017F1#F9CCFD199D24
(1785789694.686506) can0 18F018F1#F51BF6C8928F
(1785789694.738359) can0 18FF09D1#01000A00D564E7
(1785789694.738623) can0 18FF14D1#
(1785789694.747216) can0 1CECFFF1#20120003FF19F000
(1785789694.748220) can0 1CEBFFF1#0127100000000000
(1785789694.749189) can0 1CEBFFF1#0200000000000000
(1785789694.750165) can0 1CEBFFF1#03FFF16275FFFFFF
(1785789694.776231) can0 18F015F1#00004640477E4557
(1785789694.778001) can0 18FEF1F8#FF0000FFFFFFFFFF
(1785789694.779128) can0 18F005F8#7DFFFF7DFFFFFFFF
(1785789694.838303) can0 18FF09D1#01000A00D564E7
(1785789694.847196) can0 1CECFFF1#20120003FF19F000
(1785789694.848179) can0 1CEBFFF1#0127100000000000
(1785789694.849189) can0 1CEBFFF1#0200000000000000
(1785789694.850168) can0 1CEBFFF1#03FFF16275FFFFFF
(1785789694.876194) can0 18F015F1#00004640477E4558
(1785789694.877996) can0 18FEF1F8#FF0000FFFFFFFFFF
(1785789694.879112) can0 18F005F8#7DFFFF7DFFFFFFFF
(1785789694.938474) can0 18FF09D1#01000A00D564E7
(1785789694.947267) can0 1CECFFF1#20120003FF19F000
(1785789694.948200) can0 1CEBFFF1#0127100000000000
(1785789694.949211) can0 1CEBFFF1#0200000000000000
(1785789694.950190) can0 1CEBFFF1#03FFF26335FFFFFF
(1785789694.976332) can0 18F015F1#00004640477E4557
(1785789694.978048) can0 18FEF1F8#FF0000FFFFFFFFFF
(1785789694.979204) can0 18F005F8#7DFFFF7DFFFFFFFF
(1785789695.038732) can0 18FF09D1#01000A00D564E7
(1785789695.047226) can0 1CECFFF1#20120003FF19F000
(1785789695.048185) can0 1CEBFFF1#0127100000000000
(1785789695.049390) can0 1CEBFFF1#0200000000000000
(1785789695.050210) can0 1CEBFFF1#03FFF16275FFFFFF
(1785789695.076342) can0 18F015F1#00004641477E4557
(1785789695.078057) can0 18FEF1F8#FF0000FFFFFFFFFF
(1785789695.079281) can0 18F005F8#7DFFFF7DFFFFFFFF
(1785789695.138332) can0 18FF09D1#01000A00D564E7
(1785789695.148233) can0 1CECFFF1#20120003FF19F000
(1785789695.149184) can0 1CEBFFF1#0127100000000000
(1785789695.150206) can0 1CEBFFF1#0200000000000000
(1785789695.151178) can0 1CEBFFF1#03FFF26335FFFFFF
(1785789695.177235) can0 18F015F1#00004640477E4557
(1785789695.178387) can0 18FEF1F8#FF0000FFFFFFFFFF
(1785789695.179545) can0 18F005F8#7DFFFF7DFFFFFFFF
(1785789695.238458) can0 18FF09D1#01000A00D564E7
(1785789695.238792) can0 18FF14D1#
(1785789695.239150) can0 18FF16D1#01000A0064
(1785789695.248213) can0 1CECFFF1#20120003FF19F000
(1785789695.249340) can0 1CEBFFF1#0127100000000000
(1785789695.250204) can0 1CEBFFF1#0200000000000000
(1785789695.251178) can0 1CEBFFF1#03FFF16275FFFFFF
(1785789695.277359) can0 18F015F1#00004640477E4557
(1785789695.278612) can0 18FEF1F8#FF0000FFFFFFFFFF
(1785789695.279757) can0 18F005F8#7DFFFF7DFFFFFFFF
(1785789695.338272) can0 18FF09D1#01000A00D564E7
(1785789695.348189) can0 1CECFFF1#20120003FF19F000
(1785789695.349177) can0 1CEBFFF1#0127100000000000
(1785789695.350191) can0 1CEBFFF1#0200000000000000
(1785789695.351169) can0 1CEBFFF1#03FFF16275FFFFFF
(1785789695.377193) can0 18F015F1#00004641477E4557
(1785789695.378333) can0 18FEF1F8#FF0000FFFFFFFFFF
(1785789695.379459) can0 18F005F8#7DFFFF7DFFFFFFFF
(1785789695.438450) can0 18FF09D1#01000A00D564E7
(1785789695.448223) can0 1CECFFF1#20120003FF19F000
(1785789695.449197) can0 1CEBFFF1#0127100000000000
(1785789695.450232) can0 1CEBFFF1#0200000000000000
(1785789695.451180) can0 1CEBFFF1#03FFF16275FFFFFF
(1785789695.477219) can0 18F015F1#00004640477F4557
(1785789695.478450) can0 18FEF1F8#FF0000FFFFFFFFFF
(1785789695.479616) can0 18F005F8#7DFFFF7DFFFFFFFF
(1785789695.538274) can0 18FF09D1#01000A00D564E7
(1785789695.548211) can0 1CECFFF1#20120003FF19F000
(1785789695.549193) can0 1CEBFFF1#0127100000000000
(1785789695.550214) can0 1CEBFFF1#0200000000000000
(1785789695.551193) can0 1CEBFFF1#03FFF16275FFFFFF
(1785789695.577202) can0 18F015F1#00004640477E4557
(1785789695.578336) can0 18FEF1F8#FF0000FFFFFFFFFF
(1785789695.579469) can0 18F005F8#7DFFFF7DFFFFFFFF
(1785789695.638394) can0 18FF09D1#01000A00D564E7
(1785789695.648285) can0 1CECFFF1#20120003FF19F000
(1785789695.649194) can0 1CEBFFF1#0127100000000000
(1785789695.650214) can0 1CEBFFF1#0200000000000000
(1785789695.651193) can0 1CEBFFF1#03FFF16275FFFFFF
(1785789695.678229) can0 18FEF1F8#FF0000FFFFFFFFFF
(1785789695.678917) can0 18F015F1#00004641477E4557
(1785789695.679400) can0 18F005F8#7DFFFF7DFFFFFFFF
(1785789695.687284) can0 18F017F1#F981FBF19B83
(1785789695.687692) can0 18F018F1#F4F5F7249437
(1785789695.738426) can0 18FF09D1#01000A00D538E6
(1785789695.739069) can0 18FF14D1#
(1785789695.748221) can0 1CECFFF1#20120003FF19F000
(1785789695.749187) can0 1CEBFFF1#0127100000000000
(1785789695.750192) can0 1CEBFFF1#0200000000000000
(1785789695.751236) can0 1CEBFFF1#03FFF16275FFFFFF
(1785789695.777229) can0 18F015F1#00004640477E4557
(1785789695.778414) can0 18FEF1F8#FF0000FFFFFFFFFF
(1785789695.779533) can0 18F005F8#7DFFFF7DFFFFFFFF
(1785789695.838284) can0 18FF09D1#01000A00D538E6
(1785789695.848203) can0 1CECFFF1#20120003FF19F000
(1785789695.849186) can0 1CEBFFF1#0127100000000000
(1785789695.850198) can0 1CEBFFF1#0200000000000000
(1785789695.851173) can0 1CEBFFF1#03FFF16275FFFFFF
(1785789695.878048) can0 18FEF1F8#FF0000FFFFFFFFFF
(1785789695.878721) can0 18F015F1#00004640477E4557
(1785789695.879210) can0 18F005F8#7DFFFF7DFFFFFFFF
(1785789695.938416) can0 18FF09D1#01000A00D538E6
(1785789695.949279) can0 1CECFFF1#20120003FF19F000
(1785789695.950197) can0 1CEBFFF1#0127100000000000
(1785789695.951209) can0 1CEBFFF1#0200000000000000
(1785789695.952182) can0 1CEBFFF1#03FFF16275FFFFFF
(1785789695.978207) can0 18FEF1F8#FF0000FFFFFFFFFF
(1785789695.978921) can0 18F015F1#00004640477E4557
(1785789695.979424) can0 18F005F8#7DFFFF7DFFFFFFFF
(1785789696.038283) can0 18FF09D1#01000A00D538E6
(1785789696.049258) can0 1CECFFF1#20120003FF19F000
(1785789696.050189) can0 1CEBFFF1#0127100000000000
(1785789696.051197) can0 1CEBFFF1#0200000000000000
(1785789696.052175) can0 1CEBFFF1#03FFF16275FFFFFF
(1785789696.078199) can0 18F015F1#00004640477E4557
(1785789696.078723) can0 18FEF1F8#FF0000FFFFFFFFFF
(1785789696.079867) can0 18F005F8#7DFFFF7DFFFFFFFF
(1785789696.138302) can0 18FF09D1#01000A00D538E6
(1785789696.149250) can0 1CECFFF1#20120003FF19F000
(1785789696.150196) can0 1CEBFFF1#0127100000000000
(1785789696.151202) can0 1CEBFFF1#0200000000000000
(1785789696.152182) can0 1CEBFFF1#03FFF16275FFFFFF
(1785789696.178039) can0 18FEF1F8#FF0000FFFFFFFFFF
(1785789696.179180) can0 18F015F1#00004640477E4557
(1785789696.179713) can0 18F005F8#7DFFFF7DFFFFFFFF
(1785789696.238441) can0 18FF09D1#01000A00D5D4E5
(1785789696.238727) can0 18FF14D1#
(1785789696.249244) can0 1CECFFF1#20120003FF19F000
(1785789696.250221) can0 1CEBFFF1#0127100000000000
(1785789696.251218) can0 1CEBFFF1#0200000000000000
(1785789696.252203) can0 1CEBFFF1#03FFF16275FFFFFF
(1785789696.278198) can0 18F015F1#00004640477E4557
(1785789696.278739) can0 18FEF1F8#FF0000FFFFFFFFFF
(1785789696.279919) can0 18F005F8#7DFFFF7DFFFFFFFF
(1785789696.338252) can0 18FF09D1#01000A00D5D4E5
(1785789696.349228) can0 1CECFFF1#20120003FF19F000
(1785789696.350198) can0 1CEBFFF1#0127100000000000
(1785789696.351211) can0 1CEBFFF1#0200000000000000
(1785789696.352215) can0 1CEBFFF1#03FFF16275FFFFFF
(1785789696.378131) can0 18FEF1F8#FF0000FFFFFFFFFF
(1785789696.378960) can0 18F015F1#00004640477E4557
(1785789696.379420) can0 18F005F8#7DFFFF7DFFFFFFFF
(1785789696.438740) can0 18FF09D1#01000A00D5D4E5
(1785789696.449258) can0 1CECFFF1#20120003FF19F000
(1785789696.450201) can0 1CEBFFF1#0127100000000000
(1785789696.451213) can0 1CEBFFF1#0200000000000000
(1785789696.452196) can0 1CEBFFF1#03FFF16275FFFFFF
(1785789696.478056) can0 18FEF1F8#FF0000FFFFFFFFFF
(1785789696.478742) can0 18F015F1#00004640477E4557
(1785789696.479222) can0 18F005F8#7DFFFF7DFFFFFFFF
(1785789696.538237) can0 18FF09D1#01000A00D5D4E5
(1785789696.549212) can0 1CECFFF1#20120003FF19F000
(1785789696.550202) can0 1CEBFFF1#0127100000000000
(1785789696.551218) can0 1CEBFFF1#0200000000000000
(1785789696.552196) can0 1CEBFFF1#03FFF16275FFFFFF
(1785789696.578067) can0 18FEF1F8#FF0000FFFFFFFFFF
(1785789696.578778) can0 18F015F1#00004640477E4557
(1785789696.579271) can0 18F005F8#7DFFFF7DFFFFFFFF
(1785789696.638349) can0 18FF09D1#01000A00D5D4E5
(1785789696.650259) can0 1CECFFF1#20120003FF19F000
(1785789696.651204) can0 1CEBFFF1#0127100000000000
(1785789696.652208) can0 1CEBFFF1#0200000000000000
(1785789696.653185) can0 1CEBFFF1#03FFF16275FFFFFF
(1785789696.678348) can0 18FEF1F8#FF0000FFFFFFFFFF
(1785789696.679197) can0 18F015F1#00004640477E4557
(1785789696.679745) can0 18F005F8#7DFFFF7DFFFFFFFF
(1785789696.689594) can0 18F017F1#F981FBF19B83
(1785789696.690748) can0 18F018F1#F4F5F7249437
(1785789696.738318) can0 18FF09D1#01000A00D5D4E5
(1785789696.738607) can0 18FF14D1#
(1785789696.750232) can0 1CECFFF1#20120003FF19F000
(1785789696.751196) can0 1CEBFFF1#0127100000000000
(1785789696.752203) can0 1CEBFFF1#0200000000000000
(1785789696.753180) can0 1CEBFFF1#03FFF16275FFFFFF
(1785789696.778089) can0 18FEF1F8#FF0000FFFFFFFFFF
(1785789696.779177) can0 18F015F1#00004640477E4557
(1785789696.779720) can0 18F005F8#7DFFFF7DFFFFFFFF
(1785789696.838232) can0 18FF09D1#01000A00D5D4E5
(1785789696.850224) can0 1CECFFF1#20120003FF19F000
(1785789696.851209) can0 1CEBFFF1#0127100000000000
(1785789696.852220) can0 1CEBFFF1#0200000000000000
(1785789696.853200) can0 1CEBFFF1#03FFF16275FFFFFF
(1785789696.878042) can0 18FEF1F8#FF0000FFFFFFFFFF
(1785789696.879187) can0 18F015F1#00004640477E4557
(1785789696.879731) can0 18F005F8#7DFFFF7DFFFFFFFF
(1785789696.938355) can0 18FF09D1#01000A00D5D4E5
(1785789696.950347) can0 1CECFFF1#20120003FF19F000
(1785789696.951269) can0 1CEBFFF1#0127100000000000
(1785789696.952239) can0 1CEBFFF1#0200000000000000
(1785789696.953202) can0 1CEBFFF1#03FFF16275FFFFFF
(1785789696.978357) can0 18FEF1F8#FF0000FFFFFFFFFF
(1785789696.979221) can0 18F015F1#00004640477E4557
(1785789696.979771) can0 18F005F8#7DFFFF7DFFFFFFFF
(1785789697.038477) can0 18FF09D1#01000A00D5D4E5
(1785789697.050415) can0 1CECFFF1#20120003FF19F000
(1785789697.051237) can0 1CEBFFF1#0127100000000000
(1785789697.052253) can0 1CEBFFF1#0200000000000000
(1785789697.053294) can0 1CEBFFF1#03FFF16275FFFFFF
(1785789697.078089) can0 18FEF1F8#FF0000FFFFFFFFFF
(1785789697.079218) can0 18F015F1#00004640477D4558
(1785789697.080009) can0 18F005F8#7DFFFF7DFFFFFFFF
(1785789697.138256) can0 18FF09D1#01000A00D5D4E5
(1785789697.150238) can0 1CECFFF1#20120003FF19F000
(1785789697.151197) can0 1CEBFFF1#0127100000000000
(1785789697.152204) can0 1CEBFFF1#0200000000000000
(1785789697.153186) can0 1CEBFFF1#03FFF16275FFFFFF
(1785789697.178052) can0 18FEF1F8#FF0000FFFFFFFFFF
(1785789697.179231) can0 18F005F8#7DFFFF7DFFFFFFFF
(1785789697.180178) can0 18F015F1#00004640477E4557
(1785789697.238466) can0 18FF09D1#01000A00D5D4E5
(1785789697.238847) can0 18FF14D1#
(1785789697.251223) can0 1CECFFF1#20120003FF19F000
(1785789697.252202) can0 1CEBFFF1#0127100000000000
(1785789697.253217) can0 1CEBFFF1#0200000000000000
(1785789697.254194) can0 1CEBFFF1#03FFF16275FFFFFF
(1785789697.278312) can0 18FEF1F8#FF0000FFFFFFFFFF
(1785789697.279191) can0 18F015F1#00004640477E4557
(1785789697.279756) can0 18F005F8#7DFFFF7DFFFFFFFF
(1785789697.338600) can0 18FF09D1#01000A00D570E5
(1785789697.351213) can0 1CECFFF1#20120003FF19F000
(1785789697.352195) can0 1CEBFFF1#0127100000000000
(1785789697.353205) can0 1CEBFFF1#0200000000000000
(1785789697.354185) can0 1CEBFFF1#03FFF16275FFFFFF
(1785789697.378024) can0 18FEF1F8#FF0000FFFFFFFFFF
(1785789697.379205) can0 18F005F8#7DFFFF7DFFFFFFFF
(1785789697.380183) can0 18F015F1#00004640477E4557
(1785789697.438249) can0 18FF09D1#01000A00D570E5
(1785789697.451516) can0 1CECFFF1#20120003FF19F000
(1785789697.452352) can0 1CEBFFF1#0127100000000000
(1785789697.453306) can0 1CEBFFF1#0200000000000000
(1785789697.454301) can0 1CEBFFF1#03FFF16275FFFFFF
(1785789697.478092) can0 18FEF1F8#FF0000FFFFFFFFFF
(1785789697.479307) can0 18F005F8#7DFFFF7DFFFFFFFF
(1785789697.480189) can0 18F015F1#00004640477F4557
(1785789697.538237) can0 18FF09D1#01000A00D570E5
(1785789697.551211) can0 1CECFFF1#20120003FF19F000
(1785789697.552202) can0 1CEBFFF1#0127100000000000
(1785789697.553216) can0 1CEBFFF1#0200000000000000
(1785789697.554196) can0 1CEBFFF1#03FFF16275FFFFFF
(1785789697.578032) can0 18FEF1F8#FF0000FFFFFFFFFF
(1785789697.579223) can0 18F005F8#7DFFFF7DFFFFFFFF
(1785789697.580189) can0 18F015F1#00004640477E4557
(1785789697.638308) can0 18FF09D1#01000A00D570E5
(1785789697.651304) can0 1CECFFF1#20120003FF19F000
(1785789697.652228) can0 1CEBFFF1#0127100000000000
(1785789697.653235) can0 1CEBFFF1#0200000000000000
(1785789697.654214) can0 1CEBFFF1#03FFF16275FFFFFF
(1785789697.678490) can0 18FEF1F8#FF0000FFFFFFFFFF
(1785789697.679622) can0 18F005F8#7DFFFF7DFFFFFFFF
(1785789697.681205) can0 18F015F1#00004640477E4557
(1785789697.690188) can0 18F017F1#FABDFC039C2D
(1785789697.690539) can0 18F018F1#F545F698928D
(1785789697.738299) can0 18FF09D1#01000A00D570E5
(1785789697.738574) can0 18FF14D1#
(1785789697.751209) can0 1CECFFF1#20120003FF19F000
(1785789697.752216) can0 1CEBFFF1#0127100000000000
(1785789697.753530) can0 1CEBFFF1#0200000000000000
(1785789697.754232) can0 1CEBFFF1#03FFF16275FFFFFF
(1785789697.778081) can0 18FEF1F8#FF0000FFFFFFFFFF
(1785789697.779292) can0 18F005F8#7DFFFF7DFFFFFFFF
(1785789697.780190) can0 18F015F1#00004640477F4557
(1785789697.838218) can0 18FF09D1#01000A00D570E5
(1785789697.851226) can0 1CECFFF1#20120003FF19F000
(1785789697.852206) can0 1CEBFFF1#0127100000000000
(1785789697.853220) can0 1CEBFFF1#0200000000000000
(1785789697.854201) can0 1CEBFFF1#03FFF16275FFFFFF
(1785789697.878030) can0 18FEF1F8#FF0000FFFFFFFFFF
(1785789697.879230) can0 18F005F8#7DFFFF7DFFFFFFFF
(1785789697.880190) can0 18F015F1#00004640477E4557
(1785789697.938294) can0 18FF09D1#01000A00D570E5
(1785789697.951392) can0 1CECFFF1#20120003FF19F000
(1785789697.952232) can0 1CEBFFF1#0127100000000000
(1785789697.953235) can0 1CEBFFF1#0200000000000000
(1785789697.954254) can0 1CEBFFF1#03FFF16275FFFFFF
(1785789697.978377) can0 18FEF1F8#FF0000FFFFFFFFFF
(1785789697.979601) can0 18F005F8#7DFFFF7DFFFFFFFF
(1785789697.980219) can0 18F015F1#00004640477E4557
(1785789698.038217) can0 18FF09D1#01000A00D570E5
(1785789698.052233) can0 1CECFFF1#20120003FF19F000
(1785789698.053208) can0 1CEBFFF1#0127100000000000
(1785789698.054227) can0 1CEBFFF1#0200000000000000
(1785789698.055199) can0 1CEBFFF1#03FFF16275FFFFFF
(1785789698.078043) can0 18FEF1F8#FF0000FFFFFFFFFF
(1785789698.079238) can0 18F005F8#7DFFFF7DFFFFFFFF
(1785789698.081182) can0 18F015F1#00004640477F4557
(1785789698.138229) can0 18FF09D1#01000A00D570E5
(1785789698.152274) can0 1CECFFF1#20120003FF19F000
(1785789698.153201) can0 1CEBFFF1#0127100000000000
(1785789698.154213) can0 1CEBFFF1#0200000000000000
(1785789698.155193) can0 1CEBFFF1#03FFF16275FFFFFF
(1785789698.178074) can0 18FEF1F8#FF0000FFFFFFFFFF
(1785789698.179252) can0 18F005F8#7DFFFF7DFFFFFFFF
(1785789698.181192) can0 18F015F1#00004640477E4557
(1785789698.238308) can0 18FF09D1#01000A00D5D4E5
(1785789698.238669) can0 18FF14D1#
(1785789698.252305) can0 1CECFFF1#20120003FF19F000
(1785789698.253218) can0 1CEBFFF1#0127100000000000
(1785789698.254224) can0 1CEBFFF1#0200000000000000
(1785789698.255204) can0 1CEBFFF1#03FFF16275FFFFFF
(1785789698.278108) can0 18FEF1F8#FF0000FFFFFFFFFF
(1785789698.279316) can0 18F005F8#7DFFFF7DFFFFFFFF
(1785789698.281228) can0 18F015F1#00004640477E4557
(1785789698.338304) can0 18FF09D1#01000A00D5D4E5
(1785789698.352311) can0 1CECFFF1#20120003FF19F000
(1785789698.353220) can0 1CEBFFF1#0127100000000000
(1785789698.354217) can0 1CEBFFF1#0200000000000000
(1785789698.355194) can0 1CEBFFF1#03FFF16275FFFFFF
(1785789698.378029) can0 18FEF1F8#FF0000FFFFFFFFFF
(1785789698.379214) can0 18F005F8#7DFFFF7DFFFFFFFF
(1785789698.381188) can0 18F015F1#00004640477F4557
(1785789698.438338) can0 18FF09D1#01000A00D5D4E5
(1785789698.452522) can0 1CECFFF1#20120003FF19F000
(1785789698.453349) can0 1CEBFFF1#0127100000000000
(1785789698.454336) can0 1CEBFFF1#0200000000000000
(1785789698.455299) can0 1CEBFFF1#03FFF16275FFFFFF
(1785789698.478096) can0 18FEF1F8#FF0000FFFFFFFFFF
(1785789698.479270) can0 18F005F8#7DFFFF7DFFFFFFFF
(1785789698.481200) can0 18F015F1#00004640477E4556
(1785789698.538184) can0 18FF09D1#01000A00D5D4E5
(1785789698.552220) can0 1CECFFF1#20120003FF19F000
(1785789698.553210) can0 1CEBFFF1#0127100000000000
(1785789698.554222) can0 1CEBFFF1#0200000000000000
(1785789698.555203) can0 1CEBFFF1#03FFF16275FFFFFF
(1785789698.578030) can0 18FEF1F8#FF0000FFFFFFFFFF
(1785789698.579217) can0 18F005F8#7DFFFF7DFFFFFFFF
(1785789698.581190) can0 18F015F1#00004640477E4556
(1785789698.638315) can0 18FF09D1#01000A00D5D4E5
(1785789698.652287) can0 1CECFFF1#20120003FF19F000
(1785789698.653216) can0 1CEBFFF1#0127100000000000
(1785789698.654245) can0 1CEBFFF1#0200000000000000
(1785789698.655225) can0 1CEBFFF1#03FFF16275FFFFFF
(1785789698.678218) can0 18FEF1F8#FF0000FFFFFFFFFF
(1785789698.679648) can0 18F005F8#7DFFFF7DFFFFFFFF
(1785789698.682267) can0 18F015F1#00004640477F4557
(1785789698.691212) can0 18F017F1#FABDFC039C2D
(1785789698.691671) can0 18F018F1#F545F698928D
(1785789698.738257) can0 18FF09D1#01000A00D5E0E3
(1785789698.738546) can0 18FF14D1#
(1785789698.752344) can0 1CECFFF1#20120003FF19F000
(1785789698.754474) can0 1CEBFFF1#0127100000000000
(1785789698.754759) can0 1CEBFFF1#0200000000000000
(1785789698.756067) can0 1CEBFFF1#03FFF16275FFFFFF
(1785789698.778412) can0 18FEF1F8#FF0000FFFFFFFFFF
(1785789698.779678) can0 18F005F8#7DFFFF7DFFFFFFFF
(1785789698.782276) can0 18F015F1#00004640477E4557
(1785789698.838266) can0 18FF09D1#01000A00D5E0E3
(1785789698.853270) can0 1CECFFF1#20120003FF19F000
(1785789698.854213) can0 1CEBFFF1#0127100000000000
(1785789698.855225) can0 1CEBFFF1#0200000000000000
(1785789698.856216) can0 1CEBFFF1#03FFF16275FFFFFF
(1785789698.878060) can0 18FEF1F8#FF0000FFFFFFFFFF
(1785789698.879259) can0 18F005F8#7DFFFF7DFFFFFFFF
(1785789698.882194) can0 18F015F1#00004640477E4556
(1785789698.938178) can0 18FF09D1#01000A00D5E0E3
(1785789698.953244) can0 1CECFFF1#20120003FF19F000
(1785789698.956326) can0 1CEBFFF1#0127100000000000
(1785789698.956736) can0 1CEBFFF1#03FFF16275FFFFFF
(1785789698.957368) can0 1CEBFFF1#0200000000000000
(1785789698.978295) can0 18FEF1F8#FF0000FFFFFFFFFF
(1785789698.979548) can0 18F005F8#7DFFFF7DFFFFFFFF
(1785789698.982211) can0 18F015F1#00004640477F4557
(1785789699.038413) can0 18FF09D1#01000A00D5E0E3
(1785789699.053515) can0 1CECFFF1#20120003FF19F000
(1785789699.054251) can0 1CEBFFF1#0127100000000000
(1785789699.055257) can0 1CEBFFF1#0200000000000000
(1785789699.056323) can0 1CEBFFF1#03FFF16275FFFFFF
(1785789699.078384) can0 18FEF1F8#FF0000FFFFFFFFFF
(1785789699.079575) can0 18F005F8#7DFFFF7DFFFFFFFF
(1785789699.082270) can0 18F015F1#00004640477E4557
(1785789699.138198) can0 18FF09D1#01000A00D5E0E3
(1785789699.153260) can0 1CECFFF1#20120003FF19F000
(1785789699.154212) can0 1CEBFFF1#0127100000000000
(1785789699.155222) can0 1CEBFFF1#0200000000000000
(1785789699.156205) can0 1CEBFFF1#03FFF16275FFFFFF
(1785789699.178084) can0 18FEF1F8#FF0000FFFFFFFFFF
(1785789699.179282) can0 18F005F8#7DFFFF7DFFFFFFFF
(1785789699.183215) can0 18F015F1#00004640477E4556
(1785789699.238278) can0 18FF09D1#01000A00D50CE5
(1785789699.238654) can0 18FF14D1#
(1785789699.253240) can0 1CECFFF1#20120003FF19F000
(1785789699.254226) can0 1CEBFFF1#0127100000000000
(1785789699.255232) can0 1CEBFFF1#0200000000000000
(1785789699.256216) can0 1CEBFFF1#03FFF16275FFFFFF
(1785789699.278105) can0 18FEF1F8#FF0000FFFFFFFFFF
(1785789699.279317) can0 18F005F8#7DFFFF7DFFFFFFFF
(1785789699.282237) can0 18F015F1#00004640477F4557
(1785789699.338366) can0 18FF09D1#01000A00D50CE5
(1785789699.353321) can0 1CECFFF1#20120003FF19F000
(1785789699.354229) can0 1CEBFFF1#0127100000000000
(1785789699.355233) can0 1CEBFFF1#0200000000000000
(1785789699.356218) can0 1CEBFFF1#03FFF16275FFFFFF
(1785789699.378023) can0 18FEF1F8#FF0000FFFFFFFFFF
(1785789699.379160) can0 18F005F8#7DFFFF7DFFFFFFFF
(1785789699.382189) can0 18F015F1#00004640477E4557
(1785789699.438219) can0 18FF09D1#01000A00D50CE5
(1785789699.453470) can0 1CECFFF1#20120003FF19F000
(1785789699.454274) can0 1CEBFFF1#0127100000000000
(1785789699.455300) can0 1CEBFFF1#0200000000000000
(1785789699.456312) can0 1CEBFFF1#03FFF0A2B4FFFFFF
(1785789699.478071) can0 18FEF1F8#FF0000FFFFFFFFFF
(1785789699.479275) can0 18F005F8#7DFFFF7DFFFFFFFF
(1785789699.482208) can0 18F015F1#00004640477E4557
(1785789699.538181) can0 18FF09D1#01000A00D50CE5
(1785789699.554249) can0 1CECFFF1#20120003FF19F000
(1785789699.555227) can0 1CEBFFF1#0127100000000000
(1785789699.556245) can0 1CEBFFF1#0200000000000000
(1785789699.557223) can0 1CEBFFF1#03FFF16275FFFFFF
(1785789699.578027) can0 18FEF1F8#FF0000FFFFFFFFFF
(1785789699.579216) can0 18F005F8#7DFFFF7DFFFFFFFF
(1785789699.583215) can0 18F015F1#0000463F477F4557
(1785789699.638425) can0 18FF09D1#01000A00D50CE5
(1785789699.654496) can0 1CECFFF1#20120003FF19F000
(1785789699.655243) can0 1CEBFFF1#0127100000000000
(1785789699.656249) can0 1CEBFFF1#0200000000000000
(1785789699.657222) can0 1CEBFFF1#03FFF16275FFFFFF
(1785789699.678389) can0 18FEF1F8#FF0000FFFFFFFFFF
(1785789699.679601) can0 18F005F8#7DFFFF7DFFFFFFFF
(1785789699.683353) can0 18F015F1#00004640477E4557
(1785789699.693315) can0 18F017F1#FABAFDEC9BB4
(1785789699.693696) can0 18F018F1#F5D3F726922F
(1785789699.738344) can0 18FF09D1#01000A00D570E5
(1785789699.738907) can0 18FF14D1#
(1785789699.754237) can0 1CECFFF1#20120003FF19F000
(1785789699.755214) can0 1CEBFFF1#0127100000000000
(1785789699.756233) can0 1CEBFFF1#0200000000000000
(1785789699.757199) can0 1CEBFFF1#03FFF0A2B4FFFFFF
(1785789699.778093) can0 18FEF1F8#FF0000FFFFFFFFFF
(1785789699.779270) can0 18F005F8#7DFFFF7DFFFFFFFF
(1785789699.783196) can0 18F015F1#00004640477F4557
(1785789699.838161) can0 18FF09D1#01000A00D570E5
(1785789699.854238) can0 1CECFFF1#20120003FF19F000
(1785789699.855223) can0 1CEBFFF1#0127100000000000
(1785789699.856257) can0 1CEBFFF1#0200000000000000
(1785789699.857219) can0 1CEBFFF1#03FFF16275FFFFFF
(1785789699.878024) can0 18FEF1F8#FF0000FFFFFFFFFF
(1785789699.879216) can0 18F005F8#7DFFFF7DFFFFFFFF
(1785789699.883205) can0 18F015F1#0000463F477F4557
(1785789699.938231) can0 18FF09D1#01000A00D570E5
(1785789699.954352) can0 1CECFFF1#20120003FF19F000
(1785789699.955261) can0 1CEBFFF1#0127100000000000
(1785789699.956276) can0 1CEBFFF1#0200000000000000
(1785789699.957256) can0 1CEBFFF1#03FFF16275FFFFFF
(1785789699.978256) can0 18FEF1F8#FF0000FFFFFFFFFF
(1785789699.979578) can0 18F005F8#7DFFFF7DFFFFFFFF
(1785789699.983351) can0 18F015F1#00004640477E4557
(1785789700.038223) can0 18FF09D1#01000A00D570E5
(1785789700.054249) can0 1CECFFF1#20120003FF19F000
(1785789700.055223) can0 1CEBFFF1#0127100000000000
(1785789700.056250) can0 1CEBFFF1#0200000000000000
(1785789700.057203) can0 1CEBFFF1#03FFF0A2B4FFFFFF
(1785789700.078041) can0 18FEF1F8#FF0000FFFFFFFFFF
(1785789700.079182) can0 18F005F8#7DFFFF7DFFFFFFFF
(1785789700.083196) can0 18F015F1#00004640477F4556
(1785789700.138084) can0 18FF09D1#01000A00D570E5
(1785789700.154280) can0 1CECFFF1#20120003FF19F000
(1785789700.155227) can0 1CEBFFF1#0127100000000000
(1785789700.156237) can0 1CEBFFF1#0200000000000000
(1785789700.157212) can0 1CEBFFF1#03FFF16275FFFFFF
(1785789700.178034) can0 18FEF1F8#FF0000FFFFFFFFFF
(1785789700.179212) can0 18F005F8#7DFFFF7DFFFFFFFF
(1785789700.184216) can0 18F015F1#0000463F477F4556
(1785789700.238189) can0 18FF09D1#01000A00D570E5
(1785789700.238448) can0 18FF14D1#
(1785789700.254278) can0 1CECFFF1#20120003FF19F000
(1785789700.255234) can0 1CEBFFF1#0127100000000000
(1785789700.256248) can0 1CEBFFF1#0200000000000000
(1785789700.257255) can0 1CEBFFF1#03FFF0A2B4FFFFFF
(1785789700.278174) can0 18FEF1F8#FF0000FFFFFFFFFF
(1785789700.279428) can0 18F005F8#7DFFFF7DFFFFFFFF
(1785789700.284350) can0 18F015F1#0000463F477E4557
(1785789700.338289) can0 18FF09D1#01000A00D570E5
(1785789700.355259) can0 1CECFFF1#20120003FF19F000
(1785789700.356253) can0 1CEBFFF1#0127100000000000
(1785789700.357229) can0 1CEBFFF1#0200000000000000
(1785789700.358206) can0 1CEBFFF1#03FFF0A2B4FFFFFF
(1785789700.378055) can0 18FEF1F8#FF0000FFFFFFFFFF
(1785789700.379241) can0 18F005F8#7DFFFF7DFFFFFFFF
(1785789700.384225) can0 18F015F1#00004640477F4556
(1785789700.441496) can0 18FF09D1#01000A00D570E5
(1785789700.455342) can0 1CECFFF1#20120003FF19F000
(1785789700.456256) can0 1CEBFFF1#0127100000000000
(1785789700.457330) can0 1CEBFFF1#0200000000000000
(1785789700.458281) can0 1CEBFFF1#03FFF16275FFFFFF
(1785789700.478579) can0 18FEF1F8#FF0000FFFFFFFFFF
(1785789700.479869) can0 18F005F8#7DFFFF7DFFFFFFFF
(1785789700.484255) can0 18F015F1#0000463F477F4557
(1785789700.538176) can0 18FF09D1#01000A00D570E5
(1785789700.555300) can0 1CECFFF1#20120003FF19F000
(1785789700.556250) can0 1CEBFFF1#0127100000000000
(1785789700.557253) can0 1CEBFFF1#0200000000000000
(1785789700.558214) can0 1CEBFFF1#03FFF16275FFFFFF
(1785789700.578025) can0 18FEF1F8#FF0000FFFFFFFFFF
(1785789700.579164) can0 18F005F8#7DFFFF7DFFFFFFFF
(1785789700.584212) can0 18F015F1#00004640477E4556
(1785789700.638341) can0 18FF09D1#01000A00D570E5
(1785789700.655286) can0 1CECFFF1#20120003FF19F000
(1785789700.656265) can0 1CEBFFF1#0127100000000000
(1785789700.657247) can0 1CEBFFF1#0200000000000000
(1785789700.658229) can0 1CEBFFF1#03FFF16275FFFFFF
(1785789700.678149) can0 18FEF1F8#FF0000FFFFFFFFFF
(1785789700.679389) can0 18F005F8#7DFFFF7DFFFFFFFF
(1785789700.685228) can0 18F015F1#00004640477F4556
(1785789700.694315) can0 18F017F1#FABAFDEC9BB4
(1785789700.694634) can0 18F018F1#F5D3F726922F
(1785789700.738410) can0 18FF09D1#01000A00D570E5
(1785789700.738951) can0 18FF14D1#
(1785789700.755401) can0 1CECFFF1#20120003FF19F000
(1785789700.756311) can0 1CEBFFF1#0127100000000000
(1785789700.757235) can0 1CEBFFF1#0200000000000000
(1785789700.758229) can0 1CEBFFF1#03FFF16275FFFFFF
(1785789700.778100) can0 18FEF1F8#FF0000FFFFFFFFFF
(1785789700.779280) can0 18F005F8#7DFFFF7DFFFFFFFF
(1785789700.784228) can0 18F015F1#00004640477F4556
(1785789700.838135) can0 18FF09D1#01000A00D570E5
(1785789700.855257) can0 1CECFFF1#20120003FF19F000
(1785789700.856240) can0 1CEBFFF1#0127100000000000
(1785789700.857275) can0 1CEBFFF1#0200000000000000
(1785789700.858217) can0 1CEBFFF1#03FFF16275FFFFFF
(1785789700.878033) can0 18FEF1F8#FF0000FFFFFFFFFF
(1785789700.879205) can0 18F005F8#7DFFFF7DFFFFFFFF
(1785789700.884226) can0 18F015F1#00004640477E4556
(1785789700.938116) can0 18FF09D1#01000A00D570E5
(1785789700.956370) can0 1CECFFF1#20120003FF19F000
(1785789700.957247) can0 1CEBFFF1#0127100000000000
(1785789700.958275) can0 1CEBFFF1#0200000000000000
(1785789700.959282) can0 1CEBFFF1#03FFF16275FFFFFF
(1785789700.978160) can0 18FEF1F8#FF0000FFFFFFFFFF
(1785789700.979379) can0 18F005F8#7DFFFF7DFFFFFFFF
(1785789700.986669) can0 18F015F1#00004640477F4557
(1785789701.038476) can0 18FF09D1#01000A00D570E5
(1785789701.056508) can0 1CECFFF1#20120003FF19F000
(1785789701.057286) can0 1CEBFFF1#0127100000000000
(1785789701.058313) can0 1CEBFFF1#0200000000000000
(1785789701.059306) can0 1CEBFFF1#03FFF16275FFFFFF
(1785789701.078436) can0 18FEF1F8#FF0000FFFFFFFFFF
(1785789701.079868) can0 18F005F8#7DFFFF7DFFFFFFFF
(1785789701.085236) can0 18F015F1#00004640477F4556
(1785789701.138139) can0 18FF09D1#01000A00D570E5
(1785789701.156297) can0 1CECFFF1#20120003FF19F000
(1785789701.157235) can0 1CEBFFF1#0127100000000000
(1785789701.158243) can0 1CEBFFF1#0200000000000000
(1785789701.159216) can0 1CEBFFF1#03FFF0A2B4FFFFFF
(1785789701.178057) can0 18FEF1F8#FF0000FFFFFFFFFF
(1785789701.179188) can0 18F005F8#7DFFFF7DFFFFFFFF
(1785789701.185233) can0 18F015F1#00004640477F4556
(1785789701.238236) can0 18FF09D1#01000A00D570E5
(1785789701.238619) can0 18FF14D1#
(1785789701.256269) can0 1CECFFF1#20120003FF19F000
(1785789701.257238) can0 1CEBFFF1#0127100000000000
(1785789701.258249) can0 1CEBFFF1#0200000000000000
(1785789701.259226) can0 1CEBFFF1#03FFF16275FFFFFF
(1785789701.278144) can0 18FEF1F8#FF0000FFFFFFFFFF
(1785789701.279371) can0 18F005F8#7DFFFF7DFFFFFFFF
(1785789701.285334) can0 18F015F1#00004640477F4556
(1785789701.338320) can0 18FF09D1#01000A00D570E5
(1785789701.356274) can0 1CECFFF1#20120003FF19F000
(1785789701.357249) can0 1CEBFFF1#0127100000000000
(1785789701.358249) can0 1CEBFFF1#0200000000000000
(1785789701.359229) can0 1CEBFFF1#03FFF16275FFFFFF
(1785789701.378010) can0 18FEF1F8#FF0000FFFFFFFFFF
(1785789701.379123) can0 18F005F8#7DFFFF7DFFFFFFFF
(1785789701.385212) can0 18F015F1#00004640477F4557
(1785789701.439900) can0 18FF09D1#01000A00D570E5
(1785789701.456550) can0 1CECFFF1#20120003FF19F000
(1785789701.457264) can0 1CEBFFF1#0127100000000000
(1785789701.458298) can0 1CEBFFF1#0200000000000000
(1785789701.459292) can0 1CEBFFF1#03FFF16275FFFFFF
(1785789701.478063) can0 18FEF1F8#FF0000FFFFFFFFFF
(1785789701.479187) can0 18F005F8#7DFFFF7DFFFFFFFF
(1785789701.486243) can0 18F015F1#00004640477F4556
(1785789701.538100) can0 18FF09D1#01000A00D570E5
(1785789701.556264) can0 1CECFFF1#20120003FF19F000
(1785789701.557237) can0 1CEBFFF1#0127100000000000
(1785789701.558251) can0 1CEBFFF1#0200000000000000
(1785789701.559229) can0 1CEBFFF1#03FFF16275FFFFFF
(1785789701.578029) can0 18FEF1F8#FF0000FFFFFFFFFF
(1785789701.579220) can0 18F005F8#7DFFFF7DFFFFFFFF
(1785789701.585225) can0 18F015F1#00004640477F4556
(1785789701.638220) can0 18FF09D1#01000A00D570E5
(1785789701.656380) can0 1CECFFF1#20120003FF19F000
(1785789701.657272) can0 1CEBFFF1#0127100000000000
(1785789701.658300) can0 1CEBFFF1#0200000000000000
(1785789701.659268) can0 1CEBFFF1#03FFF16275FFFFFF
(1785789701.678947) can0 18FEF1F8#FF0000FFFFFFFFFF
(1785789701.680502) can0 18F005F8#7DFFFF7DFFFFFFFF
(1785789701.686382) can0 18F015F1#00004640477F4556
(1785789701.696322) can0 18F017F1#F9CFFBFE9B22
(1785789701.696731) can0 18F018F1#F488F653938F
(1785789701.738166) can0 18FF09D1#01000A00D570E5
(1785789701.738481) can0 18FF14D1#
(1785789701.757251) can0 1CECFFF1#20120003FF19F000
(1785789701.758234) can0 1CEBFFF1#0127100000000000
(1785789701.759247) can0 1CEBFFF1#0200000000000000
(1785789701.760227) can0 1CEBFFF1#03FFF16275FFFFFF
(1785789701.778165) can0 18FEF1F8#FF0000FFFFFFFFFF
(1785789701.779333) can0 18F005F8#7DFFFF7DFFFFFFFF
(1785789701.786241) can0 18F015F1#00004640477F4556
(1785789701.838109) can0 18FF09D1#01000A00D570E5
(1785789701.857276) can0 1CECFFF1#20120003FF19F000
(1785789701.858242) can0 1CEBFFF1#0127100000000000
(1785789701.859251) can0 1CEBFFF1#0200000000000000
(1785789701.860237) can0 1CEBFFF1#03FFF16275FFFFFF
(1785789701.878028) can0 18FEF1F8#FF0000FFFFFFFFFF
(1785789701.879203) can0 18F005F8#7DFFFF7DFFFFFFFF
(1785789701.886240) can0 18F015F1#0000463F477F4557
(1785789701.938089) can0 18FF09D1#01000A00D570E5
(1785789701.957417) can0 1CECFFF1#20120003FF19F000
(1785789701.958267) can0 1CEBFFF1#0127100000000000
(1785789701.959282) can0 1CEBFFF1#0200000000000000
(1785789701.960265) can0 1CEBFFF1#03FFF0A2B4FFFFFF
(1785789701.978146) can0 18FEF1F8#FF0000FFFFFFFFFF
(1785789701.979388) can0 18F005F8#7DFFFF7DFFFFFFFF
(1785789701.986370) can0 18F015F1#0000463F477E4556
(1785789702.038103) can0 18FF09D1#01000A00D570E5
(1785789702.057276) can0 1CECFFF1#20120003FF19F000
(1785789702.058242) can0 1CEBFFF1#0127100000000000
(1785789702.059247) can0 1CEBFFF1#0200000000000000
(1785789702.060235) can0 1CEBFFF1#03FFF0A2B4FFFFFF
(1785789702.078083) can0 18FEF1F8#FF0000FFFFFFFFFF
(1785789702.079244) can0 18F005F8#7DFFFF7DFFFFFFFF
(1785789702.086243) can0 18F015F1#00004640477F4556
(1785789702.138118) can0 18FF09D1#01000A00D570E5
(1785789702.157298) can0 1CECFFF1#20120003FF19F000
(1785789702.158237) can0 1CEBFFF1#0127100000000000
(1785789702.159252) can0 1CEBFFF1#0200000000000000
(1785789702.160231) can0 1CEBFFF1#03FFF16275FFFFFF
(1785789702.178050) can0 18FEF1F8#FF0000FFFFFFFFFF
(1785789702.179186) can0 18F005F8#7DFFFF7DFFFFFFFF
(1785789702.187251) can0 18F015F1#00004640477F4557
(1785789702.238198) can0 18FF09D1#01000A00D570E5
(1785789702.238505) can0 18FF14D1#
(1785789702.257258) can0 1CECFFF1#20120003FF19F000
(1785789702.258243) can0 1CEBFFF1#0127100000000000
(1785789702.259254) can0 1CEBFFF1#0200000000000000
(1785789702.260239) can0 1CEBFFF1#03FFF16275FFFFFF
(1785789702.278037) can0 18FEF1F8#FF0000FFFFFFFFFF
(1785789702.279215) can0 18F005F8#7DFFFF7DFFFFFFFF
(1785789702.287229) can0 18F015F1#0000463F477E4556
(1785789702.338201) can0 18FF09D1#01000A00D570E5
(1785789702.357510) can0 1CECFFF1#20120003FF19F000
(1785789702.358264) can0 1CEBFFF1#0127100000000000
(1785789702.359255) can0 1CEBFFF1#0200000000000000
(1785789702.360222) can0 1CEBFFF1#03FFF0A2B4FFFFFF
(1785789702.378069) can0 18FEF1F8#FF0000FFFFFFFFFF
(1785789702.379198) can0 18F005F8#7DFFFF7DFFFFFFFF
(1785789702.386226) can0 18F015F1#00004640477F4556
(1785789702.438406) can0 18FF09D1#01000A00D570E5
(1785789702.458412) can0 1CECFFF1#20120003FF19F000
(1785789702.459268) can0 1CEBFFF1#0127100000000000
(1785789702.460258) can0 1CEBFFF1#0200000000000000
(1785789702.461294) can0 1CEBFFF1#03FFF16275FFFFFF
(1785789702.478108) can0 18FEF1F8#FF0000FFFFFFFFFF
(1785789702.479298) can0 18F005F8#7DFFFF7DFFFFFFFF
(1785789702.487253) can0 18F015F1#0000463F477F4556
(1785789702.538048) can0 18FF09D1#01000A00D570E5
(1785789702.558297) can0 1CECFFF1#20120003FF19F000
(1785789702.559245) can0 1CEBFFF1#0127100000000000
(1785789702.560277) can0 1CEBFFF1#0200000000000000
(1785789702.561258) can0 1CEBFFF1#03FFF0A2B4FFFFFF
(1785789702.578060) can0 18FEF1F8#FF0000FFFFFFFFFF
(1785789702.579175) can0 18F005F8#7DFFFF7DFFFFFFFF
(1785789702.587235) can0 18F015F1#0000463F477F4556
(1785789702.638140) can0 18FF09D1#01000A00D570E5
(1785789702.658345) can0 1CECFFF1#20120003FF19F000
(1785789702.659266) can0 1CEBFFF1#0127100000000000
(1785789702.660276) can0 1CEBFFF1#0200000000000000
(1785789702.661267) can0 1CEBFFF1#03FFF0A2B4FFFFFF
(1785789702.678142) can0 18FEF1F8#FF0000FFFFFFFFFF
(1785789702.679308) can0 18F005F8#7DFFFF7DFFFFFFFF
(1785789702.687435) can0 18F015F1#0000463F477F4556
(1785789702.697302) can0 18F017F1#F9CFFBFE9B22
(1785789702.697770) can0 18F018F1#F488F653938F
(1785789702.738338) can0 18FF09D1#01000A00D570E5
(1785789702.739020) can0 18FF14D1#
(1785789702.758289) can0 1CECFFF1#20120003FF19F000
(1785789702.759245) can0 1CEBFFF1#0127100000000000
(1785789702.760261) can0 1CEBFFF1#0200000000000000
(1785789702.761230) can0 1CEBFFF1#03FFF0A2B4FFFFFF
(1785789702.778056) can0 18FEF1F8#FF0000FFFFFFFFFF
(1785789702.779197) can0 18F005F8#7DFFFF7DFFFFFFFF
(1785789702.787267) can0 18F015F1#0000463F477F4556
(1785789702.838066) can0 18FF09D1#01000A00D570E5
(1785789702.858265) can0 1CECFFF1#20120003FF19F000
(1785789702.859260) can0 1CEBFFF1#0127100000000000
(1785789702.860272) can0 1CEBFFF1#0200000000000000
(1785789702.861241) can0 1CEBFFF1#03FFF0A2B4FFFFFF
(1785789702.878065) can0 18FEF1F8#FF0000FFFFFFFFFF
(1785789702.883375) can0 18F005F8#7DFFFF7DFFFFFFFF
(1785789702.887236) can0 18F015F1#0000463F477F4556
(1785789702.937991) can0 18FF09D1#01000A00D570E5
(1785789702.958276) can0 1CECFFF1#20120003FF19F000
(1785789702.959256) can0 1CEBFFF1#0127100000000000
(1785789702.960270) can0 1CEBFFF1#0200000000000000
(1785789702.961245) can0 1CEBFFF1#03FFF0A2B4FFFFFF
(1785789702.978139) can0 18FEF1F8#FF0000FFFFFFFFFF
(1785789702.979393) can0 18F005F8#7DFFFF7DFFFFFFFF
(1785789702.987380) can0 18F015F1#0000463F477F4556
(1785789703.038462) can0 18FF09D1#01000A00D570E5
(1785789703.058485) can0 1CECFFF1#20120003FF19F000
(1785789703.059283) can0 1CEBFFF1#0127100000000000
(1785789703.060276) can0 1CEBFFF1#0200000000000000
(1785789703.061264) can0 1CEBFFF1#03FFF0A2B4FFFFFF
(1785789703.078349) can0 18FEF1F8#FF0000FFFFFFFFFF
(1785789703.079726) can0 18F005F8#7DFFFF7DFFFFFFFF
(1785789703.087341) can0 18F015F1#0000463F477F4556
(1785789703.138100) can0 18FF09D1#01000A00D570E5
(1785789703.158310) can0 1CECFFF1#20120003FF19F000
(1785789703.159244) can0 1CEBFFF1#0127100000000000
(1785789703.160254) can0 1CEBFFF1#0200000000000000
(1785789703.161232) can0 1CEBFFF1#03FFF0A2B4FFFFFF
(1785789703.178033) can0 18FEF1F8#FF0000FFFFFFFFFF
(1785789703.179214) can0 18F005F8#7DFFFF7DFFFFFFFF
(1785789703.188246) can0 18F015F1#0000463F477F4556
(1785789703.238225) can0 18FF09D1#01000A00D570E5
(1785789703.238623) can0 18FF14D1#
(1785789703.238887) can0 18FF16D1#01000A0064
(1785789703.259301) can0 1CECFFF1#20120003FF19F000
(1785789703.260259) can0 1CEBFFF1#0127100000000000
(1785789703.261260) can0 1CEBFFF1#0200000000000000
(1785789703.262242) can0 1CEBFFF1#03FFF0A2B4FFFFFF
(1785789703.278049) can0 18FEF1F8#FF0000FFFFFFFFFF
(1785789703.279206) can0 18F005F8#7DFFFF7DFFFFFFFF
(1785789703.288239) can0 18F015F1#0000463F477F4556
(1785789703.338127) can0 18FF09D1#01000A00D570E5
(1785789703.359473) can0 1CECFFF1#20120003FF19F000
(1785789703.360279) can0 1CEBFFF1#0127100000000000
(1785789703.361308) can0 1CEBFFF1#0200000000000000
(1785789703.362253) can0 1CEBFFF1#03FFF0A2B4FFFFFF
(1785789703.378113) can0 18FEF1F8#FF0000FFFFFFFFFF
(1785789703.379307) can0 18F005F8#7DFFFF7DFFFFFFFF
(1785789703.388299) can0 18F015F1#0000463F477F4556
(1785789703.438221) can0 18FF09D1#01000A00D570E5
(1785789703.459388) can0 1CECFFF1#20120003FF19F000
(1785789703.460262) can0 1CEBFFF1#0127100000000000
(1785789703.461266) can0 1CEBFFF1#0200000000000000
(1785789703.462231) can0 1CEBFFF1#03FFF0A2B4FFFFFF
(1785789703.478125) can0 18FEF1F8#FF0000FFFFFFFFFF
(1785789703.479304) can0 18F005F8#7DFFFF7DFFFFFFFF
(1785789703.488249) can0 18F015F1#0000463F477E4556
(1785789703.538045) can0 18FF09D1#01000A00D570E5
(1785789703.559283) can0 1CECFFF1#20120003FF19F000
(1785789703.560258) can0 1CEBFFF1#0127100000000000
(1785789703.561267) can0 1CEBFFF1#0200000000000000
(1785789703.562241) can0 1CEBFFF1#03FFF0A2B4FFFFFF
(1785789703.578022) can0 18FEF1F8#FF0000FFFFFFFFFF
(1785789703.579168) can0 18F005F8#7DFFFF7DFFFFFFFF
(1785789703.588246) can0 18F015F1#0000463F477F4556
(1785789703.638206) can0 18FF09D1#01000A00D570E5
(1785789703.659459) can0 1CECFFF1#20120003FF19F000
(1785789703.660280) can0 1CEBFFF1#0127100000000000
(1785789703.661563) can0 1CEBFFF1#0200000000000000
(1785789703.662269) can0 1CEBFFF1#03FFF0A2B4FFFFFF
(1785789703.678169) can0 18FEF1F8#FF0000FFFFFFFFFF
(1785789703.679371) can0 18F005F8#7DFFFF7DFFFFFFFF
(1785789703.689368) can0 18F015F1#0000463F477F4556
(1785789703.698336) can0 18F017F1#FAD0FC6B9C6A
(1785789703.698661) can0 18F018F1#F511F6B7922E
(1785789703.738938) can0 18FF09D1#01000A00D5E0E3
(1785789703.739308) can0 18FF14D1#
(1785789703.759282) can0 1CECFFF1#20120003FF19F000
(1785789703.760248) can0 1CEBFFF1#0127100000000000
(1785789703.761258) can0 1CEBFFF1#0200000000000000
(1785789703.762234) can0 1CEBFFF1#03FFF0A2B4FFFFFF
(1785789703.778056) can0 18FEF1F8#FF0000FFFFFFFFFF
(1785789703.779175) can0 18F005F8#7DFFFF7DFFFFFFFF
(1785789703.788277) can0 18F015F1#0000463F477F4556
(1785789703.838075) can0 18FF09D1#01000A00D5E0E3
(1785789703.860287) can0 1CECFFF1#20120003FF19F000
(1785789703.861253) can0 1CEBFFF1#0127100000000000
(1785789703.862272) can0 1CEBFFF1#0200000000000000
(1785789703.863244) can0 1CEBFFF1#03FFF0A2B4FFFFFF
(1785789703.878034) can0 18FEF1F8#FF0000FFFFFFFFFF
(1785789703.879167) can0 18F005F8#7DFFFF7DFFFFFFFF
(1785789703.889242) can0 18F015F1#0000463F477F4556
(1785789703.938035) can0 18FF09D1#01000A00D5E0E3
(1785789703.960277) can0 1CECFFF1#20120003FF19F000
(1785789703.961256) can0 1CEBFFF1#0127100000000000
(1785789703.962266) can0 1CEBFFF1#0200000000000000
(1785789703.963244) can0 1CEBFFF1#03FFF0A2B4FFFFFF
(1785789703.978120) can0 18FEF1F8#FF0000FFFFFFFFFF
(1785789703.979350) can0 18F005F8#7DFFFF7DFFFFFFFF
(1785789703.989383) can0 18F015F1#0000463F477F4557
(1785789704.038327) can0 18FF09D1#01000A00D5E0E3
(1785789704.060384) can0 1CECFFF1#20120003FF19F000
(1785789704.061265) can0 1CEBFFF1#0127100000000000
(1785789704.062266) can0 1CEBFFF1#0200000000000000
(1785789704.063238) can0 1CEBFFF1#03FFF0A2B4FFFFFF
(1785789704.078031) can0 18FEF1F8#FF0000FFFFFFFFFF
(1785789704.079138) can0 18F005F8#7DFFFF7DFFFFFFFF
(1785789704.089293) can0 18F015F1#0000463F477F4556
(1785789704.138073) can0 18FF09D1#01000A00D5E0E3
(1785789704.160314) can0 1CECFFF1#20120003FF19F000
(1785789704.161264) can0 1CEBFFF1#0127100000000000
(1785789704.162289) can0 1CEBFFF1#0200000000000000
(1785789704.163252) can0 1CEBFFF1#03FFF0A2B4FFFFFF
(1785789704.178037) can0 18FEF1F8#FF0000FFFFFFFFFF
(1785789704.179208) can0 18F005F8#7DFFFF7DFFFFFFFF
(1785789704.189266) can0 18F015F1#0000463F477F4557
(1785789704.238063) can0 18FF09D1#01000A00D5E0E3
(1785789704.238322) can0 18FF14D1#
(1785789704.260279) can0 1CECFFF1#20120003FF19F000
(1785789704.261264) can0 1CEBFFF1#0127100000000000
(1785789704.262271) can0 1CEBFFF1#0200000000000000
(1785789704.263243) can0 1CEBFFF1#03FFF0A2B4FFFFFF
(1785789704.278010) can0 18FEF1F8#FF0000FFFFFFFFFF
(1785789704.279154) can0 18F005F8#7DFFFF7DFFFFFFFF
(1785789704.289252) can0 18F015F1#0000463F477F4557
(1785789704.338088) can0 18FF09D1#01000A00D5E0E3
(1785789704.360382) can0 1CECFFF1#20120003FF19F000
(1785789704.361273) can0 1CEBFFF1#0127100000000000
(1785789704.362349) can0 1CEBFFF1#0200000000000000
(1785789704.363247) can0 1CEBFFF1#03FFF0A2B4FFFFFF
(1785789704.378267) can0 18FEF1F8#FF0000FFFFFFFFFF
(1785789704.379431) can0 18F005F8#7DFFFF7DFFFFFFFF
(1785789704.389250) can0 18F015F1#0000463F477F4556
(1785789704.438473) can0 18FF09D1#01000A00D5E0E3
(1785789704.460450) can0 1CECFFF1#20120003FF19F000
(1785789704.461288) can0 1CEBFFF1#0127100000000000
(1785789704.462278) can0 1CEBFFF1#0200000000000000
(1785789704.463242) can0 1CEBFFF1#03FFF0A2B4FFFFFF
(1785789704.478363) can0 18FEF1F8#FF0000FFFFFFFFFF
(1785789704.479513) can0 18F005F8#7DFFFF7DFFFFFFFF
(1785789704.489275) can0 18F015F1#0000463F477F4556
(1785789704.537967) can0 18FF09D1#01000A00D5E0E3
(1785789704.560295) can0 1CECFFF1#20120003FF19F000
(1785789704.561269) can0 1CEBFFF1#0127100000000000
(1785789704.562277) can0 1CEBFFF1#0200000000000000
(1785789704.563251) can0 1CEBFFF1#03FFF0A2B4FFFFFF
(1785789704.578039) can0 18FEF1F8#FF0000FFFFFFFFFF
(1785789704.579186) can0 18F005F8#7DFFFF7DFFFFFFFF
(1785789704.590261) can0 18F015F1#0000463F477F4556
(1785789704.638109) can0 18FF09D1#01000A00D5E0E3
(1785789704.661449) can0 1CECFFF1#20120003FF19F000
(1785789704.662277) can0 1CEBFFF1#0127100000000000
(1785789704.663282) can0 1CEBFFF1#0200000000000000
(1785789704.664256) can0 1CEBFFF1#03FFF0A2B4FFFFFF
(1785789704.678177) can0 18FEF1F8#FF0000FFFFFFFFFF
(1785789704.679326) can0 18F005F8#7DFFFF7DFFFFFFFF
(1785789704.690432) can0 18F015F1#0000463F477F4556
(1785789704.700260) can0 18F017F1#FAD0FC6B9C6A
(1785789704.700708) can0 18F018F1#F511F6B7922E
(1785789704.738595) can0 18FF09D1#01000A00D50CE5
(1785789704.739086) can0 18FF14D1#
(1785789704.761379) can0 1CECFFF1#20120003FF19F000
(1785789704.762270) can0 1CEBFFF1#0127100000000000
(1785789704.763268) can0 1CEBFFF1#0200000000000000
(1785789704.764243) can0 1CEBFFF1#03FFF0A2B4FFFFFF
(1785789704.778295) can0 18FEF1F8#FF0000FFFFFFFFFF
(1785789704.779468) can0 18F005F8#7DFFFF7DFFFFFFFF
(1785789704.790274) can0 18F015F1#0000463F477F4557
(1785789704.838016) can0 18FF09D1#01000A00D50CE5
(1785789704.861348) can0 1CECFFF1#20120003FF19F000
(1785789704.862283) can0 1CEBFFF1#0127100000000000
(1785789704.863300) can0 1CEBFFF1#0200000000000000
(1785789704.864282) can0 1CEBFFF1#03FFF0A2B4FFFFFF
(1785789704.878110) can0 18FEF1F8#FF0000FFFFFFFFFF
(1785789704.879271) can0 18F005F8#7DFFFF7DFFFFFFFF
(1785789704.890287) can0 18F015F1#0000463E477F4556
(1785789704.938040) can0 18FF09D1#01000A00D50CE5
(1785789704.961327) can0 1CECFFF1#20120003FF19F000
(1785789704.962269) can0 1CEBFFF1#0127100000000000
(1785789704.963298) can0 1CEBFFF1#0200000000000000
(1785789704.964264) can0 1CEBFFF1#03FFEF6AF5FFFFFF
(1785789704.978049) can0 18FEF1F8#FF0000FFFFFFFFFF
(1785789704.979178) can0 18F005F8#7DFFFF7DFFFFFFFF
(1785789704.990263) can0 18F015F1#0000463F477F4556
(1785789705.038235) can0 18FF09D1#01000A00D50CE5
(1785789705.061941) can0 1CECFFF1#20120003FF19F000
(1785789705.062385) can0 1CEBFFF1#0127100000000000
(1785789705.063432) can0 1CEBFFF1#0200000000000000
(1785789705.064389) can0 1CEBFFF1#03FFF0A2B4FFFFFF
(1785789705.078289) can0 18FEF1F8#FF0000FFFFFFFFFF
(1785789705.079516) can0 18F005F8#7DFFFF7DFFFFFFFF
(1785789705.090535) can0 18F015F1#0000463F477F4557
(1785789705.138058) can0 18FF09D1#01000A00D50CE5
(1785789705.161331) can0 1CECFFF1#20120003FF19F000
(1785789705.162304) can0 1CEBFFF1#0127100000000000
(1785789705.163271) can0 1CEBFFF1#0200000000000000
(1785789705.164246) can0 1CEBFFF1#03FFF0A2B4FFFFFF
(1785789705.178063) can0 18FEF1F8#FF0000FFFFFFFFFF
(1785789705.179211) can0 18F005F8#7DFFFF7DFFFFFFFF
(1785789705.191275) can0 18F015F1#0000463E477F4557
(1785789705.238345) can0 18FF09D1#01000A00D50CE5
(1785789705.238709) can0 18FF14D1#
(1785789705.261300) can0 1CECFFF1#20120003FF19F000
(1785789705.262261) can0 1CEBFFF1#0127100000000000
(1785789705.263272) can0 1CEBFFF1#0200000000000000
(1785789705.264263) can0 1CEBFFF1#03FFEF6AF5FFFFFF
(1785789705.278029) can0 18FEF1F8#FF0000FFFFFFFFFF
(1785789705.279168) can0 18F005F8#7DFFFF7DFFFFFFFF
(1785789705.290255) can0 18F015F1#0000463F477F4556
(1785789705.338060) can0 18FF09D1#01000A00D50CE5
(1785789705.362622) can0 1CECFFF1#20120003FF19F000
(1785789705.363281) can0 1CEBFFF1#0127100000000000
(1785789705.364273) can0 1CEBFFF1#0200000000000000
(1785789705.365248) can0 1CEBFFF1#03FFF0A2B4FFFFFF
(1785789705.378205) can0 18FEF1F8#FF0000FFFFFFFFFF
(1785789705.379366) can0 18F005F8#7DFFFF7DFFFFFFFF
(1785789705.391257) can0 18F015F1#0000463E477F4557
(1785789705.438832) can0 18FF09D1#01000A00D50CE5
(1785789705.462679) can0 1CECFFF1#20120003FF19F000
(1785789705.463368) can0 1CEBFFF1#0127100000000000
(1785789705.464305) can0 1CEBFFF1#0200000000000000
(1785789705.465263) can0 1CEBFFF1#03FFEF6AF5FFFFFF
(1785789705.478435) can0 18FEF1F8#FF0000FFFFFFFFFF
(1785789705.479788) can0 18F005F8#7DFFFF7DFFFFFFFF
(1785789705.491281) can0 18F015F1#0000463E477F4557
(1785789705.537981) can0 18FF09D1#01000A00D50CE5
(1785789705.562324) can0 1CECFFF1#20120003FF19F000
(1785789705.563308) can0 1CEBFFF1#0127100000000000
(1785789705.564291) can0 1CEBFFF1#0200000000000000
(1785789705.565275) can0 1CEBFFF1#03FFEF6AF5FFFFFF
(1785789705.578042) can0 18FEF1F8#FF0000FFFFFFFFFF
(1785789705.579182) can0 18F005F8#7DFFFF7DFFFFFFFF
(1785789705.591254) can0 18F015F1#0000463F477F4556
(1785789705.638126) can0 18FF09D1#01000A00D50CE5
(1785789705.662450) can0 1CECFFF1#20120003FF19F000
(1785789705.663283) can0 1CEBFFF1#0127100000000000
(1785789705.664298) can0 1CEBFFF1#0200000000000000
(1785789705.665273) can0 1CEBFFF1#03FFF0A2B4FFFFFF
(1785789705.678216) can0 18FEF1F8#FF0000FFFFFFFFFF
(1785789705.679435) can0 18F005F8#7DFFFF7DFFFFFFFF
(1785789705.692402) can0 18F015F1#0000463E477F4557
(1785789705.701403) can0 18F017F1#FA77FD8E9B34
(1785789705.701813) can0 18F018F1#F63EF76E9308
(1785789705.738334) can0 18FF09D1#01000A00D50CE5
(1785789705.739238) can0 18FF14D1#
(1785789705.762345) can0 1CECFFF1#20120003FF19F000
(1785789705.763273) can0 1CEBFFF1#0127100000000000
(1785789705.764283) can0 1CEBFFF1#0200000000000000
(1785789705.765266) can0 1CEBFFF1#03FFEF6AF5FFFFFF
(1785789705.778061) can0 18FEF1F8#FF0000FFFFFFFFFF
(1785789705.779197) can0 18F005F8#7DFFFF7DFFFFFFFF
(1785789705.791263) can0 18F015F1#0000463E477F4557
(1785789705.838019) can0 18FF09D1#01000A00D5D4E5
(1785789705.862309) can0 1CECFFF1#20120003FF19F000
(1785789705.863275) can0 1CEBFFF1#0127100000000000
(1785789705.864287) can0 1CEBFFF1#0200000000000000
(1785789705.865267) can0 1CEBFFF1#03FFEF6AF5FFFFFF
(1785789705.878043) can0 18FEF1F8#FF0000FFFFFFFFFF
(1785789705.879229) can0 18F005F8#7DFFFF7DFFFFFFFF
(1785789705.891269) can0 18F015F1#0000463F477F4556
(1785789705.937993) can0 18FF09D1#01000A00D5D4E5
(1785789705.962293) can0 1CECFFF1#20120003FF19F000
(1785789705.963276) can0 1CEBFFF1#0127100000000000
(1785789705.964290) can0 1CEBFFF1#0200000000000000
(1785789705.965265) can0 1CEBFFF1#03FFF0A2B4FFFFFF
(1785789705.978222) can0 18FEF1F8#FF0000FFFFFFFFFF
(1785789705.979479) can0 18F005F8#7DFFFF7DFFFFFFFF
(1785789705.991392) can0 18F015F1#0000463E477F4557
(1785789706.038070) can0 18FF09D1#01000A00D5D4E5
(1785789706.062469) can0 1CECFFF1#20120003FF19F000
(1785789706.063281) can0 1CEBFFF1#0127100000000000
