(1785794352.619372) can0 18FEF1F8#FF0000FFFFFFFFFF
(1785794352.620499) can0 18F005F8#7DFFFF7DFFFFFFFF
(1785794352.621095) can0 1CECFFF1#20120003FF19F000
(1785794352.621752) can0 1CEBFFF1#01000B0000000000
(1785794352.622747) can0 1CEBFFF1#0200000000000000
(1785794352.623723) can0 1CEBFFF1#0300EF7BB4FFFFFF
(1785794352.649796) can0 18F015F1#0000473F495D46DD
(1785794352.679037) can0 18FF09D1#01000B00D3E2EB
(1785794352.679301) can0 18FF14D1#
(1785794352.719621) can0 18FEF1F8#FF0000FFFFFFFFFF
(1785794352.720869) can0 18F005F8#7DFFFF7DFFFFFFFF
(1785794352.721895) can0 1CECFFF1#20120003FF19F000
(1785794352.722373) can0 18ECFFFF#20100003FF13FF00
(1785794352.723006) can0 1CEBFFF1#01000B0000000000
(1785794352.723534) can0 18EBFFFF#0100330F4871F410
(1785794352.724190) can0 1CEBFFF1#0200000000000000
(1785794352.724699) can0 18EBFFFF#024CA96400000000
(1785794352.725358) can0 1CEBFFF1#0300EF7BB4FFFFFF
(1785794352.725875) can0 18EBFFFF#03010BFFFFFFFFFF
(1785794352.750788) can0 18F015F1#0000473E495D46DD
(1785794352.778979) can0 18FF09D1#01000B00D3E2EB
(1785794352.819415) can0 18FEF1F8#FF0000FFFFFFFFFF
(1785794352.820613) can0 18F005F8#7DFFFF7DFFFFFFFF
(1785794352.821765) can0 1CECFFF1#20120003FF19F000
(1785794352.822786) can0 1CEBFFF1#01000B0000000000
(1785794352.823780) can0 1CEBFFF1#0200000000000000
(1785794352.824747) can0 1CEBFFF1#0300EF7BB4FFFFFF
(1785794352.850803) can0 18F015F1#0000473F495E46DE
(1785794352.878996) can0 18FF09D1#01000B00D3E2EB
(1785794352.919819) can0 18FEF1F8#FF0000FFFFFFFFFF
(1785794352.921104) can0 18F005F8#7DFFFF7DFFFFFFFF
(1785794352.921750) can0 1CECFFF1#20120003FF19F000
(1785794352.922772) can0 1CEBFFF1#01000B0000000000
(1785794352.923802) can0 1CEBFFF1#0200000000000000
(1785794352.924778) can0 1CEBFFF1#0300EF7BB4FFFFFF
(1785794352.951692) can0 18F015F1#0000473F495D46DD
(1785794352.979151) can0 18FF09D1#01000B00D3E2EB
(1785794353.019400) can0 18FEF1F8#FF0000FFFFFFFFFF
(1785794353.020557) can0 18F005F8#7DFFFF7DFFFFFFFF
(1785794353.021758) can0 1CECFFF1#20120003FF19F000
(1785794353.022775) can0 1CEBFFF1#01000B0000000000
(1785794353.023772) can0 1CEBFFF1#0200000000000000
(1785794353.024745) can0 1CEBFFF1#0300EF7BB4FFFFFF
(1785794353.050769) can0 18F015F1#0000473F495D46DD
(1785794353.061734) can0 18F017F1#EE4306339ABF
(1785794353.062121) can0 18F018F1#E76C021590FE
(1785794353.079013) can0 18FF09D1#01000B00D3E2EB
(1785794353.119409) can0 18FEF1F8#FF0000FFFFFFFFFF
(1785794353.120555) can0 18F005F8#7DFFFF7DFFFFFFFF
(1785794353.121758) can0 1CECFFF1#20120003FF19F000
(1785794353.122762) can0 1CEBFFF1#01000B0000000000
(1785794353.123766) can0 1CEBFFF1#0200000000000000
(1785794353.124743) can0 1CEBFFF1#0300EF7BB4FFFFFF
(1785794353.150779) can0 18F015F1#0000473F495E46DE
(1785794353.179012) can0 18FF09D1#01000B00D3E2EB
(1785794353.179383) can0 18FF14D1#
(1785794353.220265) can0 18FEF1F8#FF0000FFFFFFFFFF
(1785794353.221669) can0 18F005F8#7DFFFF7DFFFFFFFF
(1785794353.222582) can0 1CECFFF1#20120003FF19F000
(1785794353.222926) can0 1CEBFFF1#01000B0000000000
(1785794353.223297) can0 18ECFFFF#20100003FF13FF00
(1785794353.224263) can0 1CEBFFF1#0200000000000000
(1785794353.224680) can0 18EBFFFF#0100330F4871F410
(1785794353.225544) can0 1CEBFFF1#0300EF7BB4FFFFFF
(1785794353.226145) can0 18EBFFFF#024CA96400000000
(1785794353.227588) can0 18EBFFFF#03010BFFFFFFFFFF
(1785794353.250986) can0 18F015F1#0000473F495D46DD
(1785794353.279035) can0 18FF09D1#01000B00D3E2EB
(1785794353.319840) can0 18FEF1F8#FF0000FFFFFFFFFF
(1785794353.320996) can0 18F005F8#7DFFFF7DFFFFFFFF
(1785794353.322752) can0 1CECFFF1#20120003FF19F000
(1785794353.323757) can0 1CEBFFF1#01000B0000000000
(1785794353.324756) can0 1CEBFFF1#0200000000000000
(1785794353.325729) can0 1CEBFFF1#0300EF7BB4FFFFFF
(1785794353.351753) can0 18F015F1#0000473F495D46DD
(1785794353.378920) can0 18FF09D1#01000B00D3E2EB
(1785794353.419341) can0 18FEF1F8#FF0000FFFFFFFFFF
(1785794353.420503) can0 18F005F8#7DFFFF7DFFFFFFFF
(1785794353.421759) can0 1CECFFF1#20120003FF19F000
(1785794353.422766) can0 1CEBFFF1#01000B0000000000
(1785794353.423771) can0 1CEBFFF1#0200000000000000
(1785794353.424742) can0 1CEBFFF1#0300EF7BB4FFFFFF
(1785794353.452109) can0 18F015F1#0000473F495D46DD
(1785794353.478927) can0 18FF09D1#01000B00D3E2EB
(1785794353.519528) can0 18FEF1F8#FF0000FFFFFFFFFF
(1785794353.520740) can0 18F005F8#7DFFFF7DFFFFFFFF
(1785794353.523707) can0 1CECFFF1#20120003FF19F000
(1785794353.524038) can0 1CEBFFF1#01000B0000000000
(1785794353.524859) can0 1CEBFFF1#0200000000000000
(1785794353.525883) can0 1CEBFFF1#0300EF7BB4FFFFFF
(1785794353.551919) can0 18F015F1#0000473F495D46DD
(1785794353.579038) can0 18FF09D1#01000B00D3E2EB
(1785794353.619366) can0 18FEF1F8#FF0000FFFFFFFFFF
(1785794353.620497) can0 18F005F8#7DFFFF7DFFFFFFFF
(1785794353.622784) can0 1CECFFF1#20120003FF19F000
(1785794353.624015) can0 1CEBFFF1#01000B0000000000
(1785794353.625020) can0 1CEBFFF1#0200000000000000
(1785794353.625741) can0 1CEBFFF1#0300EF7BB4FFFFFF
(1785794353.652029) can0 18F015F1#0000473F495D46DE
(1785794353.678995) can0 18FF09D1#01000B00D314EC
(1785794353.679356) can0 18FF14D1#
(1785794353.719896) can0 18FEF1F8#FF0000FFFFFFFFFF
(1785794353.721128) can0 18F005F8#7DFFFF7DFFFFFFFF
(1785794353.722440) can0 18ECFFFF#20100003FF13FF00
(1785794353.723202) can0 1CECFFF1#20120003FF19F000
(1785794353.723659) can0 18EBFFFF#0100330F4871F410
(1785794353.724355) can0 1CEBFFF1#01000B0000000000
(1785794353.724878) can0 1CEBFFF1#0200000000000000
(1785794353.725385) can0 18EBFFFF#024CA96400000000
(1785794353.726143) can0 1CEBFFF1#0300EF7BB4FFFFFF
(1785794353.726551) can0 18EBFFFF#03010BFFFFFFFFFF
(1785794353.751788) can0 18F015F1#00004740495D46DE
(1785794353.778946) can0 18FF09D1#01000B00D314EC
(1785794353.819414) can0 18FEF1F8#FF0000FFFFFFFFFF
(1785794353.820563) can0 18F005F8#7DFFFF7DFFFFFFFF
(1785794353.822757) can0 1CECFFF1#20120003FF19F000
(1785794353.823799) can0 1CEBFFF1#01000B0000000000
(1785794353.824778) can0 1CEBFFF1#0200000000000000
(1785794353.825773) can0 1CEBFFF1#0300F0B3F5FFFFFF
(1785794353.851827) can0 18F015F1#00004740495D46DD
(1785794353.879046) can0 18FF09D1#01000B00D314EC
(1785794353.919661) can0 18FEF1F8#FF0000FFFFFFFFFF
(1785794353.921259) can0 18F005F8#7DFFFF7DFFFFFFFF
(1785794353.922784) can0 1CECFFF1#20120003FF19F000
(1785794353.923870) can0 1CEBFFF1#01000B0000000000
(1785794353.924811) can0 1CEBFFF1#0200000000000000
(1785794353.925774) can0 1CEBFFF1#0300F0B3F5FFFFFF
(1785794353.951803) can0 18F015F1#00004740495D46DE
(1785794353.979190) can0 18FF09D1#01000B00D314EC
(1785794354.019383) can0 18FEF1F8#FF0000FFFFFFFFFF
(1785794354.020552) can0 18F005F8#7DFFFF7DFFFFFFFF
(1785794354.022800) can0 1CECFFF1#20120003FF19F000
(1785794354.023827) can0 1CEBFFF1#01000B0000000000
(1785794354.024793) can0 1CEBFFF1#0200000000000000
(1785794354.025777) can0 1CEBFFF1#0300F0B3F5FFFFFF
(1785794354.051779) can0 18F015F1#00004740495E46DE
(1785794354.062689) can0 18F017F1#EE4306339ABF
(1785794354.063142) can0 18F018F1#E76C021590FE
(1785794354.078887) can0 18FF09D1#01000B00D314EC
(1785794354.119366) can0 18FEF1F8#FF0000FFFFFFFFFF
(1785794354.120499) can0 18F005F8#7DFFFF7DFFFFFFFF
(1785794354.123773) can0 1CECFFF1#20120003FF19F000
(1785794354.124785) can0 1CEBFFF1#01000B0000000000
(1785794354.125788) can0 1CEBFFF1#0200000000000000
(1785794354.126762) can0 1CEBFFF1#0300F0B3F5FFFFFF
(1785794354.152764) can0 18F015F1#00004740495D46DD
(1785794354.179032) can0 18FF09D1#01000B00D314EC
(1785794354.179384) can0 18FF14D1#
(1785794354.219844) can0 18FEF1F8#FF0000FFFFFFFFFF
(1785794354.221578) can0 18F005F8#7DFFFF7DFFFFFFFF
(1785794354.223922) can0 1CECFFF1#20120003FF19F000
(1785794354.224282) can0 18ECFFFF#20100003FF13FF00
(1785794354.225100) can0 1CEBFFF1#01000B0000000000
(1785794354.225527) can0 18EBFFFF#0100330F4871F410
(1785794354.226292) can0 1CEBFFF1#0200000000000000
(1785794354.226698) can0 18EBFFFF#024CA96400000000
(1785794354.227508) can0 1CEBFFF1#0300F0B3F5FFFFFF
(1785794354.227928) can0 18EBFFFF#03010BFFFFFFFFFF
(1785794354.252855) can0 18F015F1#00004740495D46DD
(1785794354.279125) can0 18FF09D1#01000B00D314EC
(1785794354.319771) can0 18FEF1F8#FF0000FFFFFFFFFF
(1785794354.321034) can0 18F005F8#7DFFFF7DFFFFFFFF
(1785794354.323779) can0 1CECFFF1#20120003FF19F000
(1785794354.324795) can0 1CEBFFF1#01000B0000000000
(1785794354.325774) can0 1CEBFFF1#0200000000000000
(1785794354.326755) can0 1CEBFFF1#0300F0B3F5FFFFFF
(1785794354.352772) can0 18F015F1#00004740495D46DE
(1785794354.378871) can0 18FF09D1#01000B00D314EC
(1785794354.419330) can0 18FEF1F8#FF0000FFFFFFFFFF
(1785794354.420499) can0 18F005F8#7DFFFF7DFFFFFFFF
(1785794354.423760) can0 1CECFFF1#20120003FF19F000
(1785794354.424779) can0 1CEBFFF1#01000B0000000000
(1785794354.425774) can0 1CEBFFF1#0200000000000000
(1785794354.426770) can0 1CEBFFF1#0300F0B3F5FFFFFF
(1785794354.452765) can0 18F015F1#00004740495D46DD
(1785794354.478894) can0 18FF09D1#01000B00D314EC
(1785794354.519658) can0 18FEF1F8#FF0000FFFFFFFFFF
(1785794354.520979) can0 18F005F8#7DFFFF7DFFFFFFFF
(1785794354.523880) can0 1CECFFF1#20120003FF19F000
(1785794354.524800) can0 1CEBFFF1#01000B0000000000
(1785794354.525802) can0 1CEBFFF1#0200000000000000
(1785794354.526780) can0 1CEBFFF1#0300F0B3F5FFFFFF
(1785794354.552960) can0 18F015F1#00004740495D46DE
(1785794354.578897) can0 18FF09D1#01000B00D314EC
(1785794354.619314) can0 18FEF1F8#FF0000FFFFFFFFFF
(1785794354.620445) can0 18F005F8#7DFFFF7DFFFFFFFF
(1785794354.623762) can0 1CECFFF1#20120003FF19F000
(1785794354.624773) can0 1CEBFFF1#01000B0000000000
(1785794354.625772) can0 1CEBFFF1#0200000000000000
(1785794354.626755) can0 1CEBFFF1#0300F0B3F5FFFFFF
(1785794354.652975) can0 18F015F1#00004741495D46DE
(1785794354.678977) can0 18FF09D1#01000B00D314EC
(1785794354.679304) can0 18FF14D1#
(1785794354.720085) can0 18FEF1F8#FF0000FFFFFFFFFF
(1785794354.721288) can0 18F005F8#7DFFFF7DFFFFFFFF
(1785794354.723340) can0 18ECFFFF#20100003FF13FF00
(1785794354.724152) can0 1CECFFF1#20120003FF19F000
(1785794354.724578) can0 18EBFFFF#0100330F4871F410
(1785794354.725274) can0 1CEBFFF1#01000B0000000000
(1785794354.725785) can0 1CEBFFF1#0200000000000000
(1785794354.726322) can0 18EBFFFF#024CA96400000000
(1785794354.727167) can0 1CEBFFF1#0300F17334FFFFFF
(1785794354.727667) can0 18EBFFFF#03010BFFFFFFFFFF
(1785794354.752797) can0 18F015F1#00004741495D46DD
(1785794354.778923) can0 18FF09D1#01000B00D314EC
(1785794354.819372) can0 18FEF1F8#FF0000FFFFFFFFFF
(1785794354.820710) can0 18F005F8#7DFFFF7DFFFFFFFF
(1785794354.823774) can0 1CECFFF1#20120003FF19F000
(1785794354.824777) can0 1CEBFFF1#01000B0000000000
(1785794354.825779) can0 1CEBFFF1#0200000000000000
(1785794354.826783) can0 1CEBFFF1#0300F17334FFFFFF
(1785794354.852786) can0 18F015F1#00004741495D46DE
(1785794354.878945) can0 18FF09D1#01000B00D314EC
(1785794354.920415) can0 18FEF1F8#FF0000FFFFFFFFFF
(1785794354.921777) can0 18F005F8#7DFFFF7DFFFFFFFF
(1785794354.924822) can0 1CECFFF1#20120003FF19F000
(1785794354.925797) can0 1CEBFFF1#01000B0000000000
(1785794354.926856) can0 1CEBFFF1#0200000000000000
(1785794354.927812) can0 1CEBFFF1#0300F17334FFFFFF
(1785794354.953853) can0 18F015F1#00004741495E46DE
(1785794354.980975) can0 18FF09D1#01000B00D314EC
(1785794355.019671) can0 18FEF1F8#FF0000FFFFFFFFFF
(1785794355.020825) can0 18F005F8#7DFFFF7DFFFFFFFF
(1785794355.024772) can0 1CECFFF1#20120003FF19F000
(1785794355.025774) can0 1CEBFFF1#01000B0000000000
(1785794355.026774) can0 1CEBFFF1#0200000000000000
(1785794355.027751) can0 1CEBFFF1#0300F17334FFFFFF
(1785794355.053750) can0 18F015F1#00004741495D46DD
(1785794355.063683) can0 18F017F1#EDE8063C989C
(1785794355.064127) can0 18F018F1#E882022B9422
(1785794355.078839) can0 18FF09D1#01000B00D314EC
(1785794355.119345) can0 18FEF1F8#FF0000FFFFFFFFFF
(1785794355.120528) can0 18F005F8#7DFFFF7DFFFFFFFF
(1785794355.124765) can0 1CECFFF1#20120003FF19F000
(1785794355.125770) can0 1CEBFFF1#01000B0000000000
(1785794355.126770) can0 1CEBFFF1#0200000000000000
(1785794355.127749) can0 1CEBFFF1#0300F17334FFFFFF
(1785794355.153808) can0 18F015F1#00004741495D46DD
(1785794355.178951) can0 18FF09D1#01000B00D3B0EB
(1785794355.179244) can0 18FF14D1#
(1785794355.219907) can0 18FEF1F8#FF0000FFFFFFFFFF
(1785794355.221418) can0 18F005F8#7DFFFF7DFFFFFFFF
(1785794355.223839) can0 18ECFFFF#20100003FF13FF00
(1785794355.224862) can0 1CECFFF1#20120003FF19F000
(1785794355.225328) can0 18EBFFFF#0100330F4871F410
(1785794355.226185) can0 1CEBFFF1#01000B0000000000
(1785794355.226594) can0 18EBFFFF#024CA96400000000
(1785794355.227423) can0 1CEBFFF1#0200000000000000
(1785794355.227803) can0 1CEBFFF1#0300F17334FFFFFF
(1785794355.228337) can0 18EBFFFF#03010BFFFFFFFFFF
(1785794355.254325) can0 18F015F1#00004741495E46DE
(1785794355.279018) can0 18FF09D1#01000B00D3B0EB
(1785794355.319720) can0 18FEF1F8#FF0000FFFFFFFFFF
(1785794355.320979) can0 18F005F8#7DFFFF7DFFFFFFFF
(1785794355.324794) can0 1CECFFF1#20120003FF19F000
(1785794355.325772) can0 1CEBFFF1#01000B0000000000
(1785794355.326787) can0 1CEBFFF1#0200000000000000
(1785794355.327756) can0 1CEBFFF1#0300F17334FFFFFF
(1785794355.353796) can0 18F015F1#00004741495D46DD
(1785794355.379239) can0 18FF09D1#01000B00D3B0EB
(1785794355.419371) can0 18FEF1F8#FF0000FFFFFFFFFF
(1785794355.420560) can0 18F005F8#7DFFFF7DFFFFFFFF
(1785794355.424768) can0 1CECFFF1#20120003FF19F000
(1785794355.425774) can0 1CEBFFF1#01000B0000000000
(1785794355.426790) can0 1CEBFFF1#0200000000000000
(1785794355.427764) can0 1CEBFFF1#0300F17334FFFFFF
(1785794355.453778) can0 18F015F1#00004741495D46DE
(1785794355.478844) can0 18FF09D1#01000B00D3B0EB
(1785794355.519728) can0 18FEF1F8#FF0000FFFFFFFFFF
(1785794355.521050) can0 18F005F8#7DFFFF7DFFFFFFFF
(1785794355.524879) can0 1CECFFF1#20120003FF19F000
(1785794355.525860) can0 1CEBFFF1#01000B0000000000
(1785794355.526839) can0 1CEBFFF1#0200000000000000
(1785794355.527808) can0 1CEBFFF1#0300F17334FFFFFF
(1785794355.553879) can0 18F015F1#00004741495E46DE
(1785794355.578908) can0 18FF09D1#01000B00D3B0EB
(1785794355.619651) can0 18FEF1F8#FF0000FFFFFFFFFF
(1785794355.620930) can0 18F005F8#7DFFFF7DFFFFFFFF
(1785794355.624790) can0 1CECFFF1#20120003FF19F000
(1785794355.625820) can0 1CEBFFF1#01000B0000000000
(1785794355.626800) can0 1CEBFFF1#0200000000000000
(1785794355.627766) can0 1CEBFFF1#0300F27274FFFFFF
(1785794355.660266) can0 18F015F1#00004742495D46DD
(1785794355.678975) can0 18FF09D1#01000B00D346EC
(1785794355.679363) can0 18FF14D1#
(1785794355.719682) can0 18FEF1F8#FF0000FFFFFFFFFF
(1785794355.721079) can0 18F005F8#7DFFFF7DFFFFFFFF
(1785794355.722652) can0 18ECFFFF#20100003FF13FF00
(1785794355.723853) can0 18EBFFFF#0100330F4871F410
(1785794355.725030) can0 18EBFFFF#024CA96400000000
(1785794355.725790) can0 1CECFFF1#20120003FF19F000
(1785794355.726569) can0 18EBFFFF#03010BFFFFFFFFFF
(1785794355.727038) can0 1CEBFFF1#01000B0000000000
(1785794355.728115) can0 1CEBFFF1#0200000000000000
(1785794355.728763) can0 1CEBFFF1#0300F27274FFFFFF
(1785794355.754803) can0 18F015F1#00004742495D46DE
(1785794355.778904) can0 18FF09D1#01000B00D346EC
(1785794355.819411) can0 18FEF1F8#FF0000FFFFFFFFFF
(1785794355.820622) can0 18F005F8#7DFFFF7DFFFFFFFF
(1785794355.825814) can0 1CECFFF1#20120003FF19F000
(1785794355.826800) can0 1CEBFFF1#01000B0000000000
(1785794355.827807) can0 1CEBFFF1#0200000000000000
(1785794355.828776) can0 1CEBFFF1#0300F27274FFFFFF
(1785794355.854900) can0 18F015F1#00004742495E46DE
(1785794355.878979) can0 18FF09D1#01000B00D346EC
(1785794355.919768) can0 18FEF1F8#FF0000FFFFFFFFFF
(1785794355.920994) can0 18F005F8#7DFFFF7DFFFFFFFF
(1785794355.925882) can0 1CECFFF1#20120003FF19F000
(1785794355.926899) can0 1CEBFFF1#01000B0000000000
(1785794355.927838) can0 1CEBFFF1#0200000000000000
(1785794355.928800) can0 1CEBFFF1#0300F27274FFFFFF
(1785794355.954792) can0 18F015F1#00004742495D46DE
(1785794355.979766) can0 18FF09D1#01000B00D346EC
(1785794356.019408) can0 18FEF1F8#FF0000FFFFFFFFFF
(1785794356.020820) can0 18F005F8#7DFFFF7DFFFFFFFF
(1785794356.025810) can0 1CECFFF1#20120003FF19F000
(1785794356.026864) can0 1CEBFFF1#01000B0000000000
(1785794356.027780) can0 1CEBFFF1#0200000000000000
(1785794356.028747) can0 1CEBFFF1#0300F27274FFFFFF
(1785794356.054780) can0 18F015F1#00004742495D46DE
(1785794356.065686) can0 18F017F1#EDE8063C989C
(1785794356.066164) can0 18F018F1#E882022B9422
(1785794356.078837) can0 18FF09D1#01000B00D346EC
(1785794356.119360) can0 18FEF1F8#FF0000FFFFFFFFFF
(1785794356.120537) can0 18F005F8#7DFFFF7DFFFFFFFF
(1785794356.125775) can0 1CECFFF1#20120003FF19F000
(1785794356.126799) can0 1CEBFFF1#01000B0000000000
(1785794356.127797) can0 1CEBFFF1#0200000000000000
(1785794356.128768) can0 1CEBFFF1#0300F27274FFFFFF
(1785794356.154784) can0 18F015F1#00004742495E46DE
(1785794356.178968) can0 18FF09D1#01000B00D3DCEC
(1785794356.179255) can0 18FF14D1#
(1785794356.219772) can0 18FEF1F8#FF0000FFFFFFFFFF
(1785794356.221082) can0 18F005F8#7DFFFF7DFFFFFFFF
(1785794356.224390) can0 18ECFFFF#20100003FF13FF00
(1785794356.225619) can0 18EBFFFF#0100330F4871F410
(1785794356.226438) can0 1CECFFF1#20120003FF19F000
(1785794356.226834) can0 1CEBFFF1#01000B0000000000
(1785794356.227342) can0 18EBFFFF#024CA96400000000
(1785794356.228021) can0 1CEBFFF1#0200000000000000
(1785794356.228509) can0 18EBFFFF#03010BFFFFFFFFFF
(1785794356.229105) can0 1CEBFFF1#0300F27274FFFFFF
(1785794356.254907) can0 18F015F1#00004742495D46DD
(1785794356.279159) can0 18FF09D1#01000B00D3DCEC
(1785794356.320093) can0 18FEF1F8#FF0000FFFFFFFFFF
(1785794356.321464) can0 18F005F8#7DFFFF7DFFFFFFFF
(1785794356.325887) can0 1CECFFF1#20120003FF19F000
(1785794356.326917) can0 1CEBFFF1#01000B0000000000
(1785794356.327880) can0 1CEBFFF1#0200000000000000
(1785794356.328870) can0 1CEBFFF1#0300F27274FFFFFF
(1785794356.354783) can0 18F015F1#00004742495D46DE
(1785794356.378829) can0 18FF09D1#01000B00D3DCEC
(1785794356.419349) can0 18FEF1F8#FF0000FFFFFFFFFF
(1785794356.420525) can0 18F005F8#7DFFFF7DFFFFFFFF
(1785794356.426789) can0 1CECFFF1#20120003FF19F000
(1785794356.427791) can0 1CEBFFF1#01000B0000000000
(1785794356.428794) can0 1CEBFFF1#0200000000000000
(1785794356.429768) can0 1CEBFFF1#0300F27274FFFFFF
(1785794356.454794) can0 18F015F1#00004742495E46DE
(1785794356.478837) can0 18FF09D1#01000B00D3DCEC
(1785794356.519416) can0 18FEF1F8#FF0000FFFFFFFFFF
(1785794356.520628) can0 18F005F8#7DFFFF7DFFFFFFFF
(1785794356.526817) can0 1CECFFF1#20120003FF19F000
(1785794356.527806) can0 1CEBFFF1#01000B0000000000
(1785794356.528831) can0 1CEBFFF1#0200000000000000
(1785794356.529802) can0 1CEBFFF1#0300F3B2B5FFFFFF
(1785794356.556015) can0 18F015F1#00004743495E46DD
(1785794356.578925) can0 18FF09D1#01000B00D3DCEC
(1785794356.619341) can0 18FEF1F8#FF0000FFFFFFFFFF
(1785794356.620524) can0 18F005F8#7DFFFF7DFFFFFFFF
(1785794356.626777) can0 1CECFFF1#20120003FF19F000
(1785794356.627788) can0 1CEBFFF1#01000B0000000000
(1785794356.628788) can0 1CEBFFF1#0200000000000000
(1785794356.629762) can0 1CEBFFF1#0300F3B2B5FFFFFF
(1785794356.656209) can0 18F015F1#00004743495D46DE
(1785794356.678893) can0 18FF09D1#01000B00D3DCEC
(1785794356.679227) can0 18FF14D1#
(1785794356.719634) can0 18FEF1F8#FF0000FFFFFFFFFF
(1785794356.720927) can0 18F005F8#7DFFFF7DFFFFFFFF
(1785794356.722097) can0 18ECFFFF#20100003FF13FF00
(1785794356.723201) can0 18EBFFFF#0100330F4871F410
(1785794356.724313) can0 18EBFFFF#024CA96400000000
(1785794356.725445) can0 18EBFFFF#03010BFFFFFFFFFF
(1785794356.726795) can0 1CECFFF1#20120003FF19F000
(1785794356.727799) can0 1CEBFFF1#01000B0000000000
(1785794356.728792) can0 1CEBFFF1#0200000000000000
(1785794356.729770) can0 1CEBFFF1#0300F3B2B5FFFFFF
(1785794356.755799) can0 18F015F1#00004743495E46DE
(1785794356.778867) can0 18FF09D1#01000B00D3DCEC
(1785794356.819438) can0 18FEF1F8#FF0000FFFFFFFFFF
(1785794356.820644) can0 18F005F8#7DFFFF7DFFFFFFFF
(1785794356.826814) can0 1CECFFF1#20120003FF19F000
(1785794356.827791) can0 1CEBFFF1#01000B0000000000
(1785794356.828786) can0 1CEBFFF1#0200000000000000
(1785794356.829762) can0 1CEBFFF1#0300F3B2B5FFFFFF
(1785794356.855809) can0 18F015F1#00004743495E46DD
(1785794356.878893) can0 18FF09D1#01000B00D3DCEC
(1785794356.919987) can0 18FEF1F8#FF0000FFFFFFFFFF
(1785794356.921726) can0 18F005F8#7DFFFF7DFFFFFFFF
(1785794356.926934) can0 1CECFFF1#20120003FF19F000
(1785794356.927809) can0 1CEBFFF1#01000B0000000000
(1785794356.928805) can0 1CEBFFF1#0200000000000000
(1785794356.929766) can0 1CEBFFF1#0300F3B2B5FFFFFF
(1785794356.956189) can0 18F015F1#00004743495D46DE
(1785794356.978997) can0 18FF09D1#01000B00D3DCEC
(1785794357.019529) can0 18FEF1F8#FF0000FFFFFFFFFF
(1785794357.020841) can0 18F005F8#7DFFFF7DFFFFFFFF
(1785794357.026920) can0 1CECFFF1#20120003FF19F000
(1785794357.027807) can0 1CEBFFF1#01000B0000000000
(1785794357.028807) can0 1CEBFFF1#0200000000000000
(1785794357.029794) can0 1CEBFFF1#0300F3B2B5FFFFFF
(1785794357.055796) can0 18F015F1#00004743495E46DE
(1785794357.066710) can0 18F017F1#EE1705F79860
(1785794357.067168) can0 18F018F1#E9BB020194ED
(1785794357.078784) can0 18FF09D1#01000B00D3DCEC
(1785794357.119358) can0 18FEF1F8#FF0000FFFFFFFFFF
(1785794357.120523) can0 18F005F8#7DFFFF7DFFFFFFFF
(1785794357.126786) can0 1CECFFF1#20120003FF19F000
(1785794357.127793) can0 1CEBFFF1#01000B0000000000
(1785794357.128800) can0 1CEBFFF1#0200000000000000
(1785794357.129777) can0 1CEBFFF1#0300F3B2B5FFFFFF
(1785794357.155785) can0 18F015F1#00004743495D46DD
(1785794357.178860) can0 18FF09D1#01000B00D3B0EB
(1785794357.179155) can0 18FF14D1#
(1785794357.219839) can0 18FEF1F8#FF0000FFFFFFFFFF
(1785794357.221193) can0 18F005F8#7DFFFF7DFFFFFFFF
(1785794357.222601) can0 18ECFFFF#20100003FF13FF00
(1785794357.223760) can0 18EBFFFF#0100330F4871F410
(1785794357.224962) can0 18EBFFFF#024CA96400000000
(1785794357.226188) can0 18EBFFFF#03010BFFFFFFFFFF
(1785794357.227830) can0 1CECFFF1#20120003FF19F000
(1785794357.228830) can0 1CEBFFF1#01000B0000000000
(1785794357.229894) can0 1CEBFFF1#0200000000000000
(1785794357.230789) can0 1CEBFFF1#0300F3B2B5FFFFFF
(1785794357.256956) can0 18F015F1#00004743495D46DE
(1785794357.278920) can0 18FF09D1#01000B00D3B0EB
(1785794357.319552) can0 18FEF1F8#FF0000FFFFFFFFFF
(1785794357.320887) can0 18F005F8#7DFFFF7DFFFFFFFF
(1785794357.327812) can0 1CECFFF1#20120003FF19F000
(1785794357.328792) can0 1CEBFFF1#01000B0000000000
(1785794357.329785) can0 1CEBFFF1#0200000000000000
(1785794357.330761) can0 1CEBFFF1#0300F3B2B5FFFFFF
(1785794357.356802) can0 18F015F1#00004743495E46DE
(1785794357.378817) can0 18FF09D1#01000B00D3B0EB
(1785794357.419432) can0 18FEF1F8#FF0000FFFFFFFFFF
(1785794357.420662) can0 18F005F8#7DFFFF7DFFFFFFFF
(1785794357.427809) can0 1CECFFF1#20120003FF19F000
(1785794357.428800) can0 1CEBFFF1#01000B0000000000
(1785794357.429803) can0 1CEBFFF1#0200000000000000
(1785794357.430779) can0 1CEBFFF1#0300F470F4FFFFFF
(1785794357.456828) can0 18F015F1#00004744495D46DE
(1785794357.478876) can0 18FF09D1#01000B00D3B0EB
(1785794357.519458) can0 18FEF1F8#FF0000FFFFFFFFFF
(1785794357.521436) can0 18F005F8#7DFFFF7DFFFFFFFF
(1785794357.527883) can0 1CECFFF1#20120003FF19F000
(1785794357.528831) can0 1CEBFFF1#01000B0000000000
(1785794357.529813) can0 1CEBFFF1#0200000000000000
(1785794357.530807) can0 1CEBFFF1#0300F470F4FFFFFF
(1785794357.556824) can0 18F015F1#00004744495D46DE
(1785794357.578839) can0 18FF09D1#01000B00D3B0EB
(1785794357.619704) can0 18FEF1F8#FF0000FFFFFFFFFF
(1785794357.620893) can0 18F005F8#7DFFFF7DFFFFFFFF
(1785794357.627875) can0 1CECFFF1#20120003FF19F000
(1785794357.628802) can0 1CEBFFF1#01000B0000000000
(1785794357.630449) can0 1CEBFFF1#0200000000000000
(1785794357.630786) can0 1CEBFFF1#0300F470F4FFFFFF
(1785794357.658150) can0 18F015F1#00004744495E46DE
(1785794357.679025) can0 18FF09D1#01000B00D3B0EB
(1785794357.679452) can0 18FF14D1#
(1785794357.720121) can0 18FEF1F8#FF0000FFFFFFFFFF
(1785794357.721509) can0 18F005F8#7DFFFF7DFFFFFFFF
(1785794357.722732) can0 18ECFFFF#20100003FF13FF00
(1785794357.723838) can0 18EBFFFF#0100330F4871F410
(1785794357.724986) can0 18EBFFFF#024CA96400000000
(1785794357.726528) can0 18EBFFFF#03010BFFFFFFFFFF
(1785794357.728192) can0 1CECFFF1#20120003FF19F000
(1785794357.728878) can0 1CEBFFF1#01000B0000000000
(1785794357.729821) can0 1CEBFFF1#0200000000000000
(1785794357.730793) can0 1CEBFFF1#0300F470F4FFFFFF
(1785794357.756820) can0 18F015F1#00004744495E46DE
(1785794357.778874) can0 18FF09D1#01000B00D3B0EB
(1785794357.819401) can0 18FEF1F8#FF0000FFFFFFFFFF
(1785794357.820655) can0 18F005F8#7DFFFF7DFFFFFFFF
(1785794357.828801) can0 1CECFFF1#20120003FF19F000
(1785794357.829804) can0 1CEBFFF1#01000B0000000000
(1785794357.830794) can0 1CEBFFF1#0200000000000000
(1785794357.831822) can0 1CEBFFF1#0300F470F4FFFFFF
(1785794357.857819) can0 18F015F1#00004744495D46DE
(1785794357.878817) can0 18FF09D1#01000B00D3B0EB
(1785794357.919729) can0 18FEF1F8#FF0000FFFFFFFFFF
(1785794357.921244) can0 18F005F8#7DFFFF7DFFFFFFFF
(1785794357.928897) can0 1CECFFF1#20120003FF19F000
(1785794357.929875) can0 1CEBFFF1#01000B0000000000
(1785794357.931028) can0 1CEBFFF1#0200000000000000
(1785794357.931782) can0 1CEBFFF1#0300F470F4FFFFFF
(1785794357.957310) can0 18F015F1#00004744495E46DE
(1785794357.980361) can0 18FF09D1#01000B00D3B0EB
(1785794358.019560) can0 18FEF1F8#FF0000FFFFFFFFFF
(1785794358.020824) can0 18F005F8#7DFFFF7DFFFFFFFF
(1785794358.028878) can0 1CECFFF1#20120003FF19F000
(1785794358.029992) can0 1CEBFFF1#01000B0000000000
(1785794358.031022) can0 1CEBFFF1#0200000000000000
(1785794358.031791) can0 1CEBFFF1#0300F470F4FFFFFF
(1785794358.057802) can0 18F015F1#00004744495D46DE
(1785794358.067705) can0 18F017F1#EE1705F79860
(1785794358.068172) can0 18F018F1#E9BB020194ED
(1785794358.078766) can0 18FF09D1#01000B00D3B0EB
(1785794358.119352) can0 18FEF1F8#FF0000FFFFFFFFFF
(1785794358.120511) can0 18F005F8#7DFFFF7DFFFFFFFF
(1785794358.128799) can0 1CECFFF1#20120003FF19F000
(1785794358.129803) can0 1CEBFFF1#01000B0000000000
(1785794358.130806) can0 1CEBFFF1#0200000000000000
(1785794358.131783) can0 1CEBFFF1#0300F470F4FFFFFF
(1785794358.157799) can0 18F015F1#00004744495D46DE
(1785794358.178968) can0 18FF09D1#01000B00D3DCEC
(1785794358.179233) can0 18FF14D1#
(1785794358.179661) can0 18FF16D1#01000B0064
(1785794358.220015) can0 18FEF1F8#FF0000FFFFFFFFFF
(1785794358.221345) can0 18F005F8#7DFFFF7DFFFFFFFF
(1785794358.223970) can0 18ECFFFF#20100003FF13FF00
(1785794358.225264) can0 18EBFFFF#0100330F4871F410
(1785794358.226539) can0 18EBFFFF#024CA96400000000
(1785794358.227797) can0 18EBFFFF#03010BFFFFFFFFFF
(1785794358.228840) can0 1CECFFF1#20120003FF19F000
(1785794358.229825) can0 1CEBFFF1#01000B0000000000
(1785794358.230831) can0 1CEBFFF1#0200000000000000
(1785794358.231811) can0 1CEBFFF1#0300F470F4FFFFFF
(1785794358.257959) can0 18F015F1#00004744495E46DE
(1785794358.278852) can0 18FF09D1#01000B00D3DCEC
(1785794358.319593) can0 18FEF1F8#FF0000FFFFFFFFFF
(1785794358.320815) can0 18F005F8#7DFFFF7DFFFFFFFF
(1785794358.328792) can0 1CECFFF1#20120003FF19F000
(1785794358.329995) can0 1CEBFFF1#01000B0000000000
(1785794358.331019) can0 1CEBFFF1#0200000000000000
(1785794358.331771) can0 1CEBFFF1#0300F470F4FFFFFF
(1785794358.357827) can0 18F015F1#00004744495D46DE
(1785794358.378777) can0 18FF09D1#01000B00D3DCEC
(1785794358.419353) can0 18FEF1F8#FF0000FFFFFFFFFF
(1785794358.420554) can0 18F005F8#7DFFFF7DFFFFFFFF
(1785794358.428876) can0 1CECFFF1#20120003FF19F000
(1785794358.429818) can0 1CEBFFF1#01000B0000000000
(1785794358.430823) can0 1CEBFFF1#0200000000000000
(1785794358.431798) can0 1CEBFFF1#0300F5B035FFFFFF
(1785794358.457796) can0 18F015F1#00004744495D46DE
(1785794358.478775) can0 18FF09D1#01000B00D3DCEC
(1785794358.519387) can0 18FEF1F8#FF0000FFFFFFFFFF
(1785794358.520591) can0 18F005F8#7DFFFF7DFFFFFFFF
(1785794358.528799) can0 1CECFFF1#20120003FF19F000
(1785794358.529809) can0 1CEBFFF1#01000B0000000000
(1785794358.530825) can0 1CEBFFF1#0200000000000000
(1785794358.531797) can0 1CEBFFF1#0300F5B035FFFFFF
(1785794358.557911) can0 18F015F1#00004745495E46DF
(1785794358.578972) can0 18FF09D1#01000B00D3DCEC
(1785794358.619390) can0 18FEF1F8#FF0000FFFFFFFFFF
(1785794358.620569) can0 18F005F8#7DFFFF7DFFFFFFFF
(1785794358.629793) can0 1CECFFF1#20120003FF19F000
(1785794358.630800) can0 1CEBFFF1#01000B0000000000
(1785794358.631799) can0 1CEBFFF1#0200000000000000
(1785794358.632787) can0 1CEBFFF1#0300F5B035FFFFFF
(1785794358.658769) can0 18F015F1#00004745495D46DE
(1785794358.679418) can0 18FF09D1#01000B00D3DCEC
(1785794358.679728) can0 18FF14D1#
(1785794358.719922) can0 18FEF1F8#FF0000FFFFFFFFFF
(1785794358.721113) can0 18F005F8#7DFFFF7DFFFFFFFF
(1785794358.723075) can0 18ECFFFF#20100003FF13FF00
(1785794358.724196) can0 18EBFFFF#0100330F4871F410
(1785794358.725368) can0 18EBFFFF#024CA96400000000
(1785794358.726596) can0 18EBFFFF#03010BFFFFFFFFFF
(1785794358.729832) can0 1CECFFF1#20120003FF19F000
(1785794358.730948) can0 1CEBFFF1#01000B0000000000
(1785794358.731817) can0 1CEBFFF1#0200000000000000
(1785794358.732783) can0 1CEBFFF1#0300F5B035FFFFFF
(1785794358.758823) can0 18F015F1#00004745495D46DE
(1785794358.778824) can0 18FF09D1#01000B00D314EC
(1785794358.819383) can0 18FEF1F8#FF0000FFFFFFFFFF
(1785794358.820529) can0 18F005F8#7DFFFF7DFFFFFFFF
(1785794358.829864) can0 1CECFFF1#20120003FF19F000
(1785794358.830835) can0 1CEBFFF1#01000B0000000000
(1785794358.831839) can0 1CEBFFF1#0200000000000000
(1785794358.832833) can0 1CEBFFF1#0300F5B035FFFFFF
(1785794358.858824) can0 18F015F1#00004745495E46DF
(1785794358.878870) can0 18FF09D1#01000B00D314EC
(1785794358.919711) can0 18FEF1F8#FF0000FFFFFFFFFF
(1785794358.921261) can0 18F005F8#7DFFFF7DFFFFFFFF
(1785794358.930243) can0 1CECFFF1#20120003FF19F000
(1785794358.930956) can0 1CEBFFF1#01000B0000000000
(1785794358.931981) can0 1CEBFFF1#0200000000000000
(1785794358.932864) can0 1CEBFFF1#0300F5B035FFFFFF
(1785794358.959218) can0 18F015F1#00004745495D46DE
(1785794358.979011) can0 18FF09D1#01000B00D314EC
(1785794359.019456) can0 18FEF1F8#FF0000FFFFFFFFFF
(1785794359.020606) can0 18F005F8#7DFFFF7DFFFFFFFF
(1785794359.029843) can0 1CECFFF1#20120003FF19F000
(1785794359.030806) can0 1CEBFFF1#01000B0000000000
(1785794359.031796) can0 1CEBFFF1#0200000000000000
(1785794359.032781) can0 1CEBFFF1#0300F5B035FFFFFF
(1785794359.058792) can0 18F015F1#00004745495D46DE
(1785794359.069704) can0 18F017F1#ECEE05B89B1C
(1785794359.070159) can0 18F018F1#E8D201239315
(1785794359.078706) can0 18FF09D1#01000B00D314EC
(1785794359.119327) can0 18FEF1F8#FF0000FFFFFFFFFF
(1785794359.120515) can0 18F005F8#7DFFFF7DFFFFFFFF
(1785794359.129805) can0 1CECFFF1#20120003FF19F000
(1785794359.130802) can0 1CEBFFF1#01000B0000000000
(1785794359.131798) can0 1CEBFFF1#0200000000000000
(1785794359.132781) can0 1CEBFFF1#0300F5B035FFFFFF
(1785794359.158807) can0 18F015F1#00004745495E46DF
(1785794359.178785) can0 18FF09D1#01000B00D314EC
(1785794359.179049) can0 18FF14D1#
(1785794359.220583) can0 18FEF1F8#FF0000FFFFFFFFFF
(1785794359.221832) can0 18F005F8#7DFFFF7DFFFFFFFF
(1785794359.223059) can0 18ECFFFF#20100003FF13FF00
(1785794359.224231) can0 18EBFFFF#0100330F4871F410
(1785794359.225408) can0 18EBFFFF#024CA96400000000
(1785794359.226619) can0 18EBFFFF#03010BFFFFFFFFFF
(1785794359.229860) can0 1CECFFF1#20120003FF19F000
(1785794359.230827) can0 1CEBFFF1#01000B0000000000
(1785794359.231829) can0 1CEBFFF1#0200000000000000
(1785794359.232812) can0 1CEBFFF1#0300F5B035FFFFFF
(1785794359.258870) can0 18F015F1#00004746495D46DF
(1785794359.279064) can0 18FF09D1#01000B00D314EC
(1785794359.319501) can0 18FEF1F8#FF0000FFFFFFFFFF
(1785794359.320649) can0 18F005F8#7DFFFF7DFFFFFFFF
(1785794359.329796) can0 1CECFFF1#20120003FF19F000
(1785794359.330798) can0 1CEBFFF1#01000B0000000000
(1785794359.331796) can0 1CEBFFF1#0200000000000000
(1785794359.332774) can0 1CEBFFF1#0300F6B175FFFFFF
(1785794359.358848) can0 18F015F1#00004745495D46DF
(1785794359.378758) can0 18FF09D1#01000B00D314EC
(1785794359.419352) can0 18FEF1F8#FF0000FFFFFFFFFF
(1785794359.420489) can0 18F005F8#7DFFFF7DFFFFFFFF
(1785794359.430815) can0 1CECFFF1#20120003FF19F000
(1785794359.431812) can0 1CEBFFF1#01000B0000000000
(1785794359.432810) can0 1CEBFFF1#0200000000000000
(1785794359.433793) can0 1CEBFFF1#0300F5B035FFFFFF
(1785794359.459798) can0 18F015F1#00004745495E46DF
(1785794359.478714) can0 18FF09D1#01000B00D314EC
(1785794359.519552) can0 18FEF1F8#FF0000FFFFFFFFFF
(1785794359.520738) can0 18F005F8#7DFFFF7DFFFFFFFF
(1785794359.530874) can0 1CECFFF1#20120003FF19F000
(1785794359.531809) can0 1CEBFFF1#01000B0000000000
(1785794359.532810) can0 1CEBFFF1#0200000000000000
(1785794359.533788) can0 1CEBFFF1#0300F6B175FFFFFF
(1785794359.559858) can0 18F015F1#00004746495D46DF
(1785794359.578978) can0 18FF09D1#01000B00D314EC
(1785794359.619576) can0 18FEF1F8#FF0000FFFFFFFFFF
(1785794359.620827) can0 18F005F8#7DFFFF7DFFFFFFFF
(1785794359.631255) can0 1CECFFF1#20120003FF19F000
(1785794359.632018) can0 1CEBFFF1#01000B0000000000
(1785794359.632796) can0 1CEBFFF1#0200000000000000
(1785794359.633772) can0 1CEBFFF1#0300F6B175FFFFFF
(1785794359.659813) can0 18F015F1#00004746495D46DF
(1785794359.678880) can0 18FF09D1#01000B00D314EC
(1785794359.679601) can0 18FF14D1#
(1785794359.719916) can0 18FEF1F8#FF0000FFFFFFFFFF
(1785794359.722171) can0 18F005F8#7DFFFF7DFFFFFFFF
(1785794359.723465) can0 18ECFFFF#20100003FF13FF00
(1785794359.724611) can0 18EBFFFF#0100330F4871F410
(1785794359.725733) can0 18EBFFFF#024CA96400000000
(1785794359.727151) can0 18EBFFFF#03010BFFFFFFFFFF
(1785794359.730854) can0 1CECFFF1#20120003FF19F000
(1785794359.731838) can0 1CEBFFF1#01000B0000000000
(1785794359.732805) can0 1CEBFFF1#0200000000000000
(1785794359.733783) can0 1CEBFFF1#0300F6B175FFFFFF
(1785794359.759861) can0 18F015F1#00004746495D46DF
(1785794359.778828) can0 18FF09D1#01000B00D3DCEC
(1785794359.819431) can0 18FEF1F8#FF0000FFFFFFFFFF
(1785794359.820591) can0 18F005F8#7DFFFF7DFFFFFFFF
(1785794359.830847) can0 1CECFFF1#20120003FF19F000
(1785794359.831804) can0 1CEBFFF1#01000B0000000000
(1785794359.832802) can0 1CEBFFF1#0200000000000000
(1785794359.833774) can0 1CEBFFF1#0300F6B175FFFFFF
(1785794359.859837) can0 18F015F1#00004746495D46DF
(1785794359.878736) can0 18FF09D1#01000B00D3DCEC
(1785794359.919488) can0 18FEF1F8#FF0000FFFFFFFFFF
(1785794359.920804) can0 18F005F8#7DFFFF7DFFFFFFFF
(1785794359.930959) can0 1CECFFF1#20120003FF19F000
(1785794359.931871) can0 1CEBFFF1#01000B0000000000
(1785794359.932873) can0 1CEBFFF1#0200000000000000
(1785794359.933841) can0 1CEBFFF1#0300F6B175FFFFFF
(1785794359.959966) can0 18F015F1#00004746495D46DF
(1785794359.978948) can0 18FF09D1#01000B00D3DCEC
(1785794360.019734) can0 18FEF1F8#FF0000FFFFFFFFFF
(1785794360.021060) can0 18F005F8#7DFFFF7DFFFFFFFF
(1785794360.030846) can0 1CECFFF1#20120003FF19F000
(1785794360.031978) can0 1CEBFFF1#01000B0000000000
(1785794360.032882) can0 1CEBFFF1#0200000000000000
(1785794360.033842) can0 1CEBFFF1#0300F6B175FFFFFF
(1785794360.059829) can0 18F015F1#00004746495D46DF
(1785794360.070722) can0 18F017F1#ECEE05B89B1C
(1785794360.071166) can0 18F018F1#E8D201239315
(1785794360.078723) can0 18FF09D1#01000B00D3DCEC
(1785794360.119374) can0 18FEF1F8#FF0000FFFFFFFFFF
(1785794360.120521) can0 18F005F8#7DFFFF7DFFFFFFFF
(1785794360.130803) can0 1CECFFF1#20120003FF19F000
(1785794360.131803) can0 1CEBFFF1#01000B0000000000
(1785794360.132803) can0 1CEBFFF1#0200000000000000
(1785794360.133777) can0 1CEBFFF1#0300F6B175FFFFFF
(1785794360.159789) can0 18F015F1#00004746495D46DF
(1785794360.178908) can0 18FF09D1#01000B00D3DCEC
(1785794360.179228) can0 18FF14D1#
(1785794360.179626) can0 18FF16D1#01000B0064
(1785794360.219489) can0 18FEF1F8#FF0000FFFFFFFFFF
(1785794360.220842) can0 18F005F8#7DFFFF7DFFFFFFFF
(1785794360.221984) can0 18ECFFFF#20100003FF13FF00
(1785794360.223098) can0 18EBFFFF#0100330F4871F410
(1785794360.224213) can0 18EBFFFF#024CA96400000000
(1785794360.225340) can0 18EBFFFF#03010BFFFFFFFFFF
(1785794360.231847) can0 1CECFFF1#20120003FF19F000
(1785794360.232858) can0 1CEBFFF1#01000B0000000000
(1785794360.233829) can0 1CEBFFF1#0200000000000000
(1785794360.234807) can0 1CEBFFF1#0300F6B175FFFFFF
(1785794360.261197) can0 18F015F1#00004746495D46DF
(1785794360.279197) can0 18FF09D1#01000B00D314EC
(1785794360.319545) can0 18FEF1F8#FF0000FFFFFFFFFF
(1785794360.320766) can0 18F005F8#7DFFFF7DFFFFFFFF
(1785794360.331796) can0 1CECFFF1#20120003FF19F000
(1785794360.332807) can0 1CEBFFF1#01000B0000000000
(1785794360.333799) can0 1CEBFFF1#0200000000000000
(1785794360.334775) can0 1CEBFFF1#0300F6B175FFFFFF
(1785794360.360818) can0 18F015F1#00004747495D46DF
(1785794360.378890) can0 18FF09D1#01000B00D314EC
(1785794360.419353) can0 18FEF1F8#FF0000FFFFFFFFFF
(1785794360.420470) can0 18F005F8#7DFFFF7DFFFFFFFF
(1785794360.431814) can0 1CECFFF1#20120003FF19F000
(1785794360.432823) can0 1CEBFFF1#01000B0000000000
(1785794360.433819) can0 1CEBFFF1#0200000000000000
(1785794360.434792) can0 1CEBFFF1#0300F6B175FFFFFF
(1785794360.460806) can0 18F015F1#00004747495D46DE
(1785794360.478700) can0 18FF09D1#01000B00D314EC
(1785794360.519366) can0 18FEF1F8#FF0000FFFFFFFFFF
(1785794360.520493) can0 18F005F8#7DFFFF7DFFFFFFFF
(1785794360.531804) can0 1CECFFF1#20120003FF19F000
(1785794360.532812) can0 1CEBFFF1#01000B0000000000
(1785794360.533804) can0 1CEBFFF1#0200000000000000
(1785794360.534774) can0 1CEBFFF1#0300F771B4FFFFFF
(1785794360.560836) can0 18F015F1#00004747495D46DE
(1785794360.578736) can0 18FF09D1#01000B00D314EC
(1785794360.619826) can0 18FEF1F8#FF0000FFFFFFFFFF
(1785794360.621155) can0 18F005F8#7DFFFF7DFFFFFFFF
(1785794360.631808) can0 1CECFFF1#20120003FF19F000
(1785794360.632826) can0 1CEBFFF1#01000B0000000000
(1785794360.633819) can0 1CEBFFF1#0200000000000000
(1785794360.634777) can0 1CEBFFF1#0300F771B4FFFFFF
(1785794360.660790) can0 18F015F1#00004747495D46DF
(1785794360.678719) can0 18FF09D1#01000B00D314EC
(1785794360.678968) can0 18FF14D1#
(1785794360.719572) can0 18FEF1F8#FF0000FFFFFFFFFF
(1785794360.720761) can0 18F005F8#7DFFFF7DFFFFFFFF
(1785794360.721945) can0 18ECFFFF#20100003FF13FF00
(1785794360.723149) can0 18EBFFFF#0100330F4871F410
(1785794360.724296) can0 18EBFFFF#024CA96400000000
(1785794360.725450) can0 18EBFFFF#03010BFFFFFFFFFF
(1785794360.731826) can0 1CECFFF1#20120003FF19F000
(1785794360.732809) can0 1CEBFFF1#01000B0000000000
(1785794360.733814) can0 1CEBFFF1#0200000000000000
(1785794360.734788) can0 1CEBFFF1#0300F771B4FFFFFF
(1785794360.760826) can0 18F015F1#00004747495C46DF
(1785794360.778726) can0 18FF09D1#01000B00D3E2EB
(1785794360.819382) can0 18FEF1F8#FF0000FFFFFFFFFF
(1785794360.820558) can0 18F005F8#7DFFFF7DFFFFFFFF
(1785794360.831838) can0 1CECFFF1#20120003FF19F000
(1785794360.832830) can0 1CEBFFF1#01000B0000000000
(1785794360.833831) can0 1CEBFFF1#0200000000000000
(1785794360.834795) can0 1CEBFFF1#0300F771B4FFFFFF
(1785794360.860829) can0 18F015F1#00004747495D46DE
(1785794360.878825) can0 18FF09D1#01000B00D3E2EB
(1785794360.919452) can0 18FEF1F8#FF0000FFFFFFFFFF
(1785794360.920687) can0 18F005F8#7DFFFF7DFFFFFFFF
(1785794360.932983) can0 1CECFFF1#20120003FF19F000
(1785794360.933879) can0 1CEBFFF1#01000B0000000000
(1785794360.934887) can0 1CEBFFF1#0200000000000000
(1785794360.935959) can0 1CEBFFF1#0300F771B4FFFFFF
(1785794360.962126) can0 18F015F1#00004747495D46DF
(1785794360.978968) can0 18FF09D1#01000B00D3E2EB
(1785794361.019510) can0 18FEF1F8#FF0000FFFFFFFFFF
(1785794361.020698) can0 18F005F8#7DFFFF7DFFFFFFFF
(1785794361.032842) can0 1CECFFF1#20120003FF19F000
(1785794361.033815) can0 1CEBFFF1#01000B0000000000
(1785794361.034812) can0 1CEBFFF1#0200000000000000
(1785794361.035856) can0 1CEBFFF1#0300F771B4FFFFFF
(1785794361.061842) can0 18F015F1#00004747495D46DF
(1785794361.071729) can0 18F017F1#ECEA058B9D45
(1785794361.072170) can0 18F018F1#E8A6009790E3
(1785794361.078660) can0 18FF09D1#01000B00D3E2EB
(1785794361.119359) can0 18FEF1F8#FF0000FFFFFFFFFF
(1785794361.120505) can0 18F005F8#7DFFFF7DFFFFFFFF
(1785794361.132819) can0 1CECFFF1#20120003FF19F000
(1785794361.133825) can0 1CEBFFF1#01000B0000000000
(1785794361.134820) can0 1CEBFFF1#0200000000000000
(1785794361.135790) can0 1CEBFFF1#0300F771B4FFFFFF
(1785794361.161862) can0 18F015F1#00004747495D46DF
(1785794361.178731) can0 18FF09D1#01000B00D3E2EB
(1785794361.179039) can0 18FF14D1#
(1785794361.219529) can0 18FEF1F8#FF0000FFFFFFFFFF
(1785794361.220687) can0 18F005F8#7DFFFF7DFFFFFFFF
(1785794361.221809) can0 18ECFFFF#20100003FF13FF00
(1785794361.222914) can0 18EBFFFF#0100330F4871F410
(1785794361.224024) can0 18EBFFFF#024CA96400000000
(1785794361.225169) can0 18EBFFFF#03010BFFFFFFFFFF
(1785794361.232838) can0 1CECFFF1#20120003FF19F000
(1785794361.233822) can0 1CEBFFF1#01000B0000000000
(1785794361.234822) can0 1CEBFFF1#0200000000000000
(1785794361.235790) can0 1CEBFFF1#0300F771B4FFFFFF
(1785794361.261892) can0 18F015F1#00004747495D46DF
(1785794361.279112) can0 18FF09D1#01000B00D3E2EB
(1785794361.319631) can0 18FEF1F8#FF0000FFFFFFFFFF
(1785794361.321247) can0 18F005F8#7DFFFF7DFFFFFFFF
(1785794361.332837) can0 1CECFFF1#20120003FF19F000
(1785794361.333825) can0 1CEBFFF1#01000B0000000000
(1785794361.334816) can0 1CEBFFF1#0200000000000000
(1785794361.335794) can0 1CEBFFF1#0300F771B4FFFFFF
(1785794361.361899) can0 18F015F1#00004747495D46DF
(1785794361.378853) can0 18FF09D1#01000B00D3E2EB
(1785794361.419371) can0 18FEF1F8#FF0000FFFFFFFFFF
(1785794361.420521) can0 18F005F8#7DFFFF7DFFFFFFFF
(1785794361.432835) can0 1CECFFF1#20120003FF19F000
(1785794361.433834) can0 1CEBFFF1#01000B0000000000
(1785794361.434835) can0 1CEBFFF1#0200000000000000
(1785794361.435806) can0 1CEBFFF1#0300F771B4FFFFFF
(1785794361.461816) can0 18F015F1#00004747495D46DF
(1785794361.478662) can0 18FF09D1#01000B00D3E2EB
(1785794361.519554) can0 18FEF1F8#FF0000FFFFFFFFFF
(1785794361.520808) can0 18F005F8#7DFFFF7DFFFFFFFF
(1785794361.532920) can0 1CECFFF1#20120003FF19F000
(1785794361.533955) can0 1CEBFFF1#01000B0000000000
(1785794361.534822) can0 1CEBFFF1#0200000000000000
(1785794361.535809) can0 1CEBFFF1#0300F875F4FFFFFF
(1785794361.561907) can0 18F015F1#00004748495D46DF
(1785794361.578773) can0 18FF09D1#01000B00D3E2EB
(1785794361.620028) can0 18FEF1F8#FF0000FFFFFFFFFF
(1785794361.621470) can0 18F005F8#7DFFFF7DFFFFFFFF
(1785794361.632867) can0 1CECFFF1#20120003FF19F000
(1785794361.633820) can0 1CEBFFF1#01000B0000000000
(1785794361.634818) can0 1CEBFFF1#0200000000000000
(1785794361.635802) can0 1CEBFFF1#0300F875F4FFFFFF
(1785794361.661851) can0 18F015F1#00004748495D46DE
(1785794361.678714) can0 18FF09D1#01000B00D3E2EB
(1785794361.679008) can0 18FF14D1#
(1785794361.719958) can0 18FEF1F8#FF0000FFFFFFFFFF
(1785794361.721315) can0 18F005F8#7DFFFF7DFFFFFFFF
(1785794361.722500) can0 18ECFFFF#20100003FF13FF00
(1785794361.723734) can0 18EBFFFF#0100330F4871F410
(1785794361.724877) can0 18EBFFFF#024CA96400000000
(1785794361.726090) can0 18EBFFFF#03010BFFFFFFFFFF
(1785794361.733867) can0 1CECFFF1#20120003FF19F000
(1785794361.734968) can0 1CEBFFF1#01000B0000000000
(1785794361.735830) can0 1CEBFFF1#0200000000000000
(1785794361.736817) can0 1CEBFFF1#0300F875F4FFFFFF
(1785794361.762857) can0 18F015F1#00004748495D46DF
(1785794361.778733) can0 18FF09D1#01000B00D3E2EB
(1785794361.819447) can0 18FEF1F8#FF0000FFFFFFFFFF
(1785794361.820709) can0 18F005F8#7DFFFF7DFFFFFFFF
(1785794361.833903) can0 1CECFFF1#20120003FF19F000
(1785794361.834854) can0 1CEBFFF1#01000B0000000000
(1785794361.835831) can0 1CEBFFF1#0200000000000000
(1785794361.836841) can0 1CEBFFF1#0300F875F4FFFFFF
(1785794361.862874) can0 18F015F1#00004748495D46DF
(1785794361.878679) can0 18FF09D1#01000B00D3E2EB
(1785794361.919515) can0 18FEF1F8#FF0000FFFFFFFFFF
(1785794361.920709) can0 18F005F8#7DFFFF7DFFFFFFFF
(1785794361.933941) can0 1CECFFF1#20120003FF19F000
(1785794361.934870) can0 1CEBFFF1#01000B0000000000
(1785794361.936006) can0 1CEBFFF1#0200000000000000
(1785794361.936867) can0 1CEBFFF1#0300F875F4FFFFFF
(1785794361.963099) can0 18F015F1#00004748495D46DE
(1785794361.978940) can0 18FF09D1#01000B00D3E2EB
(1785794362.019540) can0 18FEF1F8#FF0000FFFFFFFFFF
(1785794362.020711) can0 18F005F8#7DFFFF7DFFFFFFFF
(1785794362.033874) can0 1CECFFF1#20120003FF19F000
(1785794362.034847) can0 1CEBFFF1#01000B0000000000
(1785794362.035813) can0 1CEBFFF1#0200000000000000
(1785794362.036897) can0 1CEBFFF1#0300F875F4FFFFFF
(1785794362.062867) can0 18F015F1#00004748495D46DE
(1785794362.073761) can0 18F017F1#ECEA058B9D45
(1785794362.074221) can0 18F018F1#E8A6009790E3
(1785794362.078658) can0 18FF09D1#01000B00D3E2EB
(1785794362.119352) can0 18FEF1F8#FF0000FFFFFFFFFF
(1785794362.120492) can0 18F005F8#7DFFFF7DFFFFFFFF
(1785794362.133838) can0 1CECFFF1#20120003FF19F000
(1785794362.134835) can0 1CEBFFF1#01000B0000000000
(1785794362.135829) can0 1CEBFFF1#0200000000000000
(1785794362.136817) can0 1CEBFFF1#0300F875F4FFFFFF
(1785794362.162811) can0 18F015F1#00004748495D46DE
(1785794362.178841) can0 18FF09D1#01000B00D3E2EB
(1785794362.179142) can0 18FF14D1#
(1785794362.179531) can0 18FF16D1#01000B0064
(1785794362.219468) can0 18FEF1F8#FF0000FFFFFFFFFF
(1785794362.220695) can0 18F005F8#7DFFFF7DFFFFFFFF
(1785794362.221836) can0 18ECFFFF#20100003FF13FF00
(1785794362.222984) can0 18EBFFFF#0100330F4871F410
(1785794362.224084) can0 18EBFFFF#024CA96400000000
(1785794362.225209) can0 18EBFFFF#03010BFFFFFFFFFF
(1785794362.233846) can0 1CECFFF1#20120003FF19F000
(1785794362.234836) can0 1CEBFFF1#01000B0000000000
(1785794362.235835) can0 1CEBFFF1#0200000000000000
(1785794362.236853) can0 1CEBFFF1#0300F875F4FFFFFF
(1785794362.262981) can0 18F015F1#00004748495D46DE
(1785794362.278887) can0 18FF09D1#01000B00D314EC
(1785794362.319585) can0 18FEF1F8#FF0000FFFFFFFFFF
(1785794362.320929) can0 18F005F8#7DFFFF7DFFFFFFFF
(1785794362.333861) can0 1CECFFF1#20120003FF19F000
(1785794362.334821) can0 1CEBFFF1#01000B0000000000
(1785794362.335828) can0 1CEBFFF1#0200000000000000
(1785794362.336809) can0 1CEBFFF1#0300F9B535FFFFFF
(1785794362.363180) can0 18F015F1#00004749495D46DF
(1785794362.378776) can0 18FF09D1#01000B00D314EC
(1785794362.419347) can0 18FEF1F8#FF0000FFFFFFFFFF
(1785794362.420537) can0 18F005F8#7DFFFF7DFFFFFFFF
(1785794362.433823) can0 1CECFFF1#20120003FF19F000
(1785794362.434826) can0 1CEBFFF1#01000B0000000000
(1785794362.435822) can0 1CEBFFF1#0200000000000000
(1785794362.436802) can0 1CEBFFF1#0300F9B535FFFFFF
(1785794362.463815) can0 18F015F1#00004749495D46DF
(1785794362.478625) can0 18FF09D1#01000B00D314EC
(1785794362.519371) can0 18FEF1F8#FF0000FFFFFFFFFF
(1785794362.520519) can0 18F005F8#7DFFFF7DFFFFFFFF
(1785794362.534822) can0 1CECFFF1#20120003FF19F000
(1785794362.535819) can0 1CEBFFF1#01000B0000000000
(1785794362.536822) can0 1CEBFFF1#0200000000000000
(1785794362.537798) can0 1CEBFFF1#0300F9B535FFFFFF
(1785794362.563840) can0 18F015F1#00004749495D46DF
(1785794362.578666) can0 18FF09D1#01000B00D314EC
(1785794362.619539) can0 18FEF1F8#FF0000FFFFFFFFFF
(1785794362.620701) can0 18F005F8#7DFFFF7DFFFFFFFF
(1785794362.634866) can0 1CECFFF1#20120003FF19F000
(1785794362.635836) can0 1CEBFFF1#01000B0000000000
(1785794362.636832) can0 1CEBFFF1#0200000000000000
(1785794362.637803) can0 1CEBFFF1#0300F9B535FFFFFF
(1785794362.663875) can0 18F015F1#00004749495D46DE
(1785794362.678742) can0 18FF09D1#01000B00D314EC
(1785794362.679077) can0 18FF14D1#
(1785794362.722491) can0 18FEF1F8#FF0000FFFFFFFFFF
(1785794362.724279) can0 18F005F8#7DFFFF7DFFFFFFFF
(1785794362.728140) can0 18ECFFFF#20100003FF13FF00
(1785794362.729441) can0 18EBFFFF#0100330F4871F410
(1785794362.730619) can0 18EBFFFF#024CA96400000000
(1785794362.731805) can0 18EBFFFF#03010BFFFFFFFFFF
(1785794362.734873) can0 1CECFFF1#20120003FF19F000
(1785794362.736040) can0 1CEBFFF1#01000B0000000000
(1785794362.736865) can0 1CEBFFF1#0200000000000000
(1785794362.737843) can0 1CEBFFF1#0300F9B535FFFFFF
(1785794362.763893) can0 18F015F1#00004749495C46DF
(1785794362.778852) can0 18FF09D1#01000B00D3DCEC
(1785794362.819403) can0 18FEF1F8#FF0000FFFFFFFFFF
(1785794362.820557) can0 18F005F8#7DFFFF7DFFFFFFFF
(1785794362.834871) can0 1CECFFF1#20120003FF19F000
(1785794362.835944) can0 1CEBFFF1#01000B0000000000
(1785794362.836861) can0 1CEBFFF1#0200000000000000
(1785794362.837823) can0 1CEBFFF1#0300F9B535FFFFFF
(1785794362.863836) can0 18F015F1#00004749495D46DF
(1785794362.878665) can0 18FF09D1#01000B00D3DCEC
(1785794362.919380) can0 18FEF1F8#FF0000FFFFFFFFFF
(1785794362.920524) can0 18F005F8#7DFFFF7DFFFFFFFF
(1785794362.934925) can0 1CECFFF1#20120003FF19F000
(1785794362.935860) can0 1CEBFFF1#01000B0000000000
(1785794362.936865) can0 1CEBFFF1#0200000000000000
(1785794362.937819) can0 1CEBFFF1#0300F9B535FFFFFF
(1785794362.964128) can0 18F015F1#00004749495D46DF
(1785794362.978787) can0 18FF09D1#01000B00D3DCEC
(1785794363.019599) can0 18FEF1F8#FF0000FFFFFFFFFF
(1785794363.020786) can0 18F005F8#7DFFFF7DFFFFFFFF
(1785794363.034901) can0 1CECFFF1#20120003FF19F000
(1785794363.035824) can0 1CEBFFF1#01000B0000000000
(1785794363.036820) can0 1CEBFFF1#0200000000000000
(1785794363.037799) can0 1CEBFFF1#0300F9B535FFFFFF
(1785794363.064131) can0 18F015F1#00004749495C46DE
(1785794363.074830) can0 18F017F1#EE3D06699A21
(1785794363.075191) can0 18F018F1#E88501D2910C
(1785794363.078804) can0 18FF09D1#01000B00D3DCEC
(1785794363.119365) can0 18FEF1F8#FF0000FFFFFFFFFF
(1785794363.120537) can0 18F005F8#7DFFFF7DFFFFFFFF
(1785794363.135836) can0 1CECFFF1#20120003FF19F000
(1785794363.136843) can0 1CEBFFF1#01000B0000000000
(1785794363.137838) can0 1CEBFFF1#0200000000000000
(1785794363.138817) can0 1CEBFFF1#0300F9B535FFFFFF
(1785794363.164828) can0 18F015F1#00004749495D46DF
(1785794363.178681) can0 18FF09D1#01000B00D3DCEC
(1785794363.179011) can0 18FF14D1#
(1785794363.220501) can0 18FEF1F8#FF0000FFFFFFFFFF
(1785794363.221682) can0 18F005F8#7DFFFF7DFFFFFFFF
(1785794363.222835) can0 18ECFFFF#20100003FF13FF00
(1785794363.223976) can0 18EBFFFF#0100330F4871F410
(1785794363.225111) can0 18EBFFFF#024CA96400000000
(1785794363.226260) can0 18EBFFFF#03010BFFFFFFFFFF
(1785794363.235842) can0 1CECFFF1#20120003FF19F000
(1785794363.236845) can0 1CEBFFF1#01000B0000000000
(1785794363.237851) can0 1CEBFFF1#0200000000000000
(1785794363.238820) can0 1CEBFFF1#0300F9B535FFFFFF
(1785794363.264824) can0 18F015F1#00004749495D46DF
(1785794363.278640) can0 18FF09D1#01000B00D314EC
(1785794363.319844) can0 18FEF1F8#FF0000FFFFFFFFFF
(1785794363.321347) can0 18F005F8#7DFFFF7DFFFFFFFF
(1785794363.335985) can0 1CECFFF1#20120003FF19F000
(1785794363.336827) can0 1CEBFFF1#01000B0000000000
(1785794363.337825) can0 1CEBFFF1#0200000000000000
(1785794363.338801) can0 1CEBFFF1#0300F9B535FFFFFF
(1785794363.364837) can0 18F015F1#0000474A495D46DE
(1785794363.378703) can0 18FF09D1#01000B00D314EC
(1785794363.419374) can0 18FEF1F8#FF0000FFFFFFFFFF
(1785794363.420527) can0 18F005F8#7DFFFF7DFFFFFFFF
(1785794363.435887) can0 1CECFFF1#20120003FF19F000
(1785794363.436833) can0 1CEBFFF1#01000B0000000000
(1785794363.437829) can0 1CEBFFF1#0200000000000000
(1785794363.438846) can0 1CEBFFF1#0300FAB475FFFFFF
(1785794363.464851) can0 18F015F1#0000474A495D46DF
(1785794363.478585) can0 18FF09D1#01000B00D314EC
(1785794363.519477) can0 18FEF1F8#FF0000FFFFFFFFFF
(1785794363.520632) can0 18F005F8#7DFFFF7DFFFFFFFF
(1785794363.535948) can0 1CECFFF1#20120003FF19F000
(1785794363.536840) can0 1CEBFFF1#01000B0000000000
(1785794363.537877) can0 1CEBFFF1#0200000000000000
(1785794363.538825) can0 1CEBFFF1#0300FAB475FFFFFF
(1785794363.564878) can0 18F015F1#0000474A495C46DF
(1785794363.578607) can0 18FF09D1#01000B00D314EC
(1785794363.619628) can0 18FEF1F8#FF0000FFFFFFFFFF
(1785794363.620775) can0 18F005F8#7DFFFF7DFFFFFFFF
(1785794363.636097) can0 1CECFFF1#20120003FF19F000
(1785794363.636897) can0 1CEBFFF1#01000B0000000000
(1785794363.638070) can0 1CEBFFF1#0200000000000000
(1785794363.638828) can0 1CEBFFF1#0300FAB475FFFFFF
(1785794363.664944) can0 18F015F1#0000474A495D46DF
(1785794363.678656) can0 18FF09D1#01000B00D314EC
(1785794363.678918) can0 18FF14D1#
(1785794363.720825) can0 18FEF1F8#FF0000FFFFFFFFFF
(1785794363.722257) can0 18F005F8#7DFFFF7DFFFFFFFF
(1785794363.726677) can0 18ECFFFF#20100003FF13FF00
(1785794363.727832) can0 18EBFFFF#0100330F4871F410
(1785794363.729068) can0 18EBFFFF#024CA96400000000
(1785794363.730312) can0 18EBFFFF#03010BFFFFFFFFFF
(1785794363.735878) can0 1CECFFF1#20120003FF19F000
(1785794363.736856) can0 1CEBFFF1#01000B0000000000
(1785794363.737832) can0 1CEBFFF1#0200000000000000
(1785794363.738829) can0 1CEBFFF1#0300FAB475FFFFFF
(1785794363.764854) can0 18F015F1#0000474A495D46DF
(1785794363.778648) can0 18FF09D1#01000B00D314EC
(1785794363.819407) can0 18FEF1F8#FF0000FFFFFFFFFF
(1785794363.820590) can0 18F005F8#7DFFFF7DFFFFFFFF
(1785794363.835869) can0 1CECFFF1#20120003FF19F000
(1785794363.836838) can0 1CEBFFF1#01000B0000000000
(1785794363.837846) can0 1CEBFFF1#0200000000000000
(1785794363.838814) can0 1CEBFFF1#0300FAB475FFFFFF
(1785794363.864858) can0 18F015F1#0000474A495C46DF
(1785794363.878693) can0 18FF09D1#01000B00D314EC
(1785794363.919459) can0 18FEF1F8#FF0000FFFFFFFFFF
(1785794363.920608) can0 18F005F8#7DFFFF7DFFFFFFFF
(1785794363.936967) can0 1CECFFF1#20120003FF19F000
(1785794363.937870) can0 1CEBFFF1#01000B0000000000
(1785794363.938856) can0 1CEBFFF1#0200000000000000
(1785794363.939832) can0 1CEBFFF1#0300FAB475FFFFFF
(1785794363.966214) can0 18F015F1#0000474A495D46DF
(1785794363.978763) can0 18FF09D1#01000B00D314EC
(1785794364.019371) can0 18FEF1F8#FF0000FFFFFFFFFF
(1785794364.020539) can0 18F005F8#7DFFFF7DFFFFFFFF
(1785794364.036909) can0 1CECFFF1#20120003FF19F000
(1785794364.037855) can0 1CEBFFF1#01000B0000000000
(1785794364.038886) can0 1CEBFFF1#0200000000000000
(1785794364.040161) can0 1CEBFFF1#0300FAB475FFFFFF
(1785794364.066591) can0 18F015F1#0000474A495D46DF
(1785794364.075765) can0 18F017F1#EE3D06699A21
(1785794364.076205) can0 18F018F1#E88501D2910C
(1785794364.078574) can0 18FF09D1#01000B00D314EC
(1785794364.119383) can0 18FEF1F8#FF0000FFFFFFFFFF
(1785794364.120534) can0 18F005F8#7DFFFF7DFFFFFFFF
(1785794364.136853) can0 1CECFFF1#20120003FF19F000
(1785794364.137870) can0 1CEBFFF1#01000B0000000000
(1785794364.138839) can0 1CEBFFF1#0200000000000000
(1785794364.139814) can0 1CEBFFF1#0300FAB475FFFFFF
(1785794364.165930) can0 18F015F1#0000474A495C46DE
(1785794364.178764) can0 18FF09D1#01000B00D314EC
(1785794364.179149) can0 18FF14D1#
(1785794364.219936) can0 18FEF1F8#FF0000FFFFFFFFFF
(1785794364.221161) can0 18F005F8#7DFFFF7DFFFFFFFF
(1785794364.222360) can0 18ECFFFF#20100003FF13FF00
(1785794364.223534) can0 18EBFFFF#0100330F4871F410
(1785794364.224670) can0 18EBFFFF#024CA96400000000
(1785794364.225822) can0 18EBFFFF#03010BFFFFFFFFFF
(1785794364.236878) can0 1CECFFF1#20120003FF19F000
(1785794364.237867) can0 1CEBFFF1#01000B0000000000
(1785794364.238848) can0 1CEBFFF1#0200000000000000
(1785794364.239843) can0 1CEBFFF1#0300FAB475FFFFFF
(1785794364.265931) can0 18F015F1#0000474A495D46DF
(1785794364.278608) can0 18FF09D1#01000B00D314EC
(1785794364.319937) can0 18FEF1F8#FF0000FFFFFFFFFF
(1785794364.321466) can0 18F005F8#7DFFFF7DFFFFFFFF
(1785794364.336940) can0 1CECFFF1#20120003FF19F000
(1785794364.337847) can0 1CEBFFF1#01000B0000000000
(1785794364.338832) can0 1CEBFFF1#0200000000000000
(1785794364.339807) can0 1CEBFFF1#0300FAB475FFFFFF
(1785794364.365901) can0 18F015F1#0000474A495D46DF
(1785794364.379981) can0 18FF09D1#01000B00D314EC
(1785794364.419852) can0 18FEF1F8#FF0000FFFFFFFFFF
(1785794364.421055) can0 18F005F8#7DFFFF7DFFFFFFFF
(1785794364.436899) can0 1CECFFF1#20120003FF19F000
(1785794364.437861) can0 1CEBFFF1#01000B0000000000
(1785794364.438852) can0 1CEBFFF1#0200000000000000
(1785794364.439827) can0 1CEBFFF1#0300FAB475FFFFFF
(1785794364.465819) can0 18F015F1#0000474A495C46DF
(1785794364.478586) can0 18FF09D1#01000B00D314EC
(1785794364.519369) can0 18FEF1F8#FF0000FFFFFFFFFF
(1785794364.520534) can0 18F005F8#7DFFFF7DFFFFFFFF
(1785794364.536855) can0 1CECFFF1#20120003FF19F000
(1785794364.537846) can0 1CEBFFF1#01000B0000000000
(1785794364.538845) can0 1CEBFFF1#0200000000000000
(1785794364.539823) can0 1CEBFFF1#0300FAB475FFFFFF
(1785794364.565863) can0 18F015F1#0000474A495D46DF
(1785794364.578584) can0 18FF09D1#01000B00D314EC
(1785794364.619640) can0 18FEF1F8#FF0000FFFFFFFFFF
(1785794364.620953) can0 18F005F8#7DFFFF7DFFFFFFFF
(1785794364.637061) can0 1CECFFF1#20120003FF19F000
(1785794364.637855) can0 1CEBFFF1#01000B0000000000
(1785794364.638878) can0 1CEBFFF1#0200000000000000
(1785794364.639843) can0 1CEBFFF1#0300FB74B4FFFFFF
(1785794364.667094) can0 18F015F1#0000474B495D46DF
(1785794364.678676) can0 18FF09D1#01000B00D314EC
(1785794364.679105) can0 18FF14D1#
(1785794364.722648) can0 18FEF1F8#FF0000FFFFFFFFFF
(1785794364.724802) can0 18F005F8#7DFFFF7DFFFFFFFF
(1785794364.727735) can0 18ECFFFF#20100003FF13FF00
(1785794364.729449) can0 18EBFFFF#0100330F4871F410
(1785794364.730718) can0 18EBFFFF#024CA96400000000
(1785794364.731932) can0 18EBFFFF#03010BFFFFFFFFFF
(1785794364.737886) can0 1CECFFF1#20120003FF19F000
(1785794364.738840) can0 1CEBFFF1#01000B0000000000
(1785794364.739838) can0 1CEBFFF1#0200000000000000
(1785794364.740811) can0 1CEBFFF1#0300FB74B4FFFFFF
(1785794364.766858) can0 18F015F1#0000474B495C46DF
(1785794364.778633) can0 18FF09D1#01000B00D314EC
(1785794364.819453) can0 18FEF1F8#FF0000FFFFFFFFFF
(1785794364.820718) can0 18F005F8#7DFFFF7DFFFFFFFF
(1785794364.837912) can0 1CECFFF1#20120003FF19F000
(1785794364.838880) can0 1CEBFFF1#01000B0000000000
(1785794364.839866) can0 1CEBFFF1#0200000000000000
(1785794364.840818) can0 1CEBFFF1#0300FB74B4FFFFFF
(1785794364.866885) can0 18F015F1#0000474B495C46DF
(1785794364.878590) can0 18FF09D1#01000B00D314EC
(1785794364.919361) can0 18FEF1F8#FF0000FFFFFFFFFF
(1785794364.920575) can0 18F005F8#7DFFFF7DFFFFFFFF
(1785794364.937915) can0 1CECFFF1#20120003FF19F000
(1785794364.938852) can0 1CEBFFF1#01000B0000000000
(1785794364.939858) can0 1CEBFFF1#0200000000000000
(1785794364.940841) can0 1CEBFFF1#0300FB74B4FFFFFF
(1785794364.966924) can0 18F015F1#0000474B495C46DF
(1785794364.978830) can0 18FF09D1#01000B00D314EC
(1785794365.019506) can0 18FEF1F8#FF0000FFFFFFFFFF
(1785794365.020616) can0 18F005F8#7DFFFF7DFFFFFFFF
(1785794365.037882) can0 1CECFFF1#20120003FF19F000
(1785794365.038856) can0 1CEBFFF1#01000B0000000000
(1785794365.039854) can0 1CEBFFF1#0200000000000000
(1785794365.040834) can0 1CEBFFF1#0300FB74B4FFFFFF
(1785794365.066875) can0 18F015F1#0000474B495C46DF
(1785794365.077860) can0 18F017F1#EE9F06D29A43
(1785794365.078394) can0 18F018F1#E68900DD8F55
(1785794365.078722) can0 18FF09D1#01000B00D314EC
(1785794365.119337) can0 18FEF1F8#FF0000FFFFFFFFFF
(1785794365.120528) can0 18F005F8#7DFFFF7DFFFFFFFF
(1785794365.137859) can0 1CECFFF1#20120003FF19F000
(1785794365.138853) can0 1CEBFFF1#01000B0000000000
(1785794365.139844) can0 1CEBFFF1#0200000000000000
(1785794365.140820) can0 1CEBFFF1#0300FB74B4FFFFFF
(1785794365.166836) can0 18F015F1#0000474B495C46DF
(1785794365.178608) can0 18FF09D1#01000B00D314EC
(1785794365.178879) can0 18FF14D1#
(1785794365.219451) can0 18FEF1F8#FF0000FFFFFFFFFF
(1785794365.220786) can0 18F005F8#7DFFFF7DFFFFFFFF
(1785794365.221940) can0 18ECFFFF#20100003FF13FF00
(1785794365.223054) can0 18EBFFFF#0100330F4871F410
(1785794365.224171) can0 18EBFFFF#024CA96400000000
(1785794365.225308) can0 18EBFFFF#03010BFFFFFFFFFF
(1785794365.237848) can0 1CECFFF1#20120003FF19F000
(1785794365.238839) can0 1CEBFFF1#01000B0000000000
(1785794365.239836) can0 1CEBFFF1#0200000000000000
(1785794365.240814) can0 1CEBFFF1#0300FB74B4FFFFFF
(1785794365.266879) can0 18F015F1#0000474B495C46DF
(1785794365.278675) can0 18FF09D1#01000B00D3B0EB
(1785794365.319678) can0 18FEF1F8#FF0000FFFFFFFFFF
(1785794365.321206) can0 18F005F8#7DFFFF7DFFFFFFFF
(1785794365.337878) can0 1CECFFF1#20120003FF19F000
(1785794365.338856) can0 1CEBFFF1#01000B0000000000
(1785794365.339840) can0 1CEBFFF1#0200000000000000
(1785794365.340814) can0 1CEBFFF1#0300FB74B4FFFFFF
(1785794365.366832) can0 18F015F1#0000474B495C46DF
(1785794365.378568) can0 18FF09D1#01000B00D3B0EB
(1785794365.419397) can0 18FEF1F8#FF0000FFFFFFFFFF
(1785794365.420559) can0 18F005F8#7DFFFF7DFFFFFFFF
(1785794365.438849) can0 1CECFFF1#20120003FF19F000
(1785794365.439850) can0 1CEBFFF1#01000B0000000000
(1785794365.440844) can0 1CEBFFF1#0200000000000000
(1785794365.441813) can0 1CEBFFF1#0300FB74B4FFFFFF
(1785794365.467840) can0 18F015F1#0000474B495C46DF
(1785794365.478537) can0 18FF09D1#01000B00D3B0EB
(1785794365.519512) can0 18FEF1F8#FF0000FFFFFFFFFF
(1785794365.520781) can0 18F005F8#7DFFFF7DFFFFFFFF
(1785794365.538909) can0 1CECFFF1#20120003FF19F000
(1785794365.539848) can0 1CEBFFF1#01000B0000000000
(1785794365.540856) can0 1CEBFFF1#0200000000000000
(1785794365.541835) can0 1CEBFFF1#0300FB74B4FFFFFF
(1785794365.567855) can0 18F015F1#0000474C495C46DF
(1785794365.578574) can0 18FF09D1#01000B00D3B0EB
(1785794365.619451) can0 18FEF1F8#FF0000FFFFFFFFFF
(1785794365.620640) can0 18F005F8#7DFFFF7DFFFFFFFF
(1785794365.638934) can0 1CECFFF1#20120003FF19F000
(1785794365.639853) can0 1CEBFFF1#01000B0000000000
(1785794365.640910) can0 1CEBFFF1#0200000000000000
(1785794365.641852) can0 1CEBFFF1#0300FCB6F5FFFFFF
(1785794365.667938) can0 18F015F1#0000474C495C46DF
(1785794365.678659) can0 18FF09D1#01000B00D3B0EB
(1785794365.679108) can0 18FF14D1#
(1785794365.719791) can0 18FEF1F8#FF0000FFFFFFFFFF
(1785794365.721416) can0 18F005F8#7DFFFF7DFFFFFFFF
(1785794365.725001) can0 18ECFFFF#20100003FF13FF00
(1785794365.726208) can0 18EBFFFF#0100330F4871F410
(1785794365.727376) can0 18EBFFFF#024CA96400000000
(1785794365.728573) can0 18EBFFFF#03010BFFFFFFFFFF
(1785794365.739037) can0 1CECFFF1#20120003FF19F000
(1785794365.739951) can0 1CEBFFF1#01000B0000000000
(1785794365.740970) can0 1CEBFFF1#0200000000000000
(1785794365.741895) can0 1CEBFFF1#0300FCB6F5FFFFFF
(1785794365.767875) can0 18F015F1#0000474C495D46DF
(1785794365.778579) can0 18FF09D1#01000B00D3B0EB
(1785794365.819382) can0 18FEF1F8#FF0000FFFFFFFFFF
(1785794365.820536) can0 18F005F8#7DFFFF7DFFFFFFFF
(1785794365.838884) can0 1CECFFF1#20120003FF19F000
(1785794365.839849) can0 1CEBFFF1#01000B0000000000
(1785794365.840863) can0 1CEBFFF1#0200000000000000
(1785794365.841834) can0 1CEBFFF1#0300FCB6F5FFFFFF
(1785794365.867880) can0 18F015F1#0000474C495D46DF
(1785794365.878576) can0 18FF09D1#01000B00D3B0EB
(1785794365.919372) can0 18FEF1F8#FF0000FFFFFFFFFF
(1785794365.920552) can0 18F005F8#7DFFFF7DFFFFFFFF
(1785794365.938920) can0 1CECFFF1#20120003FF19F000
(1785794365.939861) can0 1CEBFFF1#01000B0000000000
(1785794365.940851) can0 1CEBFFF1#0200000000000000
(1785794365.941836) can0 1CEBFFF1#0300FCB6F5FFFFFF
(1785794365.968019) can0 18F015F1#0000474C495D46DF
(1785794365.978644) can0 18FF09D1#01000B00D3B0EB
(1785794366.019616) can0 18FEF1F8#FF0000FFFFFFFFFF
(1785794366.020817) can0 18F005F8#7DFFFF7DFFFFFFFF
(1785794366.039059) can0 1CECFFF1#20120003FF19F000
(1785794366.039879) can0 1CEBFFF1#01000B0000000000
(1785794366.040864) can0 1CEBFFF1#0200000000000000
(1785794366.041844) can0 1CEBFFF1#0300FCB6F5FFFFFF
(1785794366.067883) can0 18F015F1#0000474C495D46DF
(1785794366.078671) can0 18FF09D1#01000B00D3B0EB
(1785794366.079154) can0 18F017F1#EE9F06D29A43
(1785794366.079457) can0 18F018F1#E68900DD8F55
(1785794366.119363) can0 18FEF1F8#FF0000FFFFFFFFFF
(1785794366.120510) can0 18F005F8#7DFFFF7DFFFFFFFF
(1785794366.138868) can0 1CECFFF1#20120003FF19F000
(1785794366.139864) can0 1CEBFFF1#01000B0000000000
(1785794366.140868) can0 1CEBFFF1#0200000000000000
(1785794366.141851) can0 1CEBFFF1#0300FCB6F5FFFFFF
(1785794366.167852) can0 18F015F1#0000474C495D46DF
(1785794366.178722) can0 18FF09D1#01000B00D3B0EB
(1785794366.178990) can0 18FF14D1#
(1785794366.179482) can0 18FF16D1#01000B0064
(1785794366.220435) can0 18FEF1F8#FF0000FFFFFFFFFF
(1785794366.221626) can0 18F005F8#7DFFFF7DFFFFFFFF
(1785794366.222769) can0 18ECFFFF#20100003FF13FF00
(1785794366.223888) can0 18EBFFFF#0100330F4871F410
(1785794366.225017) can0 18EBFFFF#024CA96400000000
(1785794366.226166) can0 18EBFFFF#03010BFFFFFFFFFF
(1785794366.239854) can0 1CECFFF1#20120003FF19F000
(1785794366.240854) can0 1CEBFFF1#01000B0000000000
(1785794366.241854) can0 1CEBFFF1#0200000000000000
(1785794366.242839) can0 1CEBFFF1#0300FCB6F5FFFFFF
(1785794366.268907) can0 18F015F1#0000474C495D46DF
(1785794366.278540) can0 18FF09D1#01000B00D3B0EB
(1785794366.319751) can0 18FEF1F8#FF0000FFFFFFFFFF
(1785794366.321151) can0 18F005F8#7DFFFF7DFFFFFFFF
(1785794366.340014) can0 1CECFFF1#20120003FF19F000
(1785794366.341080) can0 1CEBFFF1#01000B0000000000
(1785794366.341895) can0 1CEBFFF1#0200000000000000
(1785794366.342923) can0 1CEBFFF1#0300FCB6F5FFFFFF
(1785794366.368882) can0 18F015F1#0000474C495D46DF
(1785794366.378561) can0 18FF09D1#01000B00D3B0EB
(1785794366.419731) can0 18FEF1F8#FF0000FFFFFFFFFF
(1785794366.420934) can0 18F005F8#7DFFFF7DFFFFFFFF
(1785794366.439896) can0 1CECFFF1#20120003FF19F000
(1785794366.440865) can0 1CEBFFF1#01000B0000000000
(1785794366.441853) can0 1CEBFFF1#0200000000000000
(1785794366.442838) can0 1CEBFFF1#0300FCB6F5FFFFFF
(1785794366.468903) can0 18F015F1#0000474C495D46DF
(1785794366.478556) can0 18FF09D1#01000B00D3B0EB
(1785794366.519382) can0 18FEF1F8#FF0000FFFFFFFFFF
(1785794366.520523) can0 18F005F8#7DFFFF7DFFFFFFFF
(1785794366.539860) can0 1CECFFF1#20120003FF19F000
(1785794366.540854) can0 1CEBFFF1#01000B0000000000
(1785794366.541855) can0 1CEBFFF1#0200000000000000
(1785794366.542844) can0 1CEBFFF1#0300FCB6F5FFFFFF
(1785794366.568854) can0 18F015F1#0000474C495D46DF
(1785794366.578523) can0 18FF09D1#01000B00D3B0EB
(1785794366.619582) can0 18FEF1F8#FF0000FFFFFFFFFF
(1785794366.620924) can0 18F005F8#7DFFFF7DFFFFFFFF
(1785794366.640023) can0 1CECFFF1#20120003FF19F000
(1785794366.640879) can0 1CEBFFF1#01000B0000000000
(1785794366.641970) can0 1CEBFFF1#0200000000000000
(1785794366.642845) can0 1CEBFFF1#0300FCB6F5FFFFFF
(1785794366.669111) can0 18F015F1#0000474C495D46DF
(1785794366.678694) can0 18FF09D1#01000B00D3B0EB
(1785794366.679216) can0 18FF14D1#
(1785794366.720457) can0 18FEF1F8#FF0000FFFFFFFFFF
(1785794366.721939) can0 18F005F8#7DFFFF7DFFFFFFFF
(1785794366.724693) can0 18ECFFFF#20100003FF13FF00
(1785794366.726043) can0 18EBFFFF#0100330F4871F410
(1785794366.727489) can0 18EBFFFF#024CA96400000000
(1785794366.730278) can0 18EBFFFF#03010BFFFFFFFFFF
(1785794366.739885) can0 1CECFFF1#20120003FF19F000
(1785794366.740882) can0 1CEBFFF1#01000B0000000000
(1785794366.741875) can0 1CEBFFF1#0200000000000000
(1785794366.742911) can0 1CEBFFF1#0300FD7634FFFFFF
(1785794366.768884) can0 18F015F1#0000474D495D46DF
(1785794366.778523) can0 18FF09D1#01000B00D3B0EB
(1785794366.819434) can0 18FEF1F8#FF0000FFFFFFFFFF
(1785794366.820573) can0 18F005F8#7DFFFF7DFFFFFFFF
(1785794366.839896) can0 1CECFFF1#20120003FF19F000
(1785794366.840857) can0 1CEBFFF1#01000B0000000000
(1785794366.841856) can0 1CEBFFF1#0200000000000000
(1785794366.842833) can0 1CEBFFF1#0300FD7634FFFFFF
(1785794366.868886) can0 18F015F1#0000474D495D46DF
(1785794366.878571) can0 18FF09D1#01000B00D3B0EB
(1785794366.919396) can0 18FEF1F8#FF0000FFFFFFFFFF
(1785794366.920563) can0 18F005F8#7DFFFF7DFFFFFFFF
(1785794366.939881) can0 1CECFFF1#20120003FF19F000
(1785794366.940867) can0 1CEBFFF1#01000B0000000000
(1785794366.941856) can0 1CEBFFF1#0200000000000000
(1785794366.942845) can0 1CEBFFF1#0300FD7634FFFFFF
(1785794366.969038) can0 18F015F1#0000474D495D46DE
(1785794366.978720) can0 18FF09D1#01000B00D3B0EB
(1785794367.019557) can0 18FEF1F8#FF0000FFFFFFFFFF
(1785794367.020699) can0 18F005F8#7DFFFF7DFFFFFFFF
(1785794367.040890) can0 1CECFFF1#20120003FF19F000
(1785794367.041854) can0 1CEBFFF1#01000B0000000000
(1785794367.042969) can0 1CEBFFF1#0200000000000000
(1785794367.043871) can0 1CEBFFF1#0300FD7634FFFFFF
(1785794367.070157) can0 18F015F1#0000474D495D46DF
(1785794367.078693) can0 18FF09D1#01000B00D3B0EB
(1785794367.079901) can0 18F017F1#EE2A061B9A03
(1785794367.080329) can0 18F018F1#E7C600BE8FFF
(1785794367.119363) can0 18FEF1F8#FF0000FFFFFFFFFF
(1785794367.120503) can0 18F005F8#7DFFFF7DFFFFFFFF
(1785794367.140862) can0 1CECFFF1#20120003FF19F000
(1785794367.141857) can0 1CEBFFF1#01000B0000000000
(1785794367.142856) can0 1CEBFFF1#0200000000000000
(1785794367.143835) can0 1CEBFFF1#0300FD7634FFFFFF
(1785794367.169895) can0 18F015F1#0000474D495D46DF
(1785794367.178897) can0 18FF09D1#01000B00D3B0EB
(1785794367.179193) can0 18FF14D1#
(1785794367.220627) can0 18FEF1F8#FF0000FFFFFFFFFF
(1785794367.221777) can0 18F005F8#7DFFFF7DFFFFFFFF
(1785794367.222892) can0 18ECFFFF#20100003FF13FF00
(1785794367.223993) can0 18EBFFFF#0100330F4871F410
(1785794367.225100) can0 18EBFFFF#024CA96400000000
(1785794367.226224) can0 18EBFFFF#03010BFFFFFFFFFF
(1785794367.240851) can0 1CECFFF1#20120003FF19F000
(1785794367.241859) can0 1CEBFFF1#01000B0000000000
(1785794367.242854) can0 1CEBFFF1#0200000000000000
(1785794367.243835) can0 1CEBFFF1#0300FD7634FFFFFF
(1785794367.269863) can0 18F015F1#0000474D495C46DE
(1785794367.278529) can0 18FF09D1#01000B00D3DCEC
(1785794367.319864) can0 18FEF1F8#FF0000FFFFFFFFFF
(1785794367.321279) can0 18F005F8#7DFFFF7DFFFFFFFF
(1785794367.340959) can0 1CECFFF1#20120003FF19F000
(1785794367.341860) can0 1CEBFFF1#01000B0000000000
(1785794367.342857) can0 1CEBFFF1#0200000000000000
(1785794367.343831) can0 1CEBFFF1#0300FD7634FFFFFF
(1785794367.369901) can0 18F015F1#0000474D495D46DF
(1785794367.378504) can0 18FF09D1#01000B00D3DCEC
(1785794367.419555) can0 18FEF1F8#FF0000FFFFFFFFFF
(1785794367.420857) can0 18F005F8#7DFFFF7DFFFFFFFF
(1785794367.440878) can0 1CECFFF1#20120003FF19F000
(1785794367.441859) can0 1CEBFFF1#01000B0000000000
(1785794367.442856) can0 1CEBFFF1#0200000000000000
(1785794367.443836) can0 1CEBFFF1#0300FD7634FFFFFF
(1785794367.469857) can0 18F015F1#0000474D495D46DF
(1785794367.478470) can0 18FF09D1#01000B00D3DCEC
(1785794367.519495) can0 18FEF1F8#FF0000FFFFFFFFFF
(1785794367.520670) can0 18F005F8#7DFFFF7DFFFFFFFF
(1785794367.540934) can0 1CECFFF1#20120003FF19F000
(1785794367.541917) can0 1CEBFFF1#01000B0000000000
(1785794367.542888) can0 1CEBFFF1#0200000000000000
(1785794367.543845) can0 1CEBFFF1#0300FD7634FFFFFF
(1785794367.569872) can0 18F015F1#0000474E495C46DE
(1785794367.578494) can0 18FF09D1#01000B00D3DCEC
(1785794367.619436) can0 18FEF1F8#FF0000FFFFFFFFFF
(1785794367.620648) can0 18F005F8#7DFFFF7DFFFFFFFF
(1785794367.642146) can0 1CECFFF1#20120003FF19F000
(1785794367.642937) can0 1CEBFFF1#01000B0000000000
(1785794367.643934) can0 1CEBFFF1#0200000000000000
(1785794367.644922) can0 1CEBFFF1#0300FD7634FFFFFF
(1785794367.671065) can0 18F015F1#0000474D495D46DF
(1785794367.679403) can0 18FF09D1#01000B00D3DCEC
(1785794367.680117) can0 18FF14D1#
(1785794367.719913) can0 18FEF1F8#FF0000FFFFFFFFFF
(1785794367.721248) can0 18F005F8#7DFFFF7DFFFFFFFF
(1785794367.725318) can0 18ECFFFF#20100003FF13FF00
(1785794367.726493) can0 18EBFFFF#0100330F4871F410
(1785794367.727611) can0 18EBFFFF#024CA96400000000
(1785794367.728810) can0 18EBFFFF#03010BFFFFFFFFFF
(1785794367.742075) can0 1CECFFF1#20120003FF19F000
(1785794367.742869) can0 1CEBFFF1#01000B0000000000
(1785794367.743902) can0 1CEBFFF1#0200000000000000
(1785794367.744854) can0 1CEBFFF1#0300FD7634FFFFFF
(1785794367.770921) can0 18F015F1#0000474E495D46DF
(1785794367.778555) can0 18FF09D1#01000B00D314EC
(1785794367.819380) can0 18FEF1F8#FF0000FFFFFFFFFF
(1785794367.820607) can0 18F005F8#7DFFFF7DFFFFFFFF
(1785794367.841953) can0 1CECFFF1#20120003FF19F000
(1785794367.842897) can0 1CEBFFF1#01000B0000000000
(1785794367.843873) can0 1CEBFFF1#0200000000000000
(1785794367.844843) can0 1CEBFFF1#0300FE7774FFFFFF
(1785794367.870888) can0 18F015F1#0000474E495D46DF
(1785794367.878469) can0 18FF09D1#01000B00D314EC
(1785794367.919456) can0 18FEF1F8#FF0000FFFFFFFFFF
(1785794367.920680) can0 18F005F8#7DFFFF7DFFFFFFFF
(1785794367.941900) can0 1CECFFF1#20120003FF19F000
(1785794367.942880) can0 1CEBFFF1#01000B0000000000
(1785794367.943877) can0 1CEBFFF1#0200000000000000
(1785794367.944893) can0 1CEBFFF1#0300FE7774FFFFFF
(1785794367.970911) can0 18F015F1#0000474E495D46DF
(1785794367.978977) can0 18FF09D1#01000B00D314EC
(1785794368.020165) can0 18FEF1F8#FF0000FFFFFFFFFF
(1785794368.021590) can0 18F005F8#7DFFFF7DFFFFFFFF
(1785794368.042035) can0 1CECFFF1#20120003FF19F000
(1785794368.042876) can0 1CEBFFF1#01000B0000000000
(1785794368.043941) can0 1CEBFFF1#0200000000000000
(1785794368.044840) can0 1CEBFFF1#0300FE7774FFFFFF
(1785794368.070975) can0 18F015F1#0000474E495D46DF
(1785794368.078496) can0 18FF09D1#01000B00D314EC
(1785794368.081919) can0 18F017F1#EE2A061B9A03
(1785794368.082261) can0 18F018F1#E7C600BE8FFF
(1785794368.119376) can0 18FEF1F8#FF0000FFFFFFFFFF
(1785794368.120521) can0 18F005F8#7DFFFF7DFFFFFFFF
(1785794368.141872) can0 1CECFFF1#20120003FF19F000
(1785794368.142874) can0 1CEBFFF1#01000B0000000000
(1785794368.143863) can0 1CEBFFF1#0200000000000000
(1785794368.144839) can0 1CEBFFF1#0300FE7774FFFFFF
(1785794368.170854) can0 18F015F1#0000474E495D46DE
(1785794368.178648) can0 18FF09D1#01000B00D314EC
(1785794368.178914) can0 18FF14D1#
(1785794368.179314) can0 18FF16D1#01000B0064
(1785794368.220878) can0 18FEF1F8#FF0000FFFFFFFFFF
(1785794368.222057) can0 18F005F8#7DFFFF7DFFFFFFFF
(1785794368.223178) can0 18ECFFFF#20100003FF13FF00
(1785794368.224286) can0 18EBFFFF#0100330F4871F410
(1785794368.225400) can0 18EBFFFF#024CA96400000000
(1785794368.226534) can0 18EBFFFF#03010BFFFFFFFFFF
(1785794368.241867) can0 1CECFFF1#20120003FF19F000
(1785794368.242867) can0 1CEBFFF1#01000B0000000000
(1785794368.243861) can0 1CEBFFF1#0200000000000000
(1785794368.244837) can0 1CEBFFF1#0300FE7774FFFFFF
(1785794368.270853) can0 18F015F1#0000474E495D46DF
(1785794368.278491) can0 18FF09D1#01000B00D3DCEC
(1785794368.319891) can0 18FEF1F8#FF0000FFFFFFFFFF
(1785794368.321400) can0 18F005F8#7DFFFF7DFFFFFFFF
(1785794368.341990) can0 1CECFFF1#20120003FF19F000
(1785794368.342878) can0 1CEBFFF1#01000B0000000000
(1785794368.343865) can0 1CEBFFF1#0200000000000000
(1785794368.344838) can0 1CEBFFF1#0300FE7774FFFFFF
(1785794368.370885) can0 18F015F1#0000474E495E46DF
(1785794368.378452) can0 18FF09D1#01000B00D3DCEC
(1785794368.420024) can0 18FEF1F8#FF0000FFFFFFFFFF
(1785794368.421471) can0 18F005F8#7DFFFF7DFFFFFFFF
(1785794368.442923) can0 1CECFFF1#20120003FF19F000
(1785794368.443901) can0 1CEBFFF1#01000B0000000000
(1785794368.444877) can0 1CEBFFF1#0200000000000000
(1785794368.445840) can0 1CEBFFF1#0300FE7774FFFFFF
(1785794368.471921) can0 18F015F1#0000474E495D46DE
(1785794368.478482) can0 18FF09D1#01000B00D3DCEC
(1785794368.519427) can0 18FEF1F8#FF0000FFFFFFFFFF
(1785794368.520646) can0 18F005F8#7DFFFF7DFFFFFFFF
(1785794368.542933) can0 1CECFFF1#20120003FF19F000
(1785794368.543888) can0 1CEBFFF1#01000B0000000000
(1785794368.544877) can0 1CEBFFF1#0200000000000000
(1785794368.545856) can0 1CEBFFF1#0300FE7774FFFFFF
(1785794368.571912) can0 18F015F1#0000474E495E46DF
(1785794368.578698) can0 18FF09D1#01000B00D3DCEC
(1785794368.619407) can0 18FEF1F8#FF0000FFFFFFFFFF
(1785794368.620540) can0 18F005F8#7DFFFF7DFFFFFFFF
(1785794368.643019) can0 1CECFFF1#20120003FF19F000
(1785794368.643881) can0 1CEBFFF1#01000B0000000000
(1785794368.644894) can0 1CEBFFF1#0200000000000000
(1785794368.645880) can0 1CEBFFF1#0300FE7774FFFFFF
(1785794368.672445) can0 18F015F1#0000474E495E46DF
(1785794368.678501) can0 18FF09D1#01000B00D3DCEC
(1785794368.678768) can0 18FF14D1#
(1785794368.720366) can0 18FEF1F8#FF0000FFFFFFFFFF
(1785794368.721581) can0 18F005F8#7DFFFF7DFFFFFFFF
(1785794368.722773) can0 18ECFFFF#20100003FF13FF00
(1785794368.723889) can0 18EBFFFF#0100330F4871F410
(1785794368.725009) can0 18EBFFFF#024CA96400000000
(1785794368.726298) can0 18EBFFFF#03010BFFFFFFFFFF
(1785794368.742873) can0 1CECFFF1#20120003FF19F000
(1785794368.743981) can0 1CEBFFF1#01000B0000000000
(1785794368.744931) can0 1CEBFFF1#0200000000000000
(1785794368.746005) can0 1CEBFFF1#0300FE7774FFFFFF
(1785794368.771908) can0 18F015F1#0000474E495E46DF
(1785794368.778491) can0 18FF09D1#01000B00D3DCEC
(1785794368.819403) can0 18FEF1F8#FF0000FFFFFFFFFF
(1785794368.820645) can0 18F005F8#7DFFFF7DFFFFFFFF
(1785794368.842929) can0 1CECFFF1#20120003FF19F000
(1785794368.844063) can0 1CEBFFF1#01000B0000000000
(1785794368.844876) can0 1CEBFFF1#0200000000000000
(1785794368.845849) can0 1CEBFFF1#0300FE7774FFFFFF
(1785794368.871906) can0 18F015F1#0000474F495E46DF
(1785794368.878421) can0 18FF09D1#01000B00D3DCEC
(1785794368.919444) can0 18FEF1F8#FF0000FFFFFFFFFF
(1785794368.920657) can0 18F005F8#7DFFFF7DFFFFFFFF
(1785794368.942919) can0 1CECFFF1#20120003FF19F000
(1785794368.943873) can0 1CEBFFF1#01000B0000000000
(1785794368.944869) can0 1CEBFFF1#0200000000000000
(1785794368.945934) can0 1CEBFFF1#0300FFB7B5FFFFFF
(1785794368.971919) can0 18F015F1#0000474F495E46DF
(1785794368.978536) can0 18FF09D1#01000B00D3DCEC
(1785794369.020229) can0 18FEF1F8#FF0000FFFFFFFFFF
(1785794369.021586) can0 18F005F8#7DFFFF7DFFFFFFFF
(1785794369.043055) can0 1CECFFF1#20120003FF19F000
(1785794369.043979) can0 1CEBFFF1#01000B0000000000
(1785794369.044922) can0 1CEBFFF1#0200000000000000
(1785794369.045890) can0 1CEBFFF1#0300FFB7B5FFFFFF
(1785794369.071981) can0 18F015F1#0000474F495D46DF
(1785794369.078442) can0 18FF09D1#01000B00D3DCEC
(1785794369.082964) can0 18F017F1#EE51070A9A70
(1785794369.083276) can0 18F018F1#E722013B90BC
(1785794369.119341) can0 18FEF1F8#FF0000FFFFFFFFFF
(1785794369.120458) can0 18F005F8#7DFFFF7DFFFFFFFF
(1785794369.142887) can0 1CECFFF1#20120003FF19F000
(1785794369.143871) can0 1CEBFFF1#01000B0000000000
(1785794369.144869) can0 1CEBFFF1#0200000000000000
(1785794369.145848) can0 1CEBFFF1#0300FFB7B5FFFFFF
(1785794369.171852) can0 18F015F1#0000474F495E46DF
(1785794369.178487) can0 18FF09D1#01000B00D3DCEC
(1785794369.178746) can0 18FF14D1#
(1785794369.219722) can0 18FEF1F8#FF0000FFFFFFFFFF
(1785794369.220953) can0 18F005F8#7DFFFF7DFFFFFFFF
(1785794369.222083) can0 18ECFFFF#20100003FF13FF00
(1785794369.223191) can0 18EBFFFF#0100330F4871F410
(1785794369.224301) can0 18EBFFFF#024CA96400000000
(1785794369.225419) can0 18EBFFFF#03010BFFFFFFFFFF
(1785794369.243873) can0 1CECFFF1#20120003FF19F000
(1785794369.244873) can0 1CEBFFF1#01000B0000000000
(1785794369.245868) can0 1CEBFFF1#0200000000000000
(1785794369.246876) can0 1CEBFFF1#0300FFB7B5FFFFFF
(1785794369.272860) can0 18F015F1#0000474F495E46DF
(1785794369.278461) can0 18FF09D1#01000B00D3DCEC
(1785794369.319556) can0 18FEF1F8#FF0000FFFFFFFFFF
(1785794369.320779) can0 18F005F8#7DFFFF7DFFFFFFFF
(1785794369.344393) can0 1CECFFF1#20120003FF19F000
(1785794369.345073) can0 1CEBFFF1#01000B0000000000
(1785794369.346102) can0 1CEBFFF1#0200000000000000
(1785794369.346883) can0 1CEBFFF1#0300FFB7B5FFFFFF
(1785794369.372913) can0 18F015F1#0000474F495D46DF
(1785794369.378439) can0 18FF09D1#01000B00D3DCEC
(1785794369.419480) can0 18FEF1F8#FF0000FFFFFFFFFF
(1785794369.420816) can0 18F005F8#7DFFFF7DFFFFFFFF
(1785794369.443906) can0 1CECFFF1#20120003FF19F000
(1785794369.444873) can0 1CEBFFF1#01000B0000000000
(1785794369.445872) can0 1CEBFFF1#0200000000000000
(1785794369.446852) can0 1CEBFFF1#0300FFB7B5FFFFFF
(1785794369.472897) can0 18F015F1#0000474F495E46DF
(1785794369.478420) can0 18FF09D1#01000B00D3DCEC
(1785794369.519545) can0 18FEF1F8#FF0000FFFFFFFFFF
(1785794369.520784) can0 18F005F8#7DFFFF7DFFFFFFFF
(1785794369.543937) can0 1CECFFF1#20120003FF19F000
(1785794369.544879) can0 1CEBFFF1#01000B0000000000
(1785794369.545872) can0 1CEBFFF1#0200000000000000
(1785794369.546864) can0 1CEBFFF1#0300FFB7B5FFFFFF
(1785794369.572902) can0 18F015F1#0000474F495D46DF
(1785794369.578448) can0 18FF09D1#01000B00D3DCEC
(1785794369.619408) can0 18FEF1F8#FF0000FFFFFFFFFF
(1785794369.620631) can0 18F005F8#7DFFFF7DFFFFFFFF
(1785794369.644036) can0 1CECFFF1#20120003FF19F000
(1785794369.644894) can0 1CEBFFF1#01000B0000000000
(1785794369.645952) can0 1CEBFFF1#0200000000000000
(1785794369.646893) can0 1CEBFFF1#0300FFB7B5FFFFFF
(1785794369.673013) can0 18F015F1#0000474F495D46DF
(1785794369.678527) can0 18FF09D1#01000B00D3DCEC
(1785794369.678866) can0 18FF14D1#
(1785794369.719586) can0 18FEF1F8#FF0000FFFFFFFFFF
(1785794369.720859) can0 18F005F8#7DFFFF7DFFFFFFFF
(1785794369.721978) can0 18ECFFFF#20100003FF13FF00
(1785794369.723071) can0 18EBFFFF#0100330F4871F410
(1785794369.724171) can0 18EBFFFF#024CA96400000000
(1785794369.725284) can0 18EBFFFF#03010BFFFFFFFFFF
(1785794369.743932) can0 1CECFFF1#20120003FF19F000
(1785794369.744899) can0 1CEBFFF1#01000B0000000000
(1785794369.745888) can0 1CEBFFF1#0200000000000000
(1785794369.746862) can0 1CEBFFF1#0300FFB7B5FFFFFF
(1785794369.772892) can0 18F015F1#0000474F495E46DF
(1785794369.778491) can0 18FF09D1#01000B00D3DCEC
(1785794369.819413) can0 18FEF1F8#FF0000FFFFFFFFFF
(1785794369.820666) can0 18F005F8#7DFFFF7DFFFFFFFF
(1785794369.843990) can0 1CECFFF1#20120003FF19F000
(1785794369.844889) can0 1CEBFFF1#01000B0000000000
(1785794369.845890) can0 1CEBFFF1#0200000000000000
(1785794369.846872) can0 1CEBFFF1#03010067F4FFFFFF
(1785794369.872903) can0 18F015F1#00004750495D46DF
(1785794369.878488) can0 18FF09D1#01000B00D3DCEC
(1785794369.919411) can0 18FEF1F8#FF0000FFFFFFFFFF
(1785794369.920612) can0 18F005F8#7DFFFF7DFFFFFFFF
(1785794369.943887) can0 1CECFFF1#20120003FF19F000
(1785794369.944906) can0 1CEBFFF1#01000B0000000000
(1785794369.945894) can0 1CEBFFF1#0200000000000000
(1785794369.946875) can0 1CEBFFF1#0300FFB7B5FFFFFF
(1785794369.973973) can0 18F015F1#0000474F495D46DF
(1785794369.978530) can0 18FF09D1#01000B00D3DCEC
(1785794370.019793) can0 18FEF1F8#FF0000FFFFFFFFFF
(1785794370.021763) can0 18F005F8#7DFFFF7DFFFFFFFF
(1785794370.045039) can0 1CECFFF1#20120003FF19F000
(1785794370.045900) can0 1CEBFFF1#01000B0000000000
(1785794370.047053) can0 1CEBFFF1#0200000000000000
(1785794370.047914) can0 1CEBFFF1#0300FFB7B5FFFFFF
(1785794370.074001) can0 18F015F1#00004750495E46DF
(1785794370.078413) can0 18FF09D1#01000B00D3DCEC
(1785794370.083764) can0 18F017F1#EE51070A9A70
(1785794370.084227) can0 18F018F1#E722013B90BC
(1785794370.119398) can0 18FEF1F8#FF0000FFFFFFFFFF
(1785794370.120603) can0 18F005F8#7DFFFF7DFFFFFFFF
(1785794370.144894) can0 1CECFFF1#20120003FF19F000
(1785794370.145889) can0 1CEBFFF1#01000B0000000000
(1785794370.146880) can0 1CEBFFF1#0200000000000000
(1785794370.147866) can0 1CEBFFF1#03010067F4FFFFFF
(1785794370.173900) can0 18F015F1#00004750495E46DF
(1785794370.178604) can0 18FF09D1#01000B00D3DCEC
(1785794370.178862) can0 18FF14D1#
(1785794370.179322) can0 18FF16D1#01000B0064
(1785794370.226836) can0 18FEF1F8#FF0000FFFFFFFFFF
(1785794370.227959) can0 18F005F8#7DFFFF7DFFFFFFFF
(1785794370.229079) can0 18ECFFFF#20100003FF13FF00
(1785794370.230215) can0 18EBFFFF#0100330F4871F410
(1785794370.231329) can0 18EBFFFF#024CA96400000000
(1785794370.232449) can0 18EBFFFF#03010BFFFFFFFFFF
(1785794370.244878) can0 1CECFFF1#20120003FF19F000
(1785794370.245879) can0 1CEBFFF1#01000B0000000000
(1785794370.246872) can0 1CEBFFF1#0200000000000000
(1785794370.247860) can0 1CEBFFF1#03010067F4FFFFFF
(1785794370.273863) can0 18F015F1#00004750495D46DF
(1785794370.278386) can0 18FF09D1#01000B00D3DCEC
(1785794370.319496) can0 18FEF1F8#FF0000FFFFFFFFFF
(1785794370.320661) can0 18F005F8#7DFFFF7DFFFFFFFF
(1785794370.345030) can0 1CECFFF1#20120003FF19F000
(1785794370.345888) can0 1CEBFFF1#01000B0000000000
(1785794370.346872) can0 1CEBFFF1#0200000000000000
(1785794370.347858) can0 1CEBFFF1#03010067F4FFFFFF
(1785794370.373939) can0 18F015F1#00004750495E46E0
(1785794370.378395) can0 18FF09D1#01000B00D3DCEC
(1785794370.419354) can0 18FEF1F8#FF0000FFFFFFFFFF
(1785794370.421105) can0 18F005F8#7DFFFF7DFFFFFFFF
(1785794370.444926) can0 1CECFFF1#20120003FF19F000
(1785794370.445878) can0 1CEBFFF1#01000B0000000000
(1785794370.446878) can0 1CEBFFF1#0200000000000000
(1785794370.447865) can0 1CEBFFF1#03010067F4FFFFFF
(1785794370.473884) can0 18F015F1#00004750495E46DF
(1785794370.478385) can0 18FF09D1#01000B00D3DCEC
(1785794370.519342) can0 18FEF1F8#FF0000FFFFFFFFFF
(1785794370.520474) can0 18F005F8#7DFFFF7DFFFFFFFF
(1785794370.544908) can0 1CECFFF1#20120003FF19F000
(1785794370.545885) can0 1CEBFFF1#01000B0000000000
(1785794370.546881) can0 1CEBFFF1#0200000000000000
(1785794370.547863) can0 1CEBFFF1#03010067F4FFFFFF
(1785794370.573878) can0 18F015F1#00004750495E46DF
(1785794370.578400) can0 18FF09D1#01000B00D3DCEC
(1785794370.619385) can0 18FEF1F8#FF0000FFFFFFFFFF
(1785794370.620547) can0 18F005F8#7DFFFF7DFFFFFFFF
(1785794370.645016) can0 1CECFFF1#20120003FF19F000
(1785794370.645941) can0 1CEBFFF1#01000B0000000000
(1785794370.646911) can0 1CEBFFF1#0200000000000000
(1785794370.647900) can0 1CEBFFF1#03010067F4FFFFFF
(1785794370.674284) can0 18F015F1#00004750495E46DF
(1785794370.678520) can0 18FF09D1#01000B00D3DCEC
(1785794370.678964) can0 18FF14D1#
(1785794370.720515) can0 18FEF1F8#FF0000FFFFFFFFFF
(1785794370.721665) can0 18F005F8#7DFFFF7DFFFFFFFF
(1785794370.722813) can0 18ECFFFF#20100003FF13FF00
(1785794370.723922) can0 18EBFFFF#0100330F4871F410
(1785794370.725065) can0 18EBFFFF#024CA96400000000
(1785794370.726212) can0 18EBFFFF#03010BFFFFFFFFFF
(1785794370.745945) can0 1CECFFF1#20120003FF19F000
(1785794370.746893) can0 1CEBFFF1#01000B0000000000
(1785794370.747907) can0 1CEBFFF1#0200000000000000
(1785794370.748896) can0 1CEBFFF1#03010067F4FFFFFF
(1785794370.775711) can0 18F015F1#00004750495E46DF
(1785794370.778585) can0 18FF09D1#01000B00D3DCEC
(1785794370.819439) can0 18FEF1F8#FF0000FFFFFFFFFF
(1785794370.820585) can0 18F005F8#7DFFFF7DFFFFFFFF
(1785794370.845964) can0 1CECFFF1#20120003FF19F000
(1785794370.846886) can0 1CEBFFF1#01000B0000000000
(1785794370.847883) can0 1CEBFFF1#0200000000000000
(1785794370.848871) can0 1CEBFFF1#03010067F4FFFFFF
(1785794370.874928) can0 18F015F1#00004750495D46DF
(1785794370.878403) can0 18FF09D1#01000B00D314EC
(1785794370.919376) can0 18FEF1F8#FF0000FFFFFFFFFF
(1785794370.920579) can0 18F005F8#7DFFFF7DFFFFFFFF
(1785794370.945966) can0 1CECFFF1#20120003FF19F000
(1785794370.946906) can0 1CEBFFF1#01000B0000000000
(1785794370.947889) can0 1CEBFFF1#0200000000000000
(1785794370.948871) can0 1CEBFFF1#03010067F4FFFFFF
(1785794370.974901) can0 18F015F1#00004751495E46DF
(1785794370.978405) can0 18FF09D1#01000B00D314EC
(1785794371.019623) can0 18FEF1F8#FF0000FFFFFFFFFF
(1785794371.020956) can0 18F005F8#7DFFFF7DFFFFFFFF
(1785794371.046314) can0 1CECFFF1#20120003FF19F000
(1785794371.047009) can0 1CEBFFF1#01000B0000000000
(1785794371.047919) can0 1CEBFFF1#0200000000000000
(1785794371.048895) can0 1CEBFFF1#030101A735FFFFFF
(1785794371.075093) can0 18F015F1#00004751495E46DF
(1785794371.078414) can0 18FF09D1#01000B00D314EC
(1785794371.085778) can0 18F017F1#ED3405BC9A08
(1785794371.086259) can0 18F018F1#E6C1016C9292
(1785794371.119370) can0 18FEF1F8#FF0000FFFFFFFFFF
(1785794371.120541) can0 18F005F8#7DFFFF7DFFFFFFFF
(1785794371.145928) can0 1CECFFF1#20120003FF19F000
(1785794371.146888) can0 1CEBFFF1#01000B0000000000
(1785794371.147884) can0 1CEBFFF1#0200000000000000
(1785794371.148860) can0 1CEBFFF1#030101A735FFFFFF
(1785794371.174873) can0 18F015F1#00004751495D46DF
(1785794371.178431) can0 18FF09D1#01000B00D314EC
(1785794371.178689) can0 18FF14D1#
(1785794371.220362) can0 18FEF1F8#FF0000FFFFFFFFFF
(1785794371.221577) can0 18F005F8#7DFFFF7DFFFFFFFF
(1785794371.222722) can0 18ECFFFF#20100003FF13FF00
(1785794371.223819) can0 18EBFFFF#0100330F4871F410
(1785794371.224935) can0 18EBFFFF#024CA96400000000
(1785794371.226067) can0 18EBFFFF#03010BFFFFFFFFFF
(1785794371.245882) can0 1CECFFF1#20120003FF19F000
(1785794371.246883) can0 1CEBFFF1#01000B0000000000
(1785794371.247882) can0 1CEBFFF1#0200000000000000
(1785794371.248859) can0 1CEBFFF1#030101A735FFFFFF
(1785794371.274889) can0 18F015F1#00004751495E46DF
(1785794371.278397) can0 18FF09D1#01000B00D314EC
(1785794371.319591) can0 18FEF1F8#FF0000FFFFFFFFFF
(1785794371.324497) can0 18F005F8#7DFFFF7DFFFFFFFF
(1785794371.346328) can0 1CECFFF1#20120003FF19F000
(1785794371.346921) can0 1CEBFFF1#01000B0000000000
(1785794371.347912) can0 1CEBFFF1#0200000000000000
(1785794371.348923) can0 1CEBFFF1#030101A735FFFFFF
(1785794371.374879) can0 18F015F1#00004751495E46DF
(1785794371.378389) can0 18FF09D1#01000B00D314EC
(1785794371.419329) can0 18FEF1F8#FF0000FFFFFFFFFF
(1785794371.420468) can0 18F005F8#7DFFFF7DFFFFFFFF
(1785794371.447018) can0 1CECFFF1#20120003FF19F000
(1785794371.447910) can0 1CEBFFF1#01000B0000000000
(1785794371.448924) can0 1CEBFFF1#0200000000000000
(1785794371.449865) can0 1CEBFFF1#030101A735FFFFFF
(1785794371.474890) can0 18F015F1#00004751495E46DF
(1785794371.478341) can0 18FF09D1#01000B00D314EC
(1785794371.519517) can0 18FEF1F8#FF0000FFFFFFFFFF
(1785794371.520698) can0 18F005F8#7DFFFF7DFFFFFFFF
(1785794371.546958) can0 1CECFFF1#20120003FF19F000
(1785794371.547897) can0 1CEBFFF1#01000B0000000000
(1785794371.548888) can0 1CEBFFF1#0200000000000000
(1785794371.549894) can0 1CEBFFF1#030101A735FFFFFF
(1785794371.575937) can0 18F015F1#00004751495F46DF
(1785794371.578341) can0 18FF09D1#01000B00D314EC
(1785794371.619406) can0 18FEF1F8#FF0000FFFFFFFFFF
(1785794371.620560) can0 18F005F8#7DFFFF7DFFFFFFFF
(1785794371.647046) can0 1CECFFF1#20120003FF19F000
(1785794371.647941) can0 1CEBFFF1#01000B0000000000
(1785794371.648938) can0 1CEBFFF1#0200000000000000
(1785794371.649919) can0 1CEBFFF1#030101A735FFFFFF
(1785794371.676052) can0 18F015F1#00004751495E46DF
(1785794371.678530) can0 18FF09D1#01000B00D314EC
(1785794371.679220) can0 18FF14D1#
(1785794371.720510) can0 18FEF1F8#FF0000FFFFFFFFFF
(1785794371.722559) can0 18F005F8#7DFFFF7DFFFFFFFF
(1785794371.724822) can0 18ECFFFF#20100003FF13FF00
(1785794371.725964) can0 18EBFFFF#0100330F4871F410
(1785794371.727072) can0 18EBFFFF#024CA96400000000
(1785794371.728190) can0 18EBFFFF#03010BFFFFFFFFFF
(1785794371.746919) can0 1CECFFF1#20120003FF19F000
(1785794371.747884) can0 1CEBFFF1#01000B0000000000
(1785794371.748882) can0 1CEBFFF1#0200000000000000
(1785794371.749865) can0 1CEBFFF1#030101A735FFFFFF
(1785794371.775941) can0 18F015F1#00004751495E46DF
(1785794371.778443) can0 18FF09D1#01000B00D314EC
(1785794371.819434) can0 18FEF1F8#FF0000FFFFFFFFFF
(1785794371.820598) can0 18F005F8#7DFFFF7DFFFFFFFF
(1785794371.846926) can0 1CECFFF1#20120003FF19F000
(1785794371.847905) can0 1CEBFFF1#01000B0000000000
(1785794371.848908) can0 1CEBFFF1#0200000000000000
(1785794371.849907) can0 1CEBFFF1#030101A735FFFFFF
(1785794371.875930) can0 18F015F1#00004752495F46E0
(1785794371.878370) can0 18FF09D1#01000B00D314EC
(1785794371.919420) can0 18FEF1F8#FF0000FFFFFFFFFF
(1785794371.920583) can0 18F005F8#7DFFFF7DFFFFFFFF
(1785794371.946925) can0 1CECFFF1#20120003FF19F000
(1785794371.947911) can0 1CEBFFF1#01000B0000000000
(1785794371.948909) can0 1CEBFFF1#0200000000000000
(1785794371.950154) can0 1CEBFFF1#030102A675FFFFFF
(1785794371.975898) can0 18F015F1#00004752495E46DF
(1785794371.978348) can0 18FF09D1#01000B00D314EC
(1785794372.019645) can0 18FEF1F8#FF0000FFFFFFFFFF
(1785794372.020921) can0 18F005F8#7DFFFF7DFFFFFFFF
(1785794372.047571) can0 1CECFFF1#20120003FF19F000
(1785794372.048030) can0 1CEBFFF1#01000B0000000000
(1785794372.049041) can0 1CEBFFF1#0200000000000000
(1785794372.050165) can0 1CEBFFF1#030102A675FFFFFF
(1785794372.075942) can0 18F015F1#00004752495E46DF
(1785794372.078328) can0 18FF09D1#01000B00D314EC
(1785794372.086856) can0 18F017F1#ED3405BC9A08
(1785794372.087270) can0 18F018F1#E6C1016C9292
(1785794372.119664) can0 18FEF1F8#FF0000FFFFFFFFFF
(1785794372.121049) can0 18F005F8#7DFFFF7DFFFFFFFF
(1785794372.147917) can0 1CECFFF1#20120003FF19F000
(1785794372.148892) can0 1CEBFFF1#01000B0000000000
(1785794372.149889) can0 1CEBFFF1#0200000000000000
(1785794372.150878) can0 1CEBFFF1#030102A675FFFFFF
(1785794372.175887) can0 18F015F1#00004752495F46DF
(1785794372.178529) can0 18FF09D1#01000B00D314EC
(1785794372.178866) can0 18FF14D1#
(1785794372.179277) can0 18FF16D1#01000B0064
(1785794372.219422) can0 18FEF1F8#FF0000FFFFFFFFFF
(1785794372.220758) can0 18F005F8#7DFFFF7DFFFFFFFF
(1785794372.221925) can0 18ECFFFF#20100003FF13FF00
(1785794372.223047) can0 18EBFFFF#0100330F4871F410
(1785794372.224163) can0 18EBFFFF#024CA96400000000
(1785794372.225290) can0 18EBFFFF#03010BFFFFFFFFFF
(1785794372.247895) can0 1CECFFF1#20120003FF19F000
(1785794372.248896) can0 1CEBFFF1#01000B0000000000
(1785794372.249888) can0 1CEBFFF1#0200000000000000
(1785794372.250866) can0 1CEBFFF1#030102A675FFFFFF
(1785794372.276884) can0 18F015F1#00004752495E46DF
(1785794372.278311) can0 18FF09D1#01000B00D314EC
(1785794372.319369) can0 18FEF1F8#FF0000FFFFFFFFFF
(1785794372.320519) can0 18F005F8#7DFFFF7DFFFFFFFF
(1785794372.348027) can0 1CECFFF1#20120003FF19F000
(1785794372.348937) can0 1CEBFFF1#01000B0000000000
(1785794372.349998) can0 1CEBFFF1#0200000000000000
(1785794372.350957) can0 1CEBFFF1#030102A675FFFFFF
(1785794372.376985) can0 18F015F1#00004752495E46E0
(1785794372.378360) can0 18FF09D1#01000B00D3DCEC
(1785794372.419327) can0 18FEF1F8#FF0000FFFFFFFFFF
(1785794372.420448) can0 18F005F8#7DFFFF7DFFFFFFFF
(1785794372.447917) can0 1CECFFF1#20120003FF19F000
(1785794372.448960) can0 1CEBFFF1#01000B0000000000
(1785794372.450006) can0 1CEBFFF1#0200000000000000
(1785794372.451038) can0 1CEBFFF1#030102A675FFFFFF
(1785794372.476910) can0 18F015F1#00004752495F46DF
(1785794372.478324) can0 18FF09D1#01000B00D3DCEC
(1785794372.519380) can0 18FEF1F8#FF0000FFFFFFFFFF
(1785794372.520538) can0 18F005F8#7DFFFF7DFFFFFFFF
(1785794372.547932) can0 1CECFFF1#20120003FF19F000
(1785794372.548900) can0 1CEBFFF1#01000B0000000000
(1785794372.549900) can0 1CEBFFF1#0200000000000000
(1785794372.550875) can0 1CEBFFF1#030102A675FFFFFF
(1785794372.576887) can0 18F015F1#00004752495E46DF
(1785794372.578348) can0 18FF09D1#01000B00D3DCEC
(1785794372.619329) can0 18FEF1F8#FF0000FFFFFFFFFF
(1785794372.620485) can0 18F005F8#7DFFFF7DFFFFFFFF
(1785794372.647925) can0 1CECFFF1#20120003FF19F000
(1785794372.648913) can0 1CEBFFF1#01000B0000000000
(1785794372.649903) can0 1CEBFFF1#0200000000000000
(1785794372.650879) can0 1CEBFFF1#030102A675FFFFFF
(1785794372.676975) can0 18F015F1#00004752495E46E0
(1785794372.678372) can0 18FF09D1#01000B00D3DCEC
(1785794372.678634) can0 18FF14D1#
(1785794372.720449) can0 18FEF1F8#FF0000FFFFFFFFFF
(1785794372.721703) can0 18F005F8#7DFFFF7DFFFFFFFF
(1785794372.722817) can0 18ECFFFF#20100003FF13FF00
(1785794372.723927) can0 18EBFFFF#0100330F4871F410
(1785794372.725060) can0 18EBFFFF#024CA96400000000
(1785794372.726809) can0 18EBFFFF#03010BFFFFFFFFFF
(1785794372.747940) can0 1CECFFF1#20120003FF19F000
(1785794372.748906) can0 1CEBFFF1#01000B0000000000
(1785794372.749905) can0 1CEBFFF1#0200000000000000
(1785794372.750889) can0 1CEBFFF1#030102A675FFFFFF
(1785794372.776922) can0 18F015F1#00004753495F46E0
(1785794372.778311) can0 18FF09D1#01000B00D3DCEC
(1785794372.819378) can0 18FEF1F8#FF0000FFFFFFFFFF
(1785794372.820527) can0 18F005F8#7DFFFF7DFFFFFFFF
(1785794372.847924) can0 1CECFFF1#20120003FF19F000
(1785794372.848901) can0 1CEBFFF1#01000B0000000000
(1785794372.849914) can0 1CEBFFF1#0200000000000000
(1785794372.850878) can0 1CEBFFF1#03010366B4FFFFFF
(1785794372.876933) can0 18F015F1#00004753495E46DF
(1785794372.878451) can0 18FF09D1#01000B00D314EC
(1785794372.919374) can0 18FEF1F8#FF0000FFFFFFFFFF
(1785794372.920550) can0 18F005F8#7DFFFF7DFFFFFFFF
(1785794372.947964) can0 1CECFFF1#20120003FF19F000
(1785794372.948924) can0 1CEBFFF1#01000B0000000000
(1785794372.949934) can0 1CEBFFF1#0200000000000000
(1785794372.951024) can0 1CEBFFF1#03010366B4FFFFFF
(1785794372.976956) can0 18F015F1#00004753495E46E0
(1785794372.978328) can0 18FF09D1#01000B00D314EC
(1785794373.019512) can0 18FEF1F8#FF0000FFFFFFFFFF
(1785794373.020827) can0 18F005F8#7DFFFF7DFFFFFFFF
(1785794373.049083) can0 1CECFFF1#20120003FF19F000
(1785794373.050017) can0 1CEBFFF1#01000B0000000000
(1785794373.051029) can0 1CEBFFF1#0200000000000000
(1785794373.051990) can0 1CEBFFF1#03010366B4FFFFFF
(1785794373.078122) can0 18F015F1#00004753495F46E0
(1785794373.078721) can0 18FF09D1#01000B00D314EC
(1785794373.087985) can0 18F017F1#ED8F04E69A1C
(1785794373.088414) can0 18F018F1#E690010591BB
(1785794373.120009) can0 18FEF1F8#FF0000FFFFFFFFFF
(1785794373.121452) can0 18F005F8#7DFFFF7DFFFFFFFF
(1785794373.148937) can0 1CECFFF1#20120003FF19F000
(1785794373.149896) can0 1CEBFFF1#01000B0000000000
(1785794373.150898) can0 1CEBFFF1#0200000000000000
(1785794373.151888) can0 1CEBFFF1#03010366B4FFFFFF
(1785794373.177948) can0 18F015F1#00004753495E46DF
(1785794373.178392) can0 18FF09D1#01000B00D314EC
(1785794373.178648) can0 18FF14D1#
(1785794373.219536) can0 18FEF1F8#FF0000FFFFFFFFFF
(1785794373.220852) can0 18F005F8#7DFFFF7DFFFFFFFF
(1785794373.221977) can0 18ECFFFF#20100003FF13FF00
(1785794373.223074) can0 18EBFFFF#0100330F4871F410
(1785794373.224179) can0 18EBFFFF#024CA96400000000
(1785794373.225296) can0 18EBFFFF#03010BFFFFFFFFFF
(1785794373.248907) can0 1CECFFF1#20120003FF19F000
(1785794373.249898) can0 1CEBFFF1#01000B0000000000
(1785794373.250895) can0 1CEBFFF1#0200000000000000
(1785794373.251869) can0 1CEBFFF1#03010366B4FFFFFF
(1785794373.277904) can0 18F015F1#00004753496046E0
(1785794373.278393) can0 18FF09D1#01000B00D314EC
(1785794373.319377) can0 18FEF1F8#FF0000FFFFFFFFFF
(1785794373.320593) can0 18F005F8#7DFFFF7DFFFFFFFF
(1785794373.348995) can0 1CECFFF1#20120003FF19F000
(1785794373.351824) can0 1CEBFFF1#01000B0000000000
(1785794373.352078) can0 1CEBFFF1#0200000000000000
(1785794373.352379) can0 1CEBFFF1#03010366B4FFFFFF
(1785794373.377993) can0 18F015F1#00004753496346E0
(1785794373.378419) can0 18FF09D1#01000B00D314EC
(1785794373.419388) can0 18FEF1F8#FF0000FFFFFFFFFF
(1785794373.420521) can0 18F005F8#7DFFFF7DFFFFFFFF
(1785794373.448959) can0 1CECFFF1#20120003FF19F000
(1785794373.449896) can0 1CEBFFF1#01000B0000000000
(1785794373.450903) can0 1CEBFFF1#0200000000000000
(1785794373.451959) can0 1CEBFFF1#03010366B4FFFFFF
(1785794373.477922) can0 18F015F1#00004753496346DF
(1785794373.478376) can0 18FF09D1#01000B00D314EC
(1785794373.519535) can0 18FEF1F8#FF0000FFFFFFFFFF
(1785794373.520718) can0 18F005F8#7DFFFF7DFFFFFFFF
(1785794373.549050) can0 1CECFFF1#20120003FF19F000
(1785794373.549949) can0 1CEBFFF1#01000B0000000000
(1785794373.550938) can0 1CEBFFF1#0200000000000000
(1785794373.551942) can0 1CEBFFF1#03010366B4FFFFFF
(1785794373.577998) can0 18F015F1#00004752496446DF
(1785794373.578639) can0 18FF09D1#01000B00D314EC
(1785794373.619589) can0 18FEF1F8#FF0000FFFFFFFFFF
(1785794373.620799) can0 18F005F8#7DFFFF7DFFFFFFFF
(1785794373.650001) can0 1CECFFF1#20120003FF19F000
(1785794373.650923) can0 1CEBFFF1#01000B0000000000
(1785794373.651930) can0 1CEBFFF1#0200000000000000
(1785794373.652889) can0 1CEBFFF1#03010366B4FFFFFF
(1785794373.678445) can0 18FF09D1#01000B00D314EC
(1785794373.679007) can0 18F015F1#00004753496446DF
(1785794373.679342) can0 18FF14D1#
(1785794373.719549) can0 18FEF1F8#FF0000FFFFFFFFFF
(1785794373.721218) can0 18F005F8#7DFFFF7DFFFFFFFF
(1785794373.722573) can0 18ECFFFF#20100003FF13FF00
(1785794373.723739) can0 18EBFFFF#0100330F4871F410
(1785794373.725545) can0 18EBFFFF#024CA96400000000
(1785794373.726714) can0 18EBFFFF#03010BFFFFFFFFFF
(1785794373.750056) can0 1CECFFF1#20120003FF19F000
(1785794373.750965) can0 1CEBFFF1#01000B0000000000
(1785794373.751958) can0 1CEBFFF1#0200000000000000
(1785794373.752931) can0 1CEBFFF1#03010366B4FFFFFF
(1785794373.778743) can0 18FF09D1#01000B00D314EC
(1785794373.779564) can0 18F015F1#00004753496446DF
(1785794373.819881) can0 18FEF1F8#FF0000FFFFFFFFFF
(1785794373.821518) can0 18F005F8#7DFFFF7DFFFFFFFF
(1785794373.849952) can0 1CECFFF1#20120003FF19F000
(1785794373.850907) can0 1CEBFFF1#01000B0000000000
(1785794373.851965) can0 1CEBFFF1#0200000000000000
(1785794373.852905) can0 1CEBFFF1#030102A675FFFFFF
(1785794373.878349) can0 18FF09D1#01000B00D314EC
(1785794373.878932) can0 18F015F1#00004752496546DF
(1785794373.919402) can0 18FEF1F8#FF0000FFFFFFFFFF
(1785794373.920559) can0 18F005F8#7DFFFF7DFFFFFFFF
(1785794373.949984) can0 1CECFFF1#20120003FF19F000
(1785794373.951053) can0 1CEBFFF1#01000B0000000000
(1785794373.951921) can0 1CEBFFF1#0200000000000000
(1785794373.952907) can0 1CEBFFF1#03010366B4FFFFFF
(1785794373.978299) can0 18FF09D1#01000B00D314EC
(1785794373.978898) can0 18F015F1#00004753495F46DE
(1785794374.019541) can0 18FEF1F8#FF0000FFFFFFFFFF
(1785794374.020748) can0 18F005F8#7DFFFF7DFFFFFFFF
(1785794374.050082) can0 1CECFFF1#20120003FF19F000
(1785794374.050963) can0 1CEBFFF1#01000B0000000000
(1785794374.051980) can0 1CEBFFF1#0200000000000000
(1785794374.052912) can0 1CEBFFF1#030104A4F5FFFFFF
(1785794374.078597) can0 18FF09D1#01000B00D314EC
(1785794374.079280) can0 18F015F1#00004754495846DF
(1785794374.089829) can0 18F017F1#ED8F04E69A1C
(1785794374.090287) can0 18F018F1#E690010591BB
