(1786394277.378507) can0 18F015F1#0000463D4B6A457A
(1786394277.427313) can0 18FF09D1#01000A00CF44E4
(1786394277.428993) can0 18FEF1F8#FF0000FFFFFFFFFF
(1786394277.430179) can0 18F005F8#7DFFFF7DFFFFFFFF
(1786394277.431900) can0 18ECFFFF#20100003FF13FF00
(1786394277.433059) can0 18EBFFFF#0100330F5EFA6010
(1786394277.434397) can0 18EBFFFF#02515D4400000000
(1786394277.435538) can0 18EBFFFF#03010BFFFFFFFFFF
(1786394277.449489) can0 1CECFFF1#20120003FF19F000
(1786394277.450436) can0 1CEBFFF1#0127100000000000
(1786394277.451449) can0 1CEBFFF1#0200000000000000
(1786394277.452432) can0 1CEBFFF1#03FFEEAA34FFFFFF
(1786394277.478688) can0 18F015F1#0000463D4B6A457A
(1786394277.527527) can0 18FF09D1#01000A00CF44E4
(1786394277.529232) can0 18FEF1F8#FF0000FFFFFFFFFF
(1786394277.530372) can0 18F005F8#7DFFFF7DFFFFFFFF
(1786394277.549603) can0 1CECFFF1#20120003FF19F000
(1786394277.550440) can0 1CEBFFF1#0127100000000000
(1786394277.551557) can0 1CEBFFF1#0200000000000000
(1786394277.554031) can0 1CEBFFF1#03FFEEAA34FFFFFF
(1786394277.578481) can0 18F015F1#0000463D4B6A457A
(1786394277.627258) can0 18FF09D1#01000A00CF44E4
(1786394277.628475) can0 18FEF1F8#FF0000FFFFFFFFFF
(1786394277.629601) can0 18F005F8#7DFFFF7DFFFFFFFF
(1786394277.649466) can0 1CECFFF1#20120003FF19F000
(1786394277.650429) can0 1CEBFFF1#0127100000000000
(1786394277.651456) can0 1CEBFFF1#0200000000000000
(1786394277.652458) can0 1CEBFFF1#03FFEEAA34FFFFFF
(1786394277.678426) can0 18F015F1#0000463D4B6A457A
(1786394277.727287) can0 18FF09D1#01000A00CF44E4
(1786394277.727579) can0 18FF14D1#
(1786394277.728808) can0 18FEF1F8#FF0000FFFFFFFFFF
(1786394277.729927) can0 18F005F8#7DFFFF7DFFFFFFFF
(1786394277.749451) can0 1CECFFF1#20120003FF19F000
(1786394277.750432) can0 1CEBFFF1#0127100000000000
(1786394277.751445) can0 1CEBFFF1#0200000000000000
(1786394277.752420) can0 1CEBFFF1#03FFEEAA34FFFFFF
(1786394277.778576) can0 18F015F1#0000463D4B6A457A
(1786394277.788453) can0 18F017F1#DE74FE729683
(1786394277.788922) can0 18F018F1#DC61F66092E3
(1786394277.827340) can0 18FF09D1#01000A00CF44E4
(1786394277.828792) can0 18FEF1F8#FF0000FFFFFFFFFF
(1786394277.829934) can0 18F005F8#7DFFFF7DFFFFFFFF
(1786394277.849460) can0 1CECFFF1#20120003FF19F000
(1786394277.850420) can0 1CEBFFF1#0127100000000000
(1786394277.851431) can0 1CEBFFF1#0200000000000000
(1786394277.852402) can0 1CEBFFF1#03FFEEAA34FFFFFF
(1786394277.878589) can0 18F015F1#0000463D4B6A457A
(1786394277.927279) can0 18FF09D1#01000A00CF44E4
(1786394277.928851) can0 18FEF1F8#FF0000FFFFFFFFFF
(1786394277.930002) can0 18F005F8#7DFFFF7DFFFFFFFF
(1786394277.931199) can0 18ECFFFF#20100003FF13FF00
(1786394277.932332) can0 18EBFFFF#0100330F5EFA6010
(1786394277.933478) can0 18EBFFFF#02515D4400000000
(1786394277.934624) can0 18EBFFFF#03010BFFFFFFFFFF
(1786394277.949475) can0 1CECFFF1#20120003FF19F000
(1786394277.950427) can0 1CEBFFF1#0127100000000000
(1786394277.951433) can0 1CEBFFF1#0200000000000000
(1786394277.952408) can0 1CEBFFF1#03FFEEAA34FFFFFF
(1786394277.978429) can0 18F015F1#0000463D4B6A457A
(1786394278.027251) can0 18FF09D1#01000A00CF44E4
(1786394278.028596) can0 18FEF1F8#FF0000FFFFFFFFFF
(1786394278.029758) can0 18F005F8#7DFFFF7DFFFFFFFF
(1786394278.049452) can0 1CECFFF1#20120003FF19F000
(1786394278.050445) can0 1CEBFFF1#0127100000000000
(1786394278.051452) can0 1CEBFFF1#0200000000000000
(1786394278.052424) can0 1CEBFFF1#03FFEEAA34FFFFFF
(1786394278.078437) can0 18F015F1#0000463D4B6A457A
(1786394278.127281) can0 18FF09D1#01000A00CF44E4
(1786394278.128660) can0 18FEF1F8#FF0000FFFFFFFFFF
(1786394278.129880) can0 18F005F8#7DFFFF7DFFFFFFFF
(1786394278.151158) can0 1CECFFF1#20120003FF19F000
(1786394278.151576) can0 1CEBFFF1#0127100000000000
(1786394278.152458) can0 1CEBFFF1#0200000000000000
(1786394278.153450) can0 1CEBFFF1#03FFEEAA34FFFFFF
(1786394278.179435) can0 18F015F1#0000463D4B6A457A
(1786394278.227374) can0 18FF09D1#01000A00CFC8E7
(1786394278.227637) can0 18FF14D1#
(1786394278.228101) can0 18FF16D1#01000A0064
(1786394278.229816) can0 18FEF1F8#FF0000FFFFFFFFFF
(1786394278.230961) can0 18F005F8#7DFFFF7DFFFFFFFF
(1786394278.250493) can0 1CECFFF1#20120003FF19F000
(1786394278.251438) can0 1CEBFFF1#0127100000000000
(1786394278.252434) can0 1CEBFFF1#0200000000000000
(1786394278.253408) can0 1CEBFFF1#03FFEEAA34FFFFFF
(1786394278.279431) can0 18F015F1#0000463D4B6A457A
(1786394278.327208) can0 18FF09D1#01000A00CFC8E7
(1786394278.328476) can0 18FEF1F8#FF0000FFFFFFFFFF
(1786394278.329649) can0 18F005F8#7DFFFF7DFFFFFFFF
(1786394278.350446) can0 1CECFFF1#20120003FF19F000
(1786394278.351436) can0 1CEBFFF1#0127100000000000
(1786394278.352450) can0 1CEBFFF1#0200000000000000
(1786394278.353426) can0 1CEBFFF1#03FFEEAA34FFFFFF
(1786394278.379432) can0 18F015F1#0000463D4B6A457A
(1786394278.427392) can0 18FF09D1#01000A00CFC8E7
(1786394278.428751) can0 18FEF1F8#FF0000FFFFFFFFFF
(1786394278.430042) can0 18F005F8#7DFFFF7DFFFFFFFF
(1786394278.431280) can0 18ECFFFF#20100003FF13FF00
(1786394278.432490) can0 18EBFFFF#0100330F5EFA6010
(1786394278.433648) can0 18EBFFFF#02515D4400000000
(1786394278.434828) can0 18EBFFFF#03010BFFFFFFFFFF
(1786394278.450522) can0 1CECFFF1#20120003FF19F000
(1786394278.451454) can0 1CEBFFF1#0127100000000000
(1786394278.452467) can0 1CEBFFF1#0200000000000000
(1786394278.453418) can0 1CEBFFF1#03FFEEAA34FFFFFF
(1786394278.479534) can0 18F015F1#0000463D4B6A457A
(1786394278.527177) can0 18FF09D1#01000A00CFC8E7
(1786394278.528451) can0 18FEF1F8#FF0000FFFFFFFFFF
(1786394278.529626) can0 18F005F8#7DFFFF7DFFFFFFFF
(1786394278.550433) can0 1CECFFF1#20120003FF19F000
(1786394278.551428) can0 1CEBFFF1#0127100000000000
(1786394278.552435) can0 1CEBFFF1#0200000000000000
(1786394278.553408) can0 1CEBFFF1#03FFEEAA34FFFFFF
(1786394278.579478) can0 18F015F1#0000463D4B6A457A
(1786394278.627218) can0 18FF09D1#01000A00CFC8E7
(1786394278.628521) can0 18FEF1F8#FF0000FFFFFFFFFF
(1786394278.629740) can0 18F005F8#7DFFFF7DFFFFFFFF
(1786394278.650457) can0 1CECFFF1#20120003FF19F000
(1786394278.651436) can0 1CEBFFF1#0127100000000000
(1786394278.652444) can0 1CEBFFF1#0200000000000000
(1786394278.654102) can0 1CEBFFF1#03FFEEAA34FFFFFF
(1786394278.679431) can0 18F015F1#0000463D4B6A457A
(1786394278.727297) can0 18FF09D1#01000A00CF44E4
(1786394278.727765) can0 18FF14D1#
(1786394278.728965) can0 18FEF1F8#FF0000FFFFFFFFFF
(1786394278.730139) can0 18F005F8#7DFFFF7DFFFFFFFF
(1786394278.750470) can0 1CECFFF1#20120003FF19F000
(1786394278.751438) can0 1CEBFFF1#0127100000000000
(1786394278.752445) can0 1CEBFFF1#0200000000000000
(1786394278.753418) can0 1CEBFFF1#03FFEEAA34FFFFFF
(1786394278.780604) can0 18F015F1#0000463D4B6A457A
(1786394278.789510) can0 18F017F1#DDEEFDA795A1
(1786394278.790041) can0 18F018F1#DCE2F6549299
(1786394278.827673) can0 18FF09D1#01000A00CF44E4
(1786394278.829482) can0 18FEF1F8#FF0000FFFFFFFFFF
(1786394278.830877) can0 18F005F8#7DFFFF7DFFFFFFFF
(1786394278.851473) can0 1CECFFF1#20120003FF19F000
(1786394278.852424) can0 1CEBFFF1#0127100000000000
(1786394278.853473) can0 1CEBFFF1#0200000000000000
(1786394278.854409) can0 1CEBFFF1#03FFEEAA34FFFFFF
(1786394278.879512) can0 18F015F1#0000463D4B6A457A
(1786394278.927396) can0 18FF09D1#01000A00CF44E4
(1786394278.928915) can0 18FEF1F8#FF0000FFFFFFFFFF
(1786394278.930184) can0 18F005F8#7DFFFF7DFFFFFFFF
(1786394278.931326) can0 18ECFFFF#20100003FF13FF00
(1786394278.932473) can0 18EBFFFF#0100330F5EFA6010
(1786394278.933615) can0 18EBFFFF#02515D4400000000
(1786394278.934768) can0 18EBFFFF#03010BFFFFFFFFFF
(1786394278.951483) can0 1CECFFF1#20120003FF19F000
(1786394278.952440) can0 1CEBFFF1#0127100000000000
(1786394278.953445) can0 1CEBFFF1#0200000000000000
(1786394278.954414) can0 1CEBFFF1#03FFEEAA34FFFFFF
(1786394278.980442) can0 18F015F1#0000463D4B6A457A
(1786394279.027182) can0 18FF09D1#01000A00CF44E4
(1786394279.028499) can0 18FEF1F8#FF0000FFFFFFFFFF
(1786394279.029646) can0 18F005F8#7DFFFF7DFFFFFFFF
(1786394279.051459) can0 1CECFFF1#20120003FF19F000
(1786394279.052436) can0 1CEBFFF1#0127100000000000
(1786394279.053452) can0 1CEBFFF1#0200000000000000
(1786394279.054429) can0 1CEBFFF1#03FFEEAA34FFFFFF
(1786394279.080433) can0 18F015F1#0000463D4B6A457A
(1786394279.127508) can0 18FF09D1#01000A00CF44E4
(1786394279.129519) can0 18FEF1F8#FF0000FFFFFFFFFF
(1786394279.130792) can0 18F005F8#7DFFFF7DFFFFFFFF
(1786394279.151643) can0 1CECFFF1#20120003FF19F000
(1786394279.152480) can0 1CEBFFF1#0127100000000000
(1786394279.153480) can0 1CEBFFF1#0200000000000000
(1786394279.154449) can0 1CEBFFF1#03FFEEAA34FFFFFF
(1786394279.180559) can0 18F015F1#0000463D4B6A457A
(1786394279.227225) can0 18FF09D1#01000A00CF64E7
(1786394279.227568) can0 18FF14D1#
(1786394279.228803) can0 18FEF1F8#FF0000FFFFFFFFFF
(1786394279.229932) can0 18F005F8#7DFFFF7DFFFFFFFF
(1786394279.251513) can0 1CECFFF1#20120003FF19F000
(1786394279.252443) can0 1CEBFFF1#0127100000000000
(1786394279.253452) can0 1CEBFFF1#0200000000000000
(1786394279.254429) can0 1CEBFFF1#03FFEEAA34FFFFFF
(1786394279.280452) can0 18F015F1#0000463D4B6A457A
(1786394279.327150) can0 18FF09D1#01000A00CF64E7
(1786394279.328539) can0 18FEF1F8#FF0000FFFFFFFFFF
(1786394279.329725) can0 18F005F8#7DFFFF7DFFFFFFFF
(1786394279.351455) can0 1CECFFF1#20120003FF19F000
(1786394279.352438) can0 1CEBFFF1#0127100000000000
(1786394279.353453) can0 1CEBFFF1#0200000000000000
(1786394279.354427) can0 1CEBFFF1#03FFEEAA34FFFFFF
(1786394279.380526) can0 18F015F1#0000463D4B6A457A
(1786394279.428065) can0 18FF09D1#01000A00CF64E7
(1786394279.428598) can0 18FEF1F8#FF0000FFFFFFFFFF
(1786394279.429978) can0 18F005F8#7DFFFF7DFFFFFFFF
(1786394279.431150) can0 18ECFFFF#20100003FF13FF00
(1786394279.432336) can0 18EBFFFF#0100330F5EFA6010
(1786394279.433869) can0 18EBFFFF#02515D4400000000
(1786394279.434998) can0 18EBFFFF#03010BFFFFFFFFFF
(1786394279.451499) can0 1CECFFF1#20120003FF19F000
(1786394279.452464) can0 1CEBFFF1#0127100000000000
(1786394279.453475) can0 1CEBFFF1#0200000000000000
(1786394279.454447) can0 1CEBFFF1#03FFEEAA34FFFFFF
(1786394279.480591) can0 18F015F1#0000463D4B6A457A
(1786394279.527249) can0 18FF09D1#01000A00CF64E7
(1786394279.528767) can0 18FEF1F8#FF0000FFFFFFFFFF
(1786394279.529949) can0 18F005F8#7DFFFF7DFFFFFFFF
(1786394279.551448) can0 1CECFFF1#20120003FF19F000
(1786394279.552429) can0 1CEBFFF1#0127100000000000
(1786394279.553439) can0 1CEBFFF1#0200000000000000
(1786394279.554412) can0 1CEBFFF1#03FFEEAA34FFFFFF
(1786394279.580501) can0 18F015F1#0000463D4B6A457A
(1786394279.627192) can0 18FF09D1#01000A00CF64E7
(1786394279.628473) can0 18FEF1F8#FF0000FFFFFFFFFF
(1786394279.629646) can0 18F005F8#7DFFFF7DFFFFFFFF
(1786394279.651476) can0 1CECFFF1#20120003FF19F000
(1786394279.652441) can0 1CEBFFF1#0127100000000000
(1786394279.653452) can0 1CEBFFF1#0200000000000000
(1786394279.654455) can0 1CEBFFF1#03FFEEAA34FFFFFF
(1786394279.681443) can0 18F015F1#0000463D4B6A457A
(1786394279.727264) can0 18FF09D1#01000A00CFC8E7
(1786394279.727587) can0 18FF14D1#
(1786394279.728835) can0 18FEF1F8#FF0000FFFFFFFFFF
(1786394279.729959) can0 18F005F8#7DFFFF7DFFFFFFFF
(1786394279.752456) can0 1CECFFF1#20120003FF19F000
(1786394279.753445) can0 1CEBFFF1#0127100000000000
(1786394279.754454) can0 1CEBFFF1#0200000000000000
(1786394279.755428) can0 1CEBFFF1#03FFEEAA34FFFFFF
(1786394279.781557) can0 18F015F1#0000463D4B6A457A
(1786394279.791430) can0 18F017F1#DDEEFDA795A1
(1786394279.791856) can0 18F018F1#DCE2F6549299
(1786394279.827954) can0 18FF09D1#01000A00CFC8E7
(1786394279.829659) can0 18FEF1F8#FF0000FFFFFFFFFF
(1786394279.831123) can0 18F005F8#7DFFFF7DFFFFFFFF
(1786394279.852742) can0 1CECFFF1#20120003FF19F000
(1786394279.853577) can0 1CEBFFF1#0127100000000000
(1786394279.854553) can0 1CEBFFF1#0200000000000000
(1786394279.855476) can0 1CEBFFF1#03FFEEAA34FFFFFF
(1786394279.881735) can0 18F015F1#0000463D4B6A457A
(1786394279.927577) can0 18FF09D1#01000A00CFC8E7
(1786394279.929167) can0 18FEF1F8#FF0000FFFFFFFFFF
(1786394279.930453) can0 18F005F8#7DFFFF7DFFFFFFFF
(1786394279.932042) can0 18ECFFFF#20100003FF13FF00
(1786394279.933152) can0 18EBFFFF#0100330F5EFA6010
(1786394279.934269) can0 18EBFFFF#02515D4400000000
(1786394279.935393) can0 18EBFFFF#03010BFFFFFFFFFF
(1786394279.952475) can0 1CECFFF1#20120003FF19F000
(1786394279.953444) can0 1CEBFFF1#0127100000000000
(1786394279.954452) can0 1CEBFFF1#0200000000000000
(1786394279.955424) can0 1CEBFFF1#03FFEEAA34FFFFFF
(1786394279.981459) can0 18F015F1#0000463C4B6A457A
(1786394280.027196) can0 18FF09D1#01000A00CFC8E7
(1786394280.028535) can0 18FEF1F8#FF0000FFFFFFFFFF
(1786394280.029663) can0 18F005F8#7DFFFF7DFFFFFFFF
(1786394280.052469) can0 1CECFFF1#20120003FF19F000
(1786394280.053439) can0 1CEBFFF1#0127100000000000
(1786394280.054446) can0 1CEBFFF1#0200000000000000
(1786394280.055424) can0 1CEBFFF1#03FFEEAA34FFFFFF
(1786394280.081460) can0 18F015F1#0000463D4B6A4579
(1786394280.127156) can0 18FF09D1#01000A00CFC8E7
(1786394280.128458) can0 18FEF1F8#FF0000FFFFFFFFFF
(1786394280.129628) can0 18F005F8#7DFFFF7DFFFFFFFF
(1786394280.152817) can0 1CECFFF1#20120003FF19F000
(1786394280.153480) can0 1CEBFFF1#0127100000000000
(1786394280.154493) can0 1CEBFFF1#0200000000000000
(1786394280.155459) can0 1CEBFFF1#03FFEEAA34FFFFFF
(1786394280.181628) can0 18F015F1#0000463D4B6A457A
(1786394280.227371) can0 18FF09D1#01000A00CFC8E7
(1786394280.227630) can0 18FF14D1#
(1786394280.228287) can0 18FF16D1#01000A0064
(1786394280.228805) can0 18FEF1F8#FF0000FFFFFFFFFF
(1786394280.229962) can0 18F005F8#7DFFFF7DFFFFFFFF
(1786394280.252507) can0 1CECFFF1#20120003FF19F000
(1786394280.253440) can0 1CEBFFF1#0127100000000000
(1786394280.254447) can0 1CEBFFF1#0200000000000000
(1786394280.255422) can0 1CEBFFF1#03FFEEAA34FFFFFF
(1786394280.282441) can0 18F015F1#0000463C4B6A4579
(1786394280.327152) can0 18FF09D1#01000A00CFC8E7
(1786394280.328434) can0 18FEF1F8#FF0000FFFFFFFFFF
(1786394280.329574) can0 18F005F8#7DFFFF7DFFFFFFFF
(1786394280.352477) can0 1CECFFF1#20120003FF19F000
(1786394280.353438) can0 1CEBFFF1#0127100000000000
(1786394280.354452) can0 1CEBFFF1#0200000000000000
(1786394280.355433) can0 1CEBFFF1#03FFEDAB74FFFFFF
(1786394280.381433) can0 18F015F1#0000463D4B6A4579
(1786394280.427198) can0 18FF09D1#01000A00CFC8E7
(1786394280.428993) can0 18FEF1F8#FF0000FFFFFFFFFF
(1786394280.430255) can0 18F005F8#7DFFFF7DFFFFFFFF
(1786394280.431460) can0 18ECFFFF#20100003FF13FF00
(1786394280.432585) can0 18EBFFFF#0100330F5EFA6010
(1786394280.433712) can0 18EBFFFF#02515D4400000000
(1786394280.434855) can0 18EBFFFF#03010BFFFFFFFFFF
(1786394280.453598) can0 1CECFFF1#20120003FF19F000
(1786394280.454493) can0 1CEBFFF1#0127100000000000
(1786394280.455508) can0 1CEBFFF1#0200000000000000
(1786394280.456475) can0 1CEBFFF1#03FFEEAA34FFFFFF
(1786394280.482593) can0 18F015F1#0000463D4B6A457A
(1786394280.527123) can0 18FF09D1#01000A00CFC8E7
(1786394280.528416) can0 18FEF1F8#FF0000FFFFFFFFFF
(1786394280.529584) can0 18F005F8#7DFFFF7DFFFFFFFF
(1786394280.553459) can0 1CECFFF1#20120003FF19F000
(1786394280.554442) can0 1CEBFFF1#0127100000000000
(1786394280.555453) can0 1CEBFFF1#0200000000000000
(1786394280.556466) can0 1CEBFFF1#03FFEEAA34FFFFFF
(1786394280.582512) can0 18F015F1#0000463C4B6A4579
(1786394280.627145) can0 18FF09D1#01000A00CFC8E7
(1786394280.628309) can0 18FEF1F8#FF0000FFFFFFFFFF
(1786394280.629438) can0 18F005F8#7DFFFF7DFFFFFFFF
(1786394280.653461) can0 1CECFFF1#20120003FF19F000
(1786394280.654449) can0 1CEBFFF1#0127100000000000
(1786394280.655512) can0 1CEBFFF1#0200000000000000
(1786394280.656457) can0 1CEBFFF1#03FFEDAB74FFFFFF
(1786394280.682465) can0 18F015F1#0000463D4B6A4579
(1786394280.727178) can0 18FF09D1#01000A00CF64E7
(1786394280.727443) can0 18FF14D1#
(1786394280.728680) can0 18FEF1F8#FF0000FFFFFFFFFF
(1786394280.729804) can0 18F005F8#7DFFFF7DFFFFFFFF
(1786394280.753472) can0 1CECFFF1#20120003FF19F000
(1786394280.754480) can0 1CEBFFF1#0127100000000000
(1786394280.755475) can0 1CEBFFF1#0200000000000000
(1786394280.756444) can0 1CEBFFF1#03FFEEAA34FFFFFF
(1786394280.783622) can0 18F015F1#0000463D4B6A4579
(1786394280.792451) can0 18F017F1#DE73FDD79520
(1786394280.792831) can0 18F018F1#DC55F6A19328
(1786394280.827297) can0 18FF09D1#01000A00CF64E7
(1786394280.828638) can0 18FEF1F8#FF0000FFFFFFFFFF
(1786394280.829770) can0 18F005F8#7DFFFF7DFFFFFFFF
(1786394280.853528) can0 1CECFFF1#20120003FF19F000
(1786394280.854453) can0 1CEBFFF1#0127100000000000
(1786394280.855473) can0 1CEBFFF1#0200000000000000
(1786394280.856470) can0 1CEBFFF1#03FFEDAB74FFFFFF
(1786394280.882533) can0 18F015F1#0000463C4B6A4579
(1786394280.927561) can0 18FF09D1#01000A00CF64E7
(1786394280.928788) can0 18FEF1F8#FF0000FFFFFFFFFF
(1786394280.930323) can0 18F005F8#7DFFFF7DFFFFFFFF
(1786394280.933145) can0 18ECFFFF#20100003FF13FF00
(1786394280.934301) can0 18EBFFFF#0100330F5EFA6010
(1786394280.935421) can0 18EBFFFF#02515D4400000000
(1786394280.936552) can0 18EBFFFF#03010BFFFFFFFFFF
(1786394280.953534) can0 1CECFFF1#20120003FF19F000
(1786394280.954459) can0 1CEBFFF1#0127100000000000
(1786394280.955459) can0 1CEBFFF1#0200000000000000
(1786394280.956448) can0 1CEBFFF1#03FFEDAB74FFFFFF
(1786394280.982507) can0 18F015F1#0000463D4B6A4579
(1786394281.027187) can0 18FF09D1#01000A00CF64E7
(1786394281.028509) can0 18FEF1F8#FF0000FFFFFFFFFF
(1786394281.029662) can0 18F005F8#7DFFFF7DFFFFFFFF
(1786394281.054492) can0 1CECFFF1#20120003FF19F000
(1786394281.055447) can0 1CEBFFF1#0127100000000000
(1786394281.056469) can0 1CEBFFF1#0200000000000000
(1786394281.057433) can0 1CEBFFF1#03FFEEAA34FFFFFF
(1786394281.082469) can0 18F015F1#0000463C4B6A457A
(1786394281.127284) can0 18FF09D1#01000A00CF64E7
(1786394281.128797) can0 18FEF1F8#FF0000FFFFFFFFFF
(1786394281.130101) can0 18F005F8#7DFFFF7DFFFFFFFF
(1786394281.153745) can0 1CECFFF1#20120003FF19F000
(1786394281.154485) can0 1CEBFFF1#0127100000000000
(1786394281.155506) can0 1CEBFFF1#0200000000000000
(1786394281.156564) can0 1CEBFFF1#03FFEDAB74FFFFFF
(1786394281.182725) can0 18F015F1#0000463C4B6A4579
(1786394281.227182) can0 18FF09D1#01000A00CF90E8
(1786394281.227577) can0 18FF14D1#
(1786394281.228825) can0 18FEF1F8#FF0000FFFFFFFFFF
(1786394281.229959) can0 18F005F8#7DFFFF7DFFFFFFFF
(1786394281.254517) can0 1CECFFF1#20120003FF19F000
(1786394281.255461) can0 1CEBFFF1#0127100000000000
(1786394281.256461) can0 1CEBFFF1#0200000000000000
(1786394281.257437) can0 1CEBFFF1#03FFEDAB74FFFFFF
(1786394281.283440) can0 18F015F1#0000463C4B6A4579
(1786394281.327463) can0 18FF09D1#01000A00CF90E8
(1786394281.328687) can0 18FEF1F8#FF0000FFFFFFFFFF
(1786394281.329806) can0 18F005F8#7DFFFF7DFFFFFFFF
(1786394281.354467) can0 1CECFFF1#20120003FF19F000
(1786394281.355447) can0 1CEBFFF1#0127100000000000
(1786394281.356459) can0 1CEBFFF1#0200000000000000
(1786394281.357429) can0 1CEBFFF1#03FFEEAA34FFFFFF
(1786394281.383532) can0 18F015F1#0000463C4B6A457A
(1786394281.427549) can0 18FF09D1#01000A00CF90E8
(1786394281.428869) can0 18FEF1F8#FF0000FFFFFFFFFF
(1786394281.430147) can0 18F005F8#7DFFFF7DFFFFFFFF
(1786394281.431450) can0 18ECFFFF#20100003FF13FF00
(1786394281.432579) can0 18EBFFFF#0100330F5EFA6010
(1786394281.433698) can0 18EBFFFF#02515D4400000000
(1786394281.434827) can0 18EBFFFF#03010BFFFFFFFFFF
(1786394281.454595) can0 1CECFFF1#20120003FF19F000
(1786394281.455500) can0 1CEBFFF1#0127100000000000
(1786394281.456521) can0 1CEBFFF1#0200000000000000
(1786394281.457530) can0 1CEBFFF1#03FFEDAB74FFFFFF
(1786394281.483826) can0 18F015F1#0000463C4B6A4579
(1786394281.527120) can0 18FF09D1#01000A00CF90E8
(1786394281.528442) can0 18FEF1F8#FF0000FFFFFFFFFF
(1786394281.529555) can0 18F005F8#7DFFFF7DFFFFFFFF
(1786394281.554467) can0 1CECFFF1#20120003FF19F000
(1786394281.555445) can0 1CEBFFF1#0127100000000000
(1786394281.556462) can0 1CEBFFF1#0200000000000000
(1786394281.557442) can0 1CEBFFF1#03FFEDAB74FFFFFF
(1786394281.583606) can0 18F015F1#0000463C4B6A4579
(1786394281.627133) can0 18FF09D1#01000A00CF90E8
(1786394281.628428) can0 18FEF1F8#FF0000FFFFFFFFFF
(1786394281.629584) can0 18F005F8#7DFFFF7DFFFFFFFF
(1786394281.654486) can0 1CECFFF1#20120003FF19F000
(1786394281.655449) can0 1CEBFFF1#0127100000000000
(1786394281.656518) can0 1CEBFFF1#0200000000000000
(1786394281.657465) can0 1CEBFFF1#03FFEDAB74FFFFFF
(1786394281.683445) can0 18F015F1#0000463C4B6A457A
(1786394281.727173) can0 18FF09D1#01000A00CF90E8
(1786394281.727553) can0 18FF14D1#
(1786394281.728841) can0 18FEF1F8#FF0000FFFFFFFFFF
(1786394281.729955) can0 18F005F8#7DFFFF7DFFFFFFFF
(1786394281.754490) can0 1CECFFF1#20120003FF19F000
(1786394281.755448) can0 1CEBFFF1#0127100000000000
(1786394281.756466) can0 1CEBFFF1#0200000000000000
(1786394281.757438) can0 1CEBFFF1#03FFEDAB74FFFFFF
(1786394281.784597) can0 18F015F1#0000463C4B6A457A
(1786394281.793652) can0 18F017F1#DE73FDD79520
(1786394281.794159) can0 18F018F1#DC55F6A19328
(1786394281.827141) can0 18FF09D1#01000A00CFECE1
(1786394281.828550) can0 18FEF1F8#FF0000FFFFFFFFFF
(1786394281.829772) can0 18F005F8#7DFFFF7DFFFFFFFF
(1786394281.855493) can0 1CECFFF1#20120003FF19F000
(1786394281.856464) can0 1CEBFFF1#0127100000000000
(1786394281.857461) can0 1CEBFFF1#0200000000000000
(1786394281.858455) can0 1CEBFFF1#03FFEDAB74FFFFFF
(1786394281.884578) can0 18F015F1#0000463C4B6A4579
(1786394281.927208) can0 18FF09D1#01000A00CFECE1
(1786394281.928912) can0 18FEF1F8#FF0000FFFFFFFFFF
(1786394281.930256) can0 18F005F8#7DFFFF7DFFFFFFFF
(1786394281.931528) can0 18ECFFFF#20100003FF13FF00
(1786394281.932646) can0 18EBFFFF#0100330F5EFA6010
(1786394281.933776) can0 18EBFFFF#02515D4400000000
(1786394281.934896) can0 18EBFFFF#03010BFFFFFFFFFF
(1786394281.955493) can0 1CECFFF1#20120003FF19F000
(1786394281.956459) can0 1CEBFFF1#0127100000000000
(1786394281.957480) can0 1CEBFFF1#0200000000000000
(1786394281.958467) can0 1CEBFFF1#03FFEDAB74FFFFFF
(1786394281.984471) can0 18F015F1#0000463C4B6A457A
(1786394282.027128) can0 18FF09D1#01000A00CFECE1
(1786394282.028313) can0 18FEF1F8#FF0000FFFFFFFFFF
(1786394282.029494) can0 18F005F8#7DFFFF7DFFFFFFFF
(1786394282.055479) can0 1CECFFF1#20120003FF19F000
(1786394282.056462) can0 1CEBFFF1#0127100000000000
(1786394282.057468) can0 1CEBFFF1#0200000000000000
(1786394282.058450) can0 1CEBFFF1#03FFEDAB74FFFFFF
(1786394282.084481) can0 18F015F1#0000463C4B6A457A
(1786394282.127140) can0 18FF09D1#01000A00CFECE1
(1786394282.128428) can0 18FEF1F8#FF0000FFFFFFFFFF
(1786394282.129649) can0 18F005F8#7DFFFF7DFFFFFFFF
(1786394282.155932) can0 1CECFFF1#20120003FF19F000
(1786394282.156508) can0 1CEBFFF1#0127100000000000
(1786394282.157519) can0 1CEBFFF1#0200000000000000
(1786394282.158459) can0 1CEBFFF1#03FFEDAB74FFFFFF
(1786394282.184969) can0 18F015F1#0000463C4B6A4579
(1786394282.227194) can0 18FF09D1#01000A00CFECE1
(1786394282.227527) can0 18FF14D1#
(1786394282.228747) can0 18FEF1F8#FF0000FFFFFFFFFF
(1786394282.229857) can0 18F005F8#7DFFFF7DFFFFFFFF
(1786394282.255534) can0 1CECFFF1#20120003FF19F000
(1786394282.256475) can0 1CEBFFF1#0127100000000000
(1786394282.257477) can0 1CEBFFF1#0200000000000000
(1786394282.258453) can0 1CEBFFF1#03FFEDAB74FFFFFF
(1786394282.285466) can0 18F015F1#0000463C4B6A457A
(1786394282.327093) can0 18FF09D1#01000A00CF64E7
(1786394282.328351) can0 18FEF1F8#FF0000FFFFFFFFFF
(1786394282.329485) can0 18F005F8#7DFFFF7DFFFFFFFF
(1786394282.355473) can0 1CECFFF1#20120003FF19F000
(1786394282.356459) can0 1CEBFFF1#0127100000000000
(1786394282.357471) can0 1CEBFFF1#0200000000000000
(1786394282.358454) can0 1CEBFFF1#03FFEDAB74FFFFFF
(1786394282.384463) can0 18F015F1#0000463C4B6A457A
(1786394282.427077) can0 18FF09D1#01000A00CF64E7
(1786394282.428531) can0 18FEF1F8#FF0000FFFFFFFFFF
(1786394282.429767) can0 18F005F8#7DFFFF7DFFFFFFFF
(1786394282.430907) can0 18ECFFFF#20100003FF13FF00
(1786394282.432017) can0 18EBFFFF#0100330F5EFA6010
(1786394282.433124) can0 18EBFFFF#02515D4400000000
(1786394282.434257) can0 18EBFFFF#03010BFFFFFFFFFF
(1786394282.455580) can0 1CECFFF1#20120003FF19F000
(1786394282.456507) can0 1CEBFFF1#0127100000000000
(1786394282.457548) can0 1CEBFFF1#0200000000000000
(1786394282.458497) can0 1CEBFFF1#03FFEDAB74FFFFFF
(1786394282.484681) can0 18F015F1#0000463C4B6A4579
(1786394282.527053) can0 18FF09D1#01000A00CF64E7
(1786394282.528390) can0 18FEF1F8#FF0000FFFFFFFFFF
(1786394282.529510) can0 18F005F8#7DFFFF7DFFFFFFFF
(1786394282.555457) can0 1CECFFF1#20120003FF19F000
(1786394282.556454) can0 1CEBFFF1#0127100000000000
(1786394282.557460) can0 1CEBFFF1#0200000000000000
(1786394282.558443) can0 1CEBFFF1#03FFEDAB74FFFFFF
(1786394282.584458) can0 18F015F1#0000463C4B6A4579
(1786394282.627105) can0 18FF09D1#01000A00CF64E7
(1786394282.628641) can0 18FEF1F8#FF0000FFFFFFFFFF
(1786394282.629764) can0 18F005F8#7DFFFF7DFFFFFFFF
(1786394282.656484) can0 1CECFFF1#20120003FF19F000
(1786394282.657488) can0 1CEBFFF1#0127100000000000
(1786394282.658506) can0 1CEBFFF1#0200000000000000
(1786394282.659472) can0 1CEBFFF1#03FFEDAB74FFFFFF
(1786394282.685462) can0 18F015F1#0000463C4B6B457A
(1786394282.727131) can0 18FF09D1#01000A00CF64E7
(1786394282.727486) can0 18FF14D1#
(1786394282.728786) can0 18FEF1F8#FF0000FFFFFFFFFF
(1786394282.729908) can0 18F005F8#7DFFFF7DFFFFFFFF
(1786394282.756479) can0 1CECFFF1#20120003FF19F000
(1786394282.757465) can0 1CEBFFF1#0127100000000000
(1786394282.758481) can0 1CEBFFF1#0200000000000000
(1786394282.759467) can0 1CEBFFF1#03FFEDAB74FFFFFF
(1786394282.785494) can0 18F015F1#0000463C4B6A4579
(1786394282.795576) can0 18F017F1#DE51FDEF94F3
(1786394282.795900) can0 18F018F1#DC5FF6A59346
(1786394282.827527) can0 18FF09D1#01000A00CF64E7
(1786394282.829140) can0 18FEF1F8#FF0000FFFFFFFFFF
(1786394282.830351) can0 18F005F8#7DFFFF7DFFFFFFFF
(1786394282.856907) can0 1CECFFF1#20120003FF19F000
(1786394282.857505) can0 1CEBFFF1#0127100000000000
(1786394282.858515) can0 1CEBFFF1#0200000000000000
(1786394282.859467) can0 1CEBFFF1#03FFEDAB74FFFFFF
(1786394282.885582) can0 18F015F1#0000463C4B6A4579
(1786394282.928830) can0 18FF09D1#01000A00CF64E7
(1786394282.930046) can0 18FEF1F8#FF0000FFFFFFFFFF
(1786394282.931235) can0 18F005F8#7DFFFF7DFFFFFFFF
(1786394282.932371) can0 18ECFFFF#20100003FF13FF00
(1786394282.933496) can0 18EBFFFF#0100330F5EFA6010
(1786394282.934648) can0 18EBFFFF#02515D4400000000
(1786394282.935782) can0 18EBFFFF#03010BFFFFFFFFFF
(1786394282.956532) can0 1CECFFF1#20120003FF19F000
(1786394282.957466) can0 1CEBFFF1#0127100000000000
(1786394282.958475) can0 1CEBFFF1#0200000000000000
(1786394282.959458) can0 1CEBFFF1#03FFEDAB74FFFFFF
(1786394282.985501) can0 18F015F1#0000463C4B6A4579
(1786394283.027051) can0 18FF09D1#01000A00CF64E7
(1786394283.028323) can0 18FEF1F8#FF0000FFFFFFFFFF
(1786394283.029489) can0 18F005F8#7DFFFF7DFFFFFFFF
(1786394283.056488) can0 1CECFFF1#20120003FF19F000
(1786394283.057467) can0 1CEBFFF1#0127100000000000
(1786394283.058480) can0 1CEBFFF1#0200000000000000
(1786394283.059463) can0 1CEBFFF1#03FFEDAB74FFFFFF
(1786394283.085483) can0 18F015F1#0000463C4B6A4579
(1786394283.127216) can0 18FF09D1#01000A00CF64E7
(1786394283.128765) can0 18FEF1F8#FF0000FFFFFFFFFF
(1786394283.129998) can0 18F005F8#7DFFFF7DFFFFFFFF
(1786394283.156836) can0 1CECFFF1#20120003FF19F000
(1786394283.158177) can0 1CEBFFF1#0127100000000000
(1786394283.159147) can0 1CEBFFF1#0200000000000000
(1786394283.159536) can0 1CEBFFF1#03FFEDAB74FFFFFF
(1786394283.185588) can0 18F015F1#0000463C4B6A4579
(1786394283.227201) can0 18FF09D1#01000A00CF64E7
(1786394283.227581) can0 18FF14D1#
(1786394283.228748) can0 18FEF1F8#FF0000FFFFFFFFFF
(1786394283.230049) can0 18F005F8#7DFFFF7DFFFFFFFF
(1786394283.257354) can0 1CECFFF1#20120003FF19F000
(1786394283.258211) can0 1CEBFFF1#0127100000000000
(1786394283.258478) can0 1CEBFFF1#0200000000000000
(1786394283.259462) can0 1CEBFFF1#03FFEDAB74FFFFFF
(1786394283.286498) can0 18F015F1#0000463C4B6A4579
(1786394283.327096) can0 18FF09D1#01000A00CF7CE3
(1786394283.328418) can0 18FEF1F8#FF0000FFFFFFFFFF
(1786394283.329541) can0 18F005F8#7DFFFF7DFFFFFFFF
(1786394283.357480) can0 1CECFFF1#20120003FF19F000
(1786394283.358459) can0 1CEBFFF1#0127100000000000
(1786394283.359474) can0 1CEBFFF1#0200000000000000
(1786394283.360454) can0 1CEBFFF1#03FFEDAB74FFFFFF
(1786394283.386554) can0 18F015F1#0000463C4B6A4579
(1786394283.427098) can0 18FF09D1#01000A00CF7CE3
(1786394283.428537) can0 18FEF1F8#FF0000FFFFFFFFFF
(1786394283.429834) can0 18F005F8#7DFFFF7DFFFFFFFF
(1786394283.431076) can0 18ECFFFF#20100003FF13FF00
(1786394283.432181) can0 18EBFFFF#0100330F5EFA6010
(1786394283.433301) can0 18EBFFFF#02515D4400000000
(1786394283.434551) can0 18EBFFFF#03010BFFFFFFFFFF
(1786394283.457541) can0 1CECFFF1#20120003FF19F000
(1786394283.458472) can0 1CEBFFF1#0127100000000000
(1786394283.459487) can0 1CEBFFF1#0200000000000000
(1786394283.460467) can0 1CEBFFF1#03FFEDAB74FFFFFF
(1786394283.486550) can0 18F015F1#0000463C4B6A4579
(1786394283.527682) can0 18FF09D1#01000A00CF7CE3
(1786394283.529393) can0 18FEF1F8#FF0000FFFFFFFFFF
(1786394283.530537) can0 18F005F8#7DFFFF7DFFFFFFFF
(1786394283.557482) can0 1CECFFF1#20120003FF19F000
(1786394283.558457) can0 1CEBFFF1#0127100000000000
(1786394283.559469) can0 1CEBFFF1#0200000000000000
(1786394283.560448) can0 1CEBFFF1#03FFEDAB74FFFFFF
(1786394283.586456) can0 18F015F1#0000463C4B6B4579
(1786394283.627096) can0 18FF09D1#01000A00CF7CE3
(1786394283.628475) can0 18FEF1F8#FF0000FFFFFFFFFF
(1786394283.629613) can0 18F005F8#7DFFFF7DFFFFFFFF
(1786394283.657504) can0 1CECFFF1#20120003FF19F000
(1786394283.658497) can0 1CEBFFF1#0127100000000000
(1786394283.659479) can0 1CEBFFF1#0200000000000000
(1786394283.660452) can0 1CEBFFF1#03FFEDAB74FFFFFF
(1786394283.686466) can0 18F015F1#0000463C4B6A4579
(1786394283.727102) can0 18FF09D1#01000A00CF7CE3
(1786394283.727508) can0 18FF14D1#
(1786394283.728797) can0 18FEF1F8#FF0000FFFFFFFFFF
(1786394283.729928) can0 18F005F8#7DFFFF7DFFFFFFFF
(1786394283.757485) can0 1CECFFF1#20120003FF19F000
(1786394283.758464) can0 1CEBFFF1#0127100000000000
(1786394283.759478) can0 1CEBFFF1#0200000000000000
(1786394283.760471) can0 1CEBFFF1#03FFEDAB74FFFFFF
(1786394283.787457) can0 18F015F1#0000463C4B6A4579
(1786394283.796404) can0 18F017F1#DE51FDEF94F3
(1786394283.796835) can0 18F018F1#DC5FF6A59346
(1786394283.827174) can0 18FF09D1#01000A00CFC8E7
(1786394283.828697) can0 18FEF1F8#FF0000FFFFFFFFFF
(1786394283.830006) can0 18F005F8#7DFFFF7DFFFFFFFF
(1786394283.857610) can0 1CECFFF1#20120003FF19F000
(1786394283.858577) can0 1CEBFFF1#0127100000000000
(1786394283.859563) can0 1CEBFFF1#0200000000000000
(1786394283.860508) can0 1CEBFFF1#03FFEDAB74FFFFFF
(1786394283.886834) can0 18F015F1#0000463C4B6B4579
(1786394283.928421) can0 18FF09D1#01000A00CFC8E7
(1786394283.929862) can0 18FEF1F8#FF0000FFFFFFFFFF
(1786394283.931114) can0 18F005F8#7DFFFF7DFFFFFFFF
(1786394283.932338) can0 18ECFFFF#20100003FF13FF00
(1786394283.933493) can0 18EBFFFF#0100330F5EFA6010
(1786394283.934602) can0 18EBFFFF#02515D4400000000
(1786394283.935722) can0 18EBFFFF#03010BFFFFFFFFFF
(1786394283.957522) can0 1CECFFF1#20120003FF19F000
(1786394283.958471) can0 1CEBFFF1#0127100000000000
(1786394283.959482) can0 1CEBFFF1#0200000000000000
(1786394283.960469) can0 1CEBFFF1#03FFEDAB74FFFFFF
(1786394283.986546) can0 18F015F1#0000463C4B6A4579
(1786394284.027068) can0 18FF09D1#01000A00CFC8E7
(1786394284.028423) can0 18FEF1F8#FF0000FFFFFFFFFF
(1786394284.029582) can0 18F005F8#7DFFFF7DFFFFFFFF
(1786394284.057514) can0 1CECFFF1#20120003FF19F000
(1786394284.058474) can0 1CEBFFF1#0127100000000000
(1786394284.059480) can0 1CEBFFF1#0200000000000000
(1786394284.060467) can0 1CEBFFF1#03FFEDAB74FFFFFF
(1786394284.086491) can0 18F015F1#0000463C4B6A4579
(1786394284.127027) can0 18FF09D1#01000A00CFC8E7
(1786394284.128287) can0 18FEF1F8#FF0000FFFFFFFFFF
(1786394284.129476) can0 18F005F8#7DFFFF7DFFFFFFFF
(1786394284.158813) can0 1CECFFF1#20120003FF19F000
(1786394284.159596) can0 1CEBFFF1#0127100000000000
(1786394284.160544) can0 1CEBFFF1#0200000000000000
(1786394284.161815) can0 1CEBFFF1#03FFEDAB74FFFFFF
(1786394284.187589) can0 18F015F1#0000463C4B6A4579
(1786394284.227196) can0 18FF09D1#01000A00CFC8E7
(1786394284.227486) can0 18FF14D1#
(1786394284.227849) can0 18FF16D1#01000A0064
(1786394284.230130) can0 18FEF1F8#FF0000FFFFFFFFFF
(1786394284.231246) can0 18F005F8#7DFFFF7DFFFFFFFF
(1786394284.258482) can0 1CECFFF1#20120003FF19F000
(1786394284.259468) can0 1CEBFFF1#0127100000000000
(1786394284.260481) can0 1CEBFFF1#0200000000000000
(1786394284.261465) can0 1CEBFFF1#03FFEDAB74FFFFFF
(1786394284.287518) can0 18F015F1#0000463C4B6A4579
(1786394284.327032) can0 18FF09D1#01000A00CF90E8
(1786394284.328268) can0 18FEF1F8#FF0000FFFFFFFFFF
(1786394284.329409) can0 18F005F8#7DFFFF7DFFFFFFFF
(1786394284.358493) can0 1CECFFF1#20120003FF19F000
(1786394284.359479) can0 1CEBFFF1#0127100000000000
(1786394284.360484) can0 1CEBFFF1#0200000000000000
(1786394284.361457) can0 1CEBFFF1#03FFEEAA34FFFFFF
(1786394284.387520) can0 18F015F1#0000463D4B6A4579
(1786394284.427081) can0 18FF09D1#01000A00CF90E8
(1786394284.428395) can0 18FEF1F8#FF0000FFFFFFFFFF
(1786394284.429668) can0 18F005F8#7DFFFF7DFFFFFFFF
(1786394284.430843) can0 18ECFFFF#20100003FF13FF00
(1786394284.432039) can0 18EBFFFF#0100330F5EFA6010
(1786394284.433159) can0 18EBFFFF#02515D4400000000
(1786394284.434275) can0 18EBFFFF#03010BFFFFFFFFFF
(1786394284.458494) can0 1CECFFF1#20120003FF19F000
(1786394284.459485) can0 1CEBFFF1#0127100000000000
(1786394284.460517) can0 1CEBFFF1#0200000000000000
(1786394284.461484) can0 1CEBFFF1#03FFEEAA34FFFFFF
(1786394284.487639) can0 18F015F1#0000463C4B6B4579
(1786394284.527380) can0 18FF09D1#01000A00CF90E8
(1786394284.529132) can0 18FEF1F8#FF0000FFFFFFFFFF
(1786394284.530415) can0 18F005F8#7DFFFF7DFFFFFFFF
(1786394284.558498) can0 1CECFFF1#20120003FF19F000
(1786394284.559466) can0 1CEBFFF1#0127100000000000
(1786394284.560475) can0 1CEBFFF1#0200000000000000
(1786394284.561478) can0 1CEBFFF1#03FFEDAB74FFFFFF
(1786394284.587478) can0 18F015F1#0000463C4B6A4579
(1786394284.627044) can0 18FF09D1#01000A00CF90E8
(1786394284.628348) can0 18FEF1F8#FF0000FFFFFFFFFF
(1786394284.629503) can0 18F005F8#7DFFFF7DFFFFFFFF
(1786394284.658517) can0 1CECFFF1#20120003FF19F000
(1786394284.659570) can0 1CEBFFF1#0127100000000000
(1786394284.660508) can0 1CEBFFF1#0200000000000000
(1786394284.661459) can0 1CEBFFF1#03FFEEAA34FFFFFF
(1786394284.687481) can0 18F015F1#0000463D4B6A457A
(1786394284.727099) can0 18FF09D1#01000A00CF90E8
(1786394284.727424) can0 18FF14D1#
(1786394284.728686) can0 18FEF1F8#FF0000FFFFFFFFFF
(1786394284.729808) can0 18F005F8#7DFFFF7DFFFFFFFF
(1786394284.758505) can0 1CECFFF1#20120003FF19F000
(1786394284.759481) can0 1CEBFFF1#0127100000000000
(1786394284.760496) can0 1CEBFFF1#0200000000000000
(1786394284.761474) can0 1CEBFFF1#03FFEEAA34FFFFFF
(1786394284.788475) can0 18F015F1#0000463C4B6B457A
(1786394284.797390) can0 18F017F1#DEA6FE4B94A9
(1786394284.797844) can0 18F018F1#DC07F7449367
(1786394284.827092) can0 18FF09D1#01000A00CFE0E3
(1786394284.828556) can0 18FEF1F8#FF0000FFFFFFFFFF
(1786394284.829761) can0 18F005F8#7DFFFF7DFFFFFFFF
(1786394284.858765) can0 1CECFFF1#20120003FF19F000
(1786394284.859861) can0 1CEBFFF1#0127100000000000
(1786394284.860602) can0 1CEBFFF1#0200000000000000
(1786394284.861525) can0 1CEBFFF1#03FFEDAB74FFFFFF
(1786394284.888513) can0 18F015F1#0000463C4B6A4579
(1786394284.927213) can0 18FF09D1#01000A00CFE0E3
(1786394284.929730) can0 18FEF1F8#FF0000FFFFFFFFFF
(1786394284.930897) can0 18F005F8#7DFFFF7DFFFFFFFF
(1786394284.932054) can0 18ECFFFF#20100003FF13FF00
(1786394284.933380) can0 18EBFFFF#0100330F5EFA6010
(1786394284.934506) can0 18EBFFFF#02515D4400000000
(1786394284.935686) can0 18EBFFFF#03010BFFFFFFFFFF
(1786394284.959758) can0 1CECFFF1#20120003FF19F000
(1786394284.960488) can0 1CEBFFF1#0127100000000000
(1786394284.961497) can0 1CEBFFF1#0200000000000000
(1786394284.962480) can0 1CEBFFF1#03FFEDAB74FFFFFF
(1786394284.988519) can0 18F015F1#0000463D4B6B457A
(1786394285.027041) can0 18FF09D1#01000A00CFE0E3
(1786394285.028336) can0 18FEF1F8#FF0000FFFFFFFFFF
(1786394285.029469) can0 18F005F8#7DFFFF7DFFFFFFFF
(1786394285.059502) can0 1CECFFF1#20120003FF19F000
(1786394285.060479) can0 1CEBFFF1#0127100000000000
(1786394285.061490) can0 1CEBFFF1#0200000000000000
(1786394285.062466) can0 1CEBFFF1#03FFEEAA34FFFFFF
(1786394285.088470) can0 18F015F1#0000463C4B6B457A
(1786394285.127055) can0 18FF09D1#01000A00CFE0E3
(1786394285.128334) can0 18FEF1F8#FF0000FFFFFFFFFF
(1786394285.129497) can0 18F005F8#7DFFFF7DFFFFFFFF
(1786394285.159563) can0 1CECFFF1#20120003FF19F000
(1786394285.160558) can0 1CEBFFF1#0127100000000000
(1786394285.161500) can0 1CEBFFF1#0200000000000000
(1786394285.162479) can0 1CEBFFF1#03FFEDAB74FFFFFF
(1786394285.188717) can0 18F015F1#0000463D4B6A4579
(1786394285.227193) can0 18FF09D1#01000A00CFE0E3
(1786394285.227958) can0 18FF14D1#
(1786394285.229082) can0 18FEF1F8#FF0000FFFFFFFFFF
(1786394285.230189) can0 18F005F8#7DFFFF7DFFFFFFFF
(1786394285.259491) can0 1CECFFF1#20120003FF19F000
(1786394285.260478) can0 1CEBFFF1#0127100000000000
(1786394285.261489) can0 1CEBFFF1#0200000000000000
(1786394285.262463) can0 1CEBFFF1#03FFEEAA34FFFFFF
(1786394285.289541) can0 18F015F1#0000463D4B6A4579
(1786394285.327013) can0 18FF09D1#01000A00CFE0E3
(1786394285.328547) can0 18FEF1F8#FF0000FFFFFFFFFF
(1786394285.329678) can0 18F005F8#7DFFFF7DFFFFFFFF
(1786394285.359547) can0 1CECFFF1#20120003FF19F000
(1786394285.360495) can0 1CEBFFF1#0127100000000000
(1786394285.361503) can0 1CEBFFF1#0200000000000000
(1786394285.362478) can0 1CEBFFF1#03FFEEAA34FFFFFF
(1786394285.388575) can0 18F015F1#0000463C4B6B457A
(1786394285.427058) can0 18FF09D1#01000A00CFE0E3
(1786394285.428380) can0 18FEF1F8#FF0000FFFFFFFFFF
(1786394285.429690) can0 18F005F8#7DFFFF7DFFFFFFFF
(1786394285.442726) can0 18ECFFFF#20100003FF13FF00
(1786394285.443970) can0 18EBFFFF#0100330F5EFA6010
(1786394285.445231) can0 18EBFFFF#02515D4400000000
(1786394285.446481) can0 18EBFFFF#03010BFFFFFFFFFF
(1786394285.459622) can0 1CECFFF1#20120003FF19F000
(1786394285.460496) can0 1CEBFFF1#0127100000000000
(1786394285.461511) can0 1CEBFFF1#0200000000000000
(1786394285.462488) can0 1CEBFFF1#03FFEDAB74FFFFFF
(1786394285.488533) can0 18F015F1#0000463D4B6B4579
(1786394285.527141) can0 18FF09D1#01000A00CFE0E3
(1786394285.528616) can0 18FEF1F8#FF0000FFFFFFFFFF
(1786394285.529876) can0 18F005F8#7DFFFF7DFFFFFFFF
(1786394285.561119) can0 1CECFFF1#20120003FF19F000
(1786394285.561594) can0 1CEBFFF1#0127100000000000
(1786394285.562860) can0 1CEBFFF1#0200000000000000
(1786394285.563724) can0 1CEBFFF1#03FFEEAA34FFFFFF
(1786394285.589849) can0 18F015F1#0000463D4B6B4579
(1786394285.627022) can0 18FF09D1#01000A00CFE0E3
(1786394285.628299) can0 18FEF1F8#FF0000FFFFFFFFFF
(1786394285.629462) can0 18F005F8#7DFFFF7DFFFFFFFF
(1786394285.660541) can0 1CECFFF1#20120003FF19F000
(1786394285.661484) can0 1CEBFFF1#0127100000000000
(1786394285.662489) can0 1CEBFFF1#0200000000000000
(1786394285.663469) can0 1CEBFFF1#03FFEEAA34FFFFFF
(1786394285.689468) can0 18F015F1#0000463C4B6B4579
(1786394285.727062) can0 18FF09D1#01000A00CFE0E3
(1786394285.727416) can0 18FF14D1#
(1786394285.728698) can0 18FEF1F8#FF0000FFFFFFFFFF
(1786394285.729825) can0 18F005F8#7DFFFF7DFFFFFFFF
(1786394285.760524) can0 1CECFFF1#20120003FF19F000
(1786394285.761491) can0 1CEBFFF1#0127100000000000
(1786394285.762505) can0 1CEBFFF1#0200000000000000
(1786394285.763486) can0 1CEBFFF1#03FFEDAB74FFFFFF
(1786394285.789475) can0 18F015F1#0000463C4B6B4579
(1786394285.799392) can0 18F017F1#DEA6FE4B94A9
(1786394285.799855) can0 18F018F1#DC07F7449367
(1786394285.827120) can0 18FF09D1#01000A00CF90E8
(1786394285.828692) can0 18FEF1F8#FF0000FFFFFFFFFF
(1786394285.829997) can0 18F005F8#7DFFFF7DFFFFFFFF
(1786394285.860877) can0 1CECFFF1#20120003FF19F000
(1786394285.861546) can0 1CEBFFF1#0127100000000000
(1786394285.863017) can0 1CEBFFF1#0200000000000000
(1786394285.863504) can0 1CEBFFF1#03FFEDAB74FFFFFF
(1786394285.889801) can0 18F015F1#0000463D4B6B457A
(1786394285.927053) can0 18FF09D1#01000A00CF90E8
(1786394285.928538) can0 18FEF1F8#FF0000FFFFFFFFFF
(1786394285.929734) can0 18F005F8#7DFFFF7DFFFFFFFF
(1786394285.930857) can0 18ECFFFF#20100003FF13FF00
(1786394285.931988) can0 18EBFFFF#0100330F5EFA6010
(1786394285.933084) can0 18EBFFFF#02515D4400000000
(1786394285.934184) can0 18EBFFFF#03010BFFFFFFFFFF
(1786394285.960549) can0 1CECFFF1#20120003FF19F000
(1786394285.961483) can0 1CEBFFF1#0127100000000000
(1786394285.962486) can0 1CEBFFF1#0200000000000000
(1786394285.963461) can0 1CEBFFF1#03FFEEAA34FFFFFF
(1786394285.989536) can0 18F015F1#0000463C4B6B457A
(1786394286.027005) can0 18FF09D1#01000A00CF90E8
(1786394286.028446) can0 18FEF1F8#FF0000FFFFFFFFFF
(1786394286.029601) can0 18F005F8#7DFFFF7DFFFFFFFF
(1786394286.060524) can0 1CECFFF1#20120003FF19F000
(1786394286.061482) can0 1CEBFFF1#0127100000000000
(1786394286.062490) can0 1CEBFFF1#0200000000000000
(1786394286.063477) can0 1CEBFFF1#03FFEDAB74FFFFFF
(1786394286.089501) can0 18F015F1#0000463C4B6B457A
(1786394286.126944) can0 18FF09D1#01000A00CF90E8
(1786394286.128263) can0 18FEF1F8#FF0000FFFFFFFFFF
(1786394286.129473) can0 18F005F8#7DFFFF7DFFFFFFFF
(1786394286.160530) can0 1CECFFF1#20120003FF19F000
(1786394286.161499) can0 1CEBFFF1#0127100000000000
(1786394286.162508) can0 1CEBFFF1#0200000000000000
(1786394286.163483) can0 1CEBFFF1#03FFEEAA34FFFFFF
(1786394286.189653) can0 18F015F1#0000463D4B6B457A
(1786394286.227343) can0 18FF09D1#01000A00CF90E8
(1786394286.228006) can0 18FF16D1#01000A0064
(1786394286.228166) can0 18FF14D1#
(1786394286.229477) can0 18FEF1F8#FF0000FFFFFFFFFF
(1786394286.230773) can0 18F005F8#7DFFFF7DFFFFFFFF
(1786394286.260526) can0 1CECFFF1#20120003FF19F000
(1786394286.261480) can0 1CEBFFF1#0127100000000000
(1786394286.262488) can0 1CEBFFF1#0200000000000000
(1786394286.263473) can0 1CEBFFF1#03FFEDAB74FFFFFF
(1786394286.290533) can0 18F015F1#0000463C4B6B457A
(1786394286.327260) can0 18FF09D1#01000A00CFE0E3
(1786394286.328477) can0 18FEF1F8#FF0000FFFFFFFFFF
(1786394286.329634) can0 18F005F8#7DFFFF7DFFFFFFFF
(1786394286.361560) can0 1CECFFF1#20120003FF19F000
(1786394286.362495) can0 1CEBFFF1#0127100000000000
(1786394286.363494) can0 1CEBFFF1#0200000000000000
(1786394286.364475) can0 1CEBFFF1#03FFEDAB74FFFFFF
(1786394286.389502) can0 18F015F1#0000463C4B6B457A
(1786394286.426991) can0 18FF09D1#01000A00CFE0E3
(1786394286.428383) can0 18FEF1F8#FF0000FFFFFFFFFF
(1786394286.429642) can0 18F005F8#7DFFFF7DFFFFFFFF
(1786394286.430860) can0 18ECFFFF#20100003FF13FF00
(1786394286.431966) can0 18EBFFFF#0100330F5EFA6010
(1786394286.433072) can0 18EBFFFF#02515D4400000000
(1786394286.434193) can0 18EBFFFF#03010BFFFFFFFFFF
(1786394286.461515) can0 1CECFFF1#20120003FF19F000
(1786394286.462485) can0 1CEBFFF1#0127100000000000
(1786394286.463494) can0 1CEBFFF1#0200000000000000
(1786394286.464475) can0 1CEBFFF1#03FFEDAB74FFFFFF
(1786394286.490624) can0 18F015F1#0000463D4B6B457A
(1786394286.527093) can0 18FF09D1#01000A00CFE0E3
(1786394286.528705) can0 18FEF1F8#FF0000FFFFFFFFFF
(1786394286.529854) can0 18F005F8#7DFFFF7DFFFFFFFF
(1786394286.561533) can0 1CECFFF1#20120003FF19F000
(1786394286.562497) can0 1CEBFFF1#0127100000000000
(1786394286.563491) can0 1CEBFFF1#0200000000000000
(1786394286.564475) can0 1CEBFFF1#03FFEDAB74FFFFFF
(1786394286.590493) can0 18F015F1#0000463C4B6B457A
(1786394286.626995) can0 18FF09D1#01000A00CFE0E3
(1786394286.628332) can0 18FEF1F8#FF0000FFFFFFFFFF
(1786394286.629463) can0 18F005F8#7DFFFF7DFFFFFFFF
(1786394286.661583) can0 1CECFFF1#20120003FF19F000
(1786394286.662526) can0 1CEBFFF1#0127100000000000
(1786394286.663496) can0 1CEBFFF1#0200000000000000
(1786394286.664483) can0 1CEBFFF1#03FFEDAB74FFFFFF
(1786394286.690506) can0 18F015F1#0000463C4B6B457A
(1786394286.727050) can0 18FF09D1#01000A00CFE0E3
(1786394286.727350) can0 18FF14D1#
(1786394286.728743) can0 18FEF1F8#FF0000FFFFFFFFFF
(1786394286.729903) can0 18F005F8#7DFFFF7DFFFFFFFF
(1786394286.761541) can0 1CECFFF1#20120003FF19F000
(1786394286.762500) can0 1CEBFFF1#0127100000000000
(1786394286.763510) can0 1CEBFFF1#0200000000000000
(1786394286.764498) can0 1CEBFFF1#03FFEDAB74FFFFFF
(1786394286.791580) can0 18F015F1#0000463D4B6B457A
(1786394286.800409) can0 18F017F1#DF55FDD49619
(1786394286.800876) can0 18F018F1#DC13F5B8927F
(1786394286.827154) can0 18FF09D1#01000A00CF64E7
(1786394286.828627) can0 18FEF1F8#FF0000FFFFFFFFFF
(1786394286.829946) can0 18F005F8#7DFFFF7DFFFFFFFF
(1786394286.861842) can0 1CECFFF1#20120003FF19F000
(1786394286.862559) can0 1CEBFFF1#0127100000000000
(1786394286.863593) can0 1CEBFFF1#0200000000000000
(1786394286.864709) can0 1CEBFFF1#03FFEDAB74FFFFFF
(1786394286.890918) can0 18F015F1#0000463C4B6B457A
(1786394286.927448) can0 18FF09D1#01000A00CF64E7
(1786394286.929233) can0 18FEF1F8#FF0000FFFFFFFFFF
(1786394286.930520) can0 18F005F8#7DFFFF7DFFFFFFFF
(1786394286.933758) can0 18ECFFFF#20100003FF13FF00
(1786394286.934864) can0 18EBFFFF#0100330F5EFA6010
(1786394286.935982) can0 18EBFFFF#02515D4400000000
(1786394286.937092) can0 18EBFFFF#03010BFFFFFFFFFF
(1786394286.961571) can0 1CECFFF1#20120003FF19F000
(1786394286.962494) can0 1CEBFFF1#0127100000000000
(1786394286.963495) can0 1CEBFFF1#0200000000000000
(1786394286.964478) can0 1CEBFFF1#03FFEDAB74FFFFFF
(1786394286.990589) can0 18F015F1#0000463C4B6B457A
(1786394287.026951) can0 18FF09D1#01000A00CF64E7
(1786394287.028259) can0 18FEF1F8#FF0000FFFFFFFFFF
(1786394287.029411) can0 18F005F8#7DFFFF7DFFFFFFFF
(1786394287.061538) can0 1CECFFF1#20120003FF19F000
(1786394287.062494) can0 1CEBFFF1#0127100000000000
(1786394287.063502) can0 1CEBFFF1#0200000000000000
(1786394287.064485) can0 1CEBFFF1#03FFEDAB74FFFFFF
(1786394287.090509) can0 18F015F1#0000463C4B6B457A
(1786394287.126936) can0 18FF09D1#01000A00CF64E7
(1786394287.128240) can0 18FEF1F8#FF0000FFFFFFFFFF
(1786394287.129418) can0 18F005F8#7DFFFF7DFFFFFFFF
(1786394287.162598) can0 1CECFFF1#20120003FF19F000
(1786394287.163527) can0 1CEBFFF1#0127100000000000
(1786394287.164541) can0 1CEBFFF1#0200000000000000
(1786394287.165534) can0 1CEBFFF1#03FFEDAB74FFFFFF
(1786394287.192863) can0 18F015F1#0000463C4B6B457A
(1786394287.227008) can0 18FF09D1#01000A00CF64E7
(1786394287.227280) can0 18FF14D1#
(1786394287.228512) can0 18FEF1F8#FF0000FFFFFFFFFF
(1786394287.229623) can0 18F005F8#7DFFFF7DFFFFFFFF
(1786394287.262524) can0 1CECFFF1#20120003FF19F000
(1786394287.263489) can0 1CEBFFF1#0127100000000000
(1786394287.264495) can0 1CEBFFF1#0200000000000000
(1786394287.265476) can0 1CEBFFF1#03FFEDAB74FFFFFF
(1786394287.291547) can0 18F015F1#0000463C4B6B457A
(1786394287.326942) can0 18FF09D1#01000A00CF90E8
(1786394287.328254) can0 18FEF1F8#FF0000FFFFFFFFFF
(1786394287.329438) can0 18F005F8#7DFFFF7DFFFFFFFF
(1786394287.362529) can0 1CECFFF1#20120003FF19F000
(1786394287.365194) can0 1CEBFFF1#0127100000000000
(1786394287.365380) can0 1CEBFFF1#0200000000000000
(1786394287.365649) can0 1CEBFFF1#03FFEDAB74FFFFFF
(1786394287.391605) can0 18F015F1#0000463C4B6B457A
(1786394287.427065) can0 18FF09D1#01000A00CF90E8
(1786394287.428891) can0 18FEF1F8#FF0000FFFFFFFFFF
(1786394287.430307) can0 18F005F8#7DFFFF7DFFFFFFFF
(1786394287.431773) can0 18ECFFFF#20100003FF13FF00
(1786394287.433055) can0 18EBFFFF#0100330F5EFA6010
(1786394287.434238) can0 18EBFFFF#02515D4400000000
(1786394287.435384) can0 18EBFFFF#03010BFFFFFFFFFF
(1786394287.462602) can0 1CECFFF1#20120003FF19F000
(1786394287.463488) can0 1CEBFFF1#0127100000000000
(1786394287.464501) can0 1CEBFFF1#0200000000000000
(1786394287.465481) can0 1CEBFFF1#03FFEDAB74FFFFFF
(1786394287.491523) can0 18F015F1#0000463C4B6B457A
(1786394287.527066) can0 18FF09D1#01000A00CF90E8
(1786394287.528742) can0 18FEF1F8#FF0000FFFFFFFFFF
(1786394287.529955) can0 18F005F8#7DFFFF7DFFFFFFFF
(1786394287.562670) can0 1CECFFF1#20120003FF19F000
(1786394287.563501) can0 1CEBFFF1#0127100000000000
(1786394287.564500) can0 1CEBFFF1#0200000000000000
(1786394287.565481) can0 1CEBFFF1#03FFEDAB74FFFFFF
(1786394287.591522) can0 18F015F1#0000463C4B6B457A
(1786394287.627146) can0 18FF09D1#01000A00CF90E8
(1786394287.628486) can0 18FEF1F8#FF0000FFFFFFFFFF
(1786394287.629674) can0 18F005F8#7DFFFF7DFFFFFFFF
(1786394287.662578) can0 1CECFFF1#20120003FF19F000
(1786394287.663521) can0 1CEBFFF1#0127100000000000
(1786394287.664569) can0 1CEBFFF1#0200000000000000
(1786394287.665548) can0 1CEBFFF1#03FFEDAB74FFFFFF
(1786394287.691541) can0 18F015F1#0000463C4B6B457A
(1786394287.727033) can0 18FF09D1#01000A00CF90E8
(1786394287.727423) can0 18FF14D1#
(1786394287.728578) can0 18FEF1F8#FF0000FFFFFFFFFF
(1786394287.729712) can0 18F005F8#7DFFFF7DFFFFFFFF
(1786394287.762602) can0 1CECFFF1#20120003FF19F000
(1786394287.763520) can0 1CEBFFF1#0127100000000000
(1786394287.764515) can0 1CEBFFF1#0200000000000000
(1786394287.765513) can0 1CEBFFF1#03FFEDAB74FFFFFF
(1786394287.792527) can0 18F015F1#0000463C4B6B457A
(1786394287.801412) can0 18F017F1#DF55FDD49619
(1786394287.801876) can0 18F018F1#DC13F5B8927F
(1786394287.826936) can0 18FF09D1#01000A00CF90E8
(1786394287.828302) can0 18FEF1F8#FF0000FFFFFFFFFF
(1786394287.829531) can0 18F005F8#7DFFFF7DFFFFFFFF
(1786394287.863632) can0 1CECFFF1#20120003FF19F000
(1786394287.864531) can0 1CEBFFF1#0127100000000000
(1786394287.865522) can0 1CEBFFF1#0200000000000000
(1786394287.866566) can0 1CEBFFF1#03FFEDAB74FFFFFF
(1786394287.892735) can0 18F015F1#0000463C4B6B457A
(1786394287.926971) can0 18FF09D1#01000A00CF90E8
(1786394287.930265) can0 18FEF1F8#FF0000FFFFFFFFFF
(1786394287.931693) can0 18F005F8#7DFFFF7DFFFFFFFF
(1786394287.933647) can0 18ECFFFF#20100003FF13FF00
(1786394287.934787) can0 18EBFFFF#0100330F5EFA6010
(1786394287.936224) can0 18EBFFFF#02515D4400000000
(1786394287.937331) can0 18EBFFFF#03010BFFFFFFFFFF
(1786394287.963591) can0 1CECFFF1#20120003FF19F000
(1786394287.964510) can0 1CEBFFF1#0127100000000000
(1786394287.965514) can0 1CEBFFF1#0200000000000000
(1786394287.966500) can0 1CEBFFF1#03FFEDAB74FFFFFF
(1786394287.992542) can0 18F015F1#0000463C4B6B457A
(1786394288.026951) can0 18FF09D1#01000A00CF90E8
(1786394288.028316) can0 18FEF1F8#FF0000FFFFFFFFFF
(1786394288.029524) can0 18F005F8#7DFFFF7DFFFFFFFF
(1786394288.063538) can0 1CECFFF1#20120003FF19F000
(1786394288.064507) can0 1CEBFFF1#0127100000000000
(1786394288.065511) can0 1CEBFFF1#0200000000000000
(1786394288.066496) can0 1CEBFFF1#03FFEDAB74FFFFFF
(1786394288.092492) can0 18F015F1#0000463C4B6B457A
(1786394288.126919) can0 18FF09D1#01000A00CF90E8
(1786394288.128255) can0 18FEF1F8#FF0000FFFFFFFFFF
(1786394288.129387) can0 18F005F8#7DFFFF7DFFFFFFFF
(1786394288.163682) can0 1CECFFF1#20120003FF19F000
(1786394288.164539) can0 1CEBFFF1#0127100000000000
(1786394288.165561) can0 1CEBFFF1#0200000000000000
(1786394288.166537) can0 1CEBFFF1#03FFEDAB74FFFFFF
(1786394288.192674) can0 18F015F1#0000463C4B6B457A
(1786394288.227147) can0 18FF09D1#01000A00CF90E8
(1786394288.227899) can0 18FF16D1#01000A0064
(1786394288.228056) can0 18FF14D1#
(1786394288.229769) can0 18FEF1F8#FF0000FFFFFFFFFF
(1786394288.230879) can0 18F005F8#7DFFFF7DFFFFFFFF
(1786394288.263504) can0 1CECFFF1#20120003FF19F000
(1786394288.264490) can0 1CEBFFF1#0127100000000000
(1786394288.265501) can0 1CEBFFF1#0200000000000000
(1786394288.266489) can0 1CEBFFF1#03FFEDAB74FFFFFF
(1786394288.293509) can0 18F015F1#0000463C4B6B457A
(1786394288.327411) can0 18FF09D1#01000A00CF90E8
(1786394288.328698) can0 18FEF1F8#FF0000FFFFFFFFFF
(1786394288.329821) can0 18F005F8#7DFFFF7DFFFFFFFF
(1786394288.363525) can0 1CECFFF1#20120003FF19F000
(1786394288.364510) can0 1CEBFFF1#0127100000000000
(1786394288.365520) can0 1CEBFFF1#0200000000000000
(1786394288.366506) can0 1CEBFFF1#03FFEDAB74FFFFFF
(1786394288.392499) can0 18F015F1#0000463C4B6B457A
(1786394288.427195) can0 18FF09D1#01000A00CF64E7
(1786394288.428798) can0 18FEF1F8#FF0000FFFFFFFFFF
(1786394288.429953) can0 18F005F8#7DFFFF7DFFFFFFFF
(1786394288.431057) can0 18ECFFFF#20100003FF13FF00
(1786394288.432174) can0 18EBFFFF#0100330F5EFA6010
(1786394288.433284) can0 18EBFFFF#02515D4400000000
(1786394288.434401) can0 18EBFFFF#03010BFFFFFFFFFF
(1786394288.463505) can0 1CECFFF1#20120003FF19F000
(1786394288.464494) can0 1CEBFFF1#0127100000000000
(1786394288.465507) can0 1CEBFFF1#0200000000000000
(1786394288.466493) can0 1CEBFFF1#03FFEDAB74FFFFFF
(1786394288.492533) can0 18F015F1#0000463C4B6B457A
(1786394288.527027) can0 18FF09D1#01000A00CF64E7
(1786394288.528624) can0 18FEF1F8#FF0000FFFFFFFFFF
(1786394288.530304) can0 18F005F8#7DFFFF7DFFFFFFFF
(1786394288.563519) can0 1CECFFF1#20120003FF19F000
(1786394288.564494) can0 1CEBFFF1#0127100000000000
(1786394288.565503) can0 1CEBFFF1#0200000000000000
(1786394288.566509) can0 1CEBFFF1#03FFEDAB74FFFFFF
(1786394288.592504) can0 18F015F1#0000463C4B6B457A
(1786394288.626888) can0 18FF09D1#01000A00CF64E7
(1786394288.628237) can0 18FEF1F8#FF0000FFFFFFFFFF
(1786394288.629646) can0 18F005F8#7DFFFF7DFFFFFFFF
(1786394288.664560) can0 1CECFFF1#20120003FF19F000
(1786394288.665496) can0 1CEBFFF1#0127100000000000
(1786394288.666513) can0 1CEBFFF1#0200000000000000
(1786394288.667491) can0 1CEBFFF1#03FFEDAB74FFFFFF
(1786394288.693499) can0 18F015F1#0000463C4B6B457A
(1786394288.726950) can0 18FF09D1#01000A00CF64E7
(1786394288.727302) can0 18FF14D1#
(1786394288.728608) can0 18FEF1F8#FF0000FFFFFFFFFF
(1786394288.729755) can0 18F005F8#7DFFFF7DFFFFFFFF
(1786394288.764538) can0 1CECFFF1#20120003FF19F000
(1786394288.765517) can0 1CEBFFF1#0127100000000000
(1786394288.766526) can0 1CEBFFF1#0200000000000000
(1786394288.767508) can0 1CEBFFF1#03FFEDAB74FFFFFF
(1786394288.793501) can0 18F015F1#0000463C4B6B457A
(1786394288.803412) can0 18F017F1#DF27FD6B95DF
(1786394288.803881) can0 18F018F1#DBF7F586927C
(1786394288.827022) can0 18ECFFD1#200E0002FF09FF00
(1786394288.827791) can0 18EBFFD1#0101000A00CF64E7
(1786394288.828101) can0 18EBFFD1#0201000C00CF1CDA
(1786394288.828682) can0 18FEF1F8#FF0000FFFFFFFFFF
(1786394288.829885) can0 18F005F8#7DFFFF7DFFFFFFFF
(1786394288.865235) can0 1CECFFF1#20120003FF19F000
(1786394288.866385) can0 1CEBFFF1#0127100000000000
(1786394288.868199) can0 1CEBFFF1#0200000000000000
(1786394288.868693) can0 1CEBFFF1#03FFEDAB74FFFFFF
(1786394288.893598) can0 18F015F1#0000463C4B6B457A
(1786394288.927412) can0 18ECFFD1#200E0002FF09FF00
(1786394288.927822) can0 18EBFFD1#0101000A00CFF4E8
(1786394288.928726) can0 18EBFFD1#0201000C00CF1CDA
(1786394288.929119) can0 18FEF1F8#FF0000FFFFFFFFFF
(1786394288.930282) can0 18F005F8#7DFFFF7DFFFFFFFF
(1786394288.931420) can0 18ECFFFF#20100003FF13FF00
(1786394288.932512) can0 18EBFFFF#0100330F5EFA6010
(1786394288.933606) can0 18EBFFFF#02515D4400000000
(1786394288.934750) can0 18EBFFFF#03010BFFFFFFFFFF
(1786394288.964765) can0 1CECFFF1#20120003FF19F000
(1786394288.965514) can0 1CEBFFF1#0127100000000000
(1786394288.966518) can0 1CEBFFF1#0200000000000000
(1786394288.967491) can0 1CEBFFF1#03FFEDAB74FFFFFF
(1786394288.993803) can0 18F015F1#0000463C4B6B457A
(1786394289.026978) can0 18ECFFD1#200E0002FF09FF00
(1786394289.027752) can0 18EBFFD1#0101000A00CFF4E8
(1786394289.028034) can0 18EBFFD1#0201000C00CF1CDA
(1786394289.028610) can0 18FEF1F8#FF0000FFFFFFFFFF
(1786394289.029729) can0 18F005F8#7DFFFF7DFFFFFFFF
(1786394289.064539) can0 1CECFFF1#20120003FF19F000
(1786394289.065511) can0 1CEBFFF1#0127100000000000
(1786394289.066544) can0 1CEBFFF1#0200000000000000
(1786394289.067494) can0 1CEBFFF1#03FFEDAB74FFFFFF
(1786394289.093511) can0 18F015F1#0000463C4B6A457A
(1786394289.126982) can0 18ECFFD1#200E0002FF09FF00
(1786394289.127781) can0 18EBFFD1#0101000A00CFF4E8
(1786394289.128068) can0 18EBFFD1#0201000C00CF1CDA
(1786394289.128624) can0 18FEF1F8#FF0000FFFFFFFFFF
(1786394289.129767) can0 18F005F8#7DFFFF7DFFFFFFFF
(1786394289.164608) can0 1CECFFF1#20120003FF19F000
(1786394289.165539) can0 1CEBFFF1#0127100000000000
(1786394289.166553) can0 1CEBFFF1#0200000000000000
(1786394289.167595) can0 1CEBFFF1#03FFEDAB74FFFFFF
(1786394289.193702) can0 18F015F1#0000463C4B6A457A
(1786394289.227210) can0 18ECFFD1#200E0002FF09FF00
(1786394289.227651) can0 18EBFFD1#0101000A00CFF4E8
(1786394289.228321) can0 18EBFFD1#0201000C00CF1CDA
(1786394289.228819) can0 18FEF1F8#FF0000FFFFFFFFFF
(1786394289.229122) can0 18FF14D1#
(1786394289.230329) can0 18F005F8#7DFFFF7DFFFFFFFF
(1786394289.265530) can0 1CECFFF1#20120003FF19F000
(1786394289.266504) can0 1CEBFFF1#0127100000000000
(1786394289.267507) can0 1CEBFFF1#0200000000000000
(1786394289.268490) can0 1CEBFFF1#03FFEDAB74FFFFFF
(1786394289.294523) can0 18F015F1#0000463C4B6A457A
(1786394289.327001) can0 18ECFFD1#200E0002FF09FF00
(1786394289.327792) can0 18EBFFD1#0101000A00CFF4E8
(1786394289.328067) can0 18EBFFD1#0201000C00CF1CDA
(1786394289.328608) can0 18FEF1F8#FF0000FFFFFFFFFF
(1786394289.329748) can0 18F005F8#7DFFFF7DFFFFFFFF
(1786394289.366126) can0 1CECFFF1#20120003FF19F000
(1786394289.366586) can0 1CEBFFF1#0127100000000000
(1786394289.367568) can0 1CEBFFF1#0200000000000000
(1786394289.368532) can0 1CEBFFF1#03FFEDAB74FFFFFF
(1786394289.394692) can0 18F015F1#0000463C4B6A457A
(1786394289.427116) can0 18ECFFD1#200E0002FF09FF00
(1786394289.427673) can0 18EBFFD1#0101000A00CF0CE5
(1786394289.428321) can0 18EBFFD1#0201000C00CF1CDA
(1786394289.428851) can0 18FEF1F8#FF0000FFFFFFFFFF
(1786394289.430066) can0 18F005F8#7DFFFF7DFFFFFFFF
(1786394289.431214) can0 18ECFFFF#20100003FF13FF00
(1786394289.432344) can0 18EBFFFF#0100330F5EFA6010
(1786394289.433515) can0 18EBFFFF#02515D4400000000
(1786394289.434642) can0 18EBFFFF#03010BFFFFFFFFFF
(1786394289.465579) can0 1CECFFF1#20120003FF19F000
(1786394289.466559) can0 1CEBFFF1#0127100000000000
(1786394289.467529) can0 1CEBFFF1#0200000000000000
(1786394289.468517) can0 1CEBFFF1#03FFEDAB74FFFFFF
(1786394289.494517) can0 18F015F1#0000463C4B6A457A
(1786394289.527061) can0 18ECFFD1#200E0002FF09FF00
(1786394289.527554) can0 18EBFFD1#0101000A00CF0CE5
(1786394289.528283) can0 18EBFFD1#0201000C00CF1CDA
(1786394289.528787) can0 18FEF1F8#FF0000FFFFFFFFFF
(1786394289.529988) can0 18F005F8#7DFFFF7DFFFFFFFF
(1786394289.566509) can0 1CECFFF1#20120003FF19F000
(1786394289.567290) can0 1CEBFFF1#0127100000000000
(1786394289.567706) can0 1CEBFFF1#0200000000000000
(1786394289.568547) can0 1CEBFFF1#03FFEDAB74FFFFFF
(1786394289.594522) can0 18F015F1#0000463C4B6A457A
(1786394289.626976) can0 18ECFFD1#200E0002FF09FF00
(1786394289.627752) can0 18EBFFD1#0101000A00CF0CE5
(1786394289.628003) can0 18EBFFD1#0201000C00CF1CDA
(1786394289.628610) can0 18FEF1F8#FF0000FFFFFFFFFF
(1786394289.629717) can0 18F005F8#7DFFFF7DFFFFFFFF
(1786394289.665576) can0 1CECFFF1#20120003FF19F000
(1786394289.666514) can0 1CEBFFF1#0127100000000000
(1786394289.667519) can0 1CEBFFF1#0200000000000000
(1786394289.668506) can0 1CEBFFF1#03FFEDAB74FFFFFF
(1786394289.694495) can0 18F015F1#0000463C4B6A457A
(1786394289.727080) can0 18ECFFD1#200E0002FF09FF00
(1786394289.727789) can0 18EBFFD1#0101000A00CF0CE5
(1786394289.728107) can0 18EBFFD1#0201000C00CF1CDA
(1786394289.728743) can0 18FEF1F8#FF0000FFFFFFFFFF
(1786394289.729065) can0 18FF14D1#
(1786394289.730329) can0 18F005F8#7DFFFF7DFFFFFFFF
(1786394289.765538) can0 1CECFFF1#20120003FF19F000
(1786394289.766523) can0 1CEBFFF1#0127100000000000
(1786394289.767538) can0 1CEBFFF1#0200000000000000
(1786394289.776152) can0 1CEBFFF1#03FFEDAB74FFFFFF
(1786394289.795527) can0 18F015F1#0000463C4B6A457A
(1786394289.804474) can0 18F017F1#DF27FD6B95DF
(1786394289.804882) can0 18F018F1#DBF7F586927C
(1786394289.826997) can0 18ECFFD1#200E0002FF09FF00
(1786394289.827496) can0 18EBFFD1#0101000A00CF0CE5
(1786394289.828234) can0 18EBFFD1#0201000C00CF1CDA
(1786394289.828729) can0 18FEF1F8#FF0000FFFFFFFFFF
(1786394289.829871) can0 18F005F8#7DFFFF7DFFFFFFFF
(1786394289.866309) can0 1CECFFF1#20120003FF19F000
(1786394289.866893) can0 1CEBFFF1#0127100000000000
(1786394289.867556) can0 1CEBFFF1#0200000000000000
(1786394289.868595) can0 1CEBFFF1#03FFEDAB74FFFFFF
(1786394289.894569) can0 18F015F1#0000463C4B6A457A
(1786394289.927700) can0 18ECFFD1#200E0002FF09FF00
(1786394289.928174) can0 18EBFFD1#0101000A00CF64E7
(1786394289.928484) can0 18EBFFD1#0201000C00CF1CDA
(1786394289.931447) can0 18FEF1F8#FF0000FFFFFFFFFF
(1786394289.937443) can0 18F005F8#7DFFFF7DFFFFFFFF
(1786394289.938913) can0 18ECFFFF#20100003FF13FF00
(1786394289.940132) can0 18EBFFFF#0100330F5EFA6010
(1786394289.942613) can0 18EBFFFF#02515D4400000000
(1786394289.944034) can0 18EBFFFF#03010BFFFFFFFFFF
(1786394289.965605) can0 1CECFFF1#20120003FF19F000
(1786394289.966540) can0 1CEBFFF1#0127100000000000
(1786394289.967598) can0 1CEBFFF1#0200000000000000
(1786394289.968582) can0 1CEBFFF1#03FFEDAB74FFFFFF
(1786394289.994925) can0 18F015F1#0000463C4B6A457A
(1786394290.027190) can0 18ECFFD1#200E0002FF09FF00
(1786394290.027675) can0 18EBFFD1#0101000A00CF64E7
(1786394290.028057) can0 18EBFFD1#0201000C00CF1CDA
(1786394290.029374) can0 18FEF1F8#FF0000FFFFFFFFFF
(1786394290.030660) can0 18F005F8#7DFFFF7DFFFFFFFF
(1786394290.065711) can0 1CECFFF1#20120003FF19F000
(1786394290.066483) can0 1CEBFFF1#0127100000000000
(1786394290.067558) can0 1CEBFFF1#0200000000000000
(1786394290.068515) can0 1CEBFFF1#03FFEDAB74FFFFFF
(1786394290.094558) can0 18F015F1#0000463C4B6A457A
(1786394290.126932) can0 18ECFFD1#200E0002FF09FF00
(1786394290.127469) can0 18EBFFD1#0101000A00CF64E7
(1786394290.128119) can0 18EBFFD1#0201000C00CF1CDA
(1786394290.128611) can0 18FEF1F8#FF0000FFFFFFFFFF
(1786394290.129732) can0 18F005F8#7DFFFF7DFFFFFFFF
(1786394290.166552) can0 1CECFFF1#20120003FF19F000
(1786394290.167512) can0 1CEBFFF1#0127100000000000
(1786394290.168522) can0 1CEBFFF1#0200000000000000
(1786394290.169506) can0 1CEBFFF1#03FFEDAB74FFFFFF
(1786394290.195575) can0 18F015F1#0000463C4B6A457A
(1786394290.227195) can0 18ECFFD1#200E0002FF09FF00
(1786394290.227731) can0 18EBFFD1#0101000A00CF64E7
(1786394290.229448) can0 18EBFFD1#0201000C00CF1CDA
(1786394290.229853) can0 18FF14D1#
(1786394290.231247) can0 18FEF1F8#FF0000FFFFFFFFFF
(1786394290.232398) can0 18F005F8#7DFFFF7DFFFFFFFF
(1786394290.266617) can0 1CECFFF1#20120003FF19F000
(1786394290.267614) can0 1CEBFFF1#0127100000000000
(1786394290.268595) can0 1CEBFFF1#0200000000000000
(1786394290.269643) can0 1CEBFFF1#03FFEDAB74FFFFFF
(1786394290.295541) can0 18F015F1#0000463C4B6A4579
(1786394290.326960) can0 18ECFFD1#200E0002FF09FF00
(1786394290.327748) can0 18EBFFD1#0101000A00CF64E7
(1786394290.328002) can0 18EBFFD1#0201000C00CF1CDA
(1786394290.328592) can0 18FEF1F8#FF0000FFFFFFFFFF
(1786394290.329708) can0 18F005F8#7DFFFF7DFFFFFFFF
(1786394290.366554) can0 1CECFFF1#20120003FF19F000
(1786394290.367518) can0 1CEBFFF1#0127100000000000
(1786394290.368531) can0 1CEBFFF1#0200000000000000
(1786394290.369515) can0 1CEBFFF1#03FFEDAB74FFFFFF
(1786394290.395510) can0 18F015F1#0000463C4B6B4579
(1786394290.426984) can0 18ECFFD1#200E0002FF09FF00
(1786394290.427546) can0 18EBFFD1#0101000A00CF64E7
(1786394290.428422) can0 18EBFFD1#0201000C00CF1CDA
(1786394290.429992) can0 18FEF1F8#FF0000FFFFFFFFFF
(1786394290.431253) can0 18F005F8#7DFFFF7DFFFFFFFF
(1786394290.432355) can0 18ECFFFF#20100003FF13FF00
(1786394290.433460) can0 18EBFFFF#0100330F5EFA6010
(1786394290.434564) can0 18EBFFFF#02515D4400000000
(1786394290.435677) can0 18EBFFFF#03010BFFFFFFFFFF
(1786394290.466531) can0 1CECFFF1#20120003FF19F000
(1786394290.467511) can0 1CEBFFF1#0127100000000000
(1786394290.468519) can0 1CEBFFF1#0200000000000000
(1786394290.469504) can0 1CEBFFF1#03FFEDAB74FFFFFF
(1786394290.495553) can0 18F015F1#0000463C4B6B457A
(1786394290.527012) can0 18ECFFD1#200E0002FF09FF00
(1786394290.527513) can0 18EBFFD1#0101000A00CF64E7
(1786394290.528210) can0 18EBFFD1#0201000C00CF1CDA
(1786394290.528753) can0 18FEF1F8#FF0000FFFFFFFFFF
(1786394290.529963) can0 18F005F8#7DFFFF7DFFFFFFFF
(1786394290.566815) can0 1CECFFF1#20120003FF19F000
(1786394290.567509) can0 1CEBFFF1#0127100000000000
(1786394290.568517) can0 1CEBFFF1#0200000000000000
(1786394290.569501) can0 1CEBFFF1#03FFEDAB74FFFFFF
(1786394290.595505) can0 18F015F1#0000463C4B6B4579
(1786394290.626937) can0 18ECFFD1#200E0002FF09FF00
(1786394290.627756) can0 18EBFFD1#0101000A00CF64E7
(1786394290.628017) can0 18EBFFD1#0201000C00CF1CDA
(1786394290.628757) can0 18FEF1F8#FF0000FFFFFFFFFF
(1786394290.630573) can0 18F005F8#7DFFFF7DFFFFFFFF
(1786394290.666612) can0 1CECFFF1#20120003FF19F000
(1786394290.667522) can0 1CEBFFF1#0127100000000000
(1786394290.668528) can0 1CEBFFF1#0200000000000000
(1786394290.669504) can0 1CEBFFF1#03FFEDAB74FFFFFF
(1786394290.695513) can0 18F015F1#0000463C4B6B4579
(1786394290.727006) can0 18ECFFD1#200E0002FF09FF00
(1786394290.727772) can0 18EBFFD1#0101000A00CF64E7
(1786394290.728029) can0 18EBFFD1#0201000C00CF1CDA
(1786394290.728655) can0 18FEF1F8#FF0000FFFFFFFFFF
(1786394290.728941) can0 18FF14D1#
(1786394290.730175) can0 18F005F8#7DFFFF7DFFFFFFFF
(1786394290.767544) can0 1CECFFF1#20120003FF19F000
(1786394290.768519) can0 1CEBFFF1#0127100000000000
(1786394290.769532) can0 1CEBFFF1#0200000000000000
(1786394290.770514) can0 1CEBFFF1#03FFEDAB74FFFFFF
(1786394290.796505) can0 18F015F1#0000463C4B6B457A
(1786394290.805437) can0 18F017F1#DF33FDAF964C
(1786394290.805896) can0 18F018F1#DC34F5D6924D
(1786394290.826943) can0 18ECFFD1#200E0002FF09FF00
(1786394290.827480) can0 18EBFFD1#0101000A00CF64E7
(1786394290.828201) can0 18EBFFD1#0201000C00CF1CDA
(1786394290.828684) can0 18FEF1F8#FF0000FFFFFFFFFF
(1786394290.829833) can0 18F005F8#7DFFFF7DFFFFFFFF
(1786394290.867867) can0 1CECFFF1#20120003FF19F000
(1786394290.868522) can0 1CEBFFF1#0127100000000000
(1786394290.869578) can0 1CEBFFF1#0200000000000000
(1786394290.870559) can0 1CEBFFF1#03FFEDAB74FFFFFF
(1786394290.896807) can0 18F015F1#0000463C4B6B4579
(1786394290.927131) can0 18ECFFD1#200E0002FF09FF00
(1786394290.927894) can0 18EBFFD1#0101000A00CF70E5
(1786394290.928223) can0 18EBFFD1#0201000C00CF1CDA
(1786394290.929767) can0 18FEF1F8#FF0000FFFFFFFFFF
(1786394290.931139) can0 18F005F8#7DFFFF7DFFFFFFFF
(1786394290.932687) can0 18ECFFFF#20100003FF13FF00
(1786394290.933808) can0 18EBFFFF#0100330F5EFA6010
(1786394290.934912) can0 18EBFFFF#02515D4400000000
(1786394290.936093) can0 18EBFFFF#03010BFFFFFFFFFF
(1786394290.967585) can0 1CECFFF1#20120003FF19F000
(1786394290.968525) can0 1CEBFFF1#0127100000000000
(1786394290.969524) can0 1CEBFFF1#0200000000000000
(1786394290.970508) can0 1CEBFFF1#03FFEDAB74FFFFFF
(1786394290.996551) can0 18F015F1#0000463C4B6B4579
(1786394291.026972) can0 18ECFFD1#200E0002FF09FF00
(1786394291.027786) can0 18EBFFD1#0101000A00CF70E5
(1786394291.028045) can0 18EBFFD1#0201000C00CF1CDA
(1786394291.028593) can0 18FEF1F8#FF0000FFFFFFFFFF
(1786394291.029722) can0 18F005F8#7DFFFF7DFFFFFFFF
(1786394291.067548) can0 1CECFFF1#20120003FF19F000
(1786394291.068526) can0 1CEBFFF1#0127100000000000
(1786394291.069534) can0 1CEBFFF1#0200000000000000
(1786394291.070516) can0 1CEBFFF1#03FFEDAB74FFFFFF
(1786394291.096527) can0 18F015F1#0000463C4B6B457A
(1786394291.127021) can0 18ECFFD1#200E0002FF09FF00
(1786394291.127483) can0 18EBFFD1#0101000A00CF70E5
(1786394291.128250) can0 18EBFFD1#0201000C00CF1CDA
(1786394291.128707) can0 18FEF1F8#FF0000FFFFFFFFFF
(1786394291.129890) can0 18F005F8#7DFFFF7DFFFFFFFF
(1786394291.167696) can0 1CECFFF1#20120003FF19F000
(1786394291.168574) can0 1CEBFFF1#0127100000000000
(1786394291.169584) can0 1CEBFFF1#0200000000000000
(1786394291.170570) can0 1CEBFFF1#03FFEDAB74FFFFFF
(1786394291.196795) can0 18F015F1#0000463C4B6B457A
(1786394291.227115) can0 18ECFFD1#200E0002FF09FF00
(1786394291.227827) can0 18EBFFD1#0101000A00CF70E5
(1786394291.228079) can0 18EBFFD1#0201000C00CF1CDA
(1786394291.228658) can0 18FEF1F8#FF0000FFFFFFFFFF
(1786394291.228908) can0 18FF14D1#
(1786394291.230118) can0 18F005F8#7DFFFF7DFFFFFFFF
(1786394291.267546) can0 1CECFFF1#20120003FF19F000
(1786394291.268517) can0 1CEBFFF1#0127100000000000
(1786394291.269525) can0 1CEBFFF1#0200000000000000
(1786394291.270507) can0 1CEBFFF1#03FFEDAB74FFFFFF
(1786394291.297546) can0 18F015F1#0000463C4B6B4579
(1786394291.326985) can0 18FF09D1#01000A00CF70E5
(1786394291.328937) can0 18FEF1F8#FF0000FFFFFFFFFF
(1786394291.330220) can0 18F005F8#7DFFFF7DFFFFFFFF
(1786394291.367696) can0 1CECFFF1#20120003FF19F000
(1786394291.368586) can0 1CEBFFF1#0127100000000000
(1786394291.369562) can0 1CEBFFF1#0200000000000000
(1786394291.370534) can0 1CEBFFF1#03FFEDAB74FFFFFF
(1786394291.396613) can0 18F015F1#0000463C4B6B457A
(1786394291.427047) can0 18FF09D1#01000A00CF64E7
(1786394291.428378) can0 18FEF1F8#FF0000FFFFFFFFFF
(1786394291.429686) can0 18F005F8#7DFFFF7DFFFFFFFF
(1786394291.430913) can0 18ECFFFF#20100003FF13FF00
(1786394291.432029) can0 18EBFFFF#0100330F5EFA6010
(1786394291.433212) can0 18EBFFFF#02515D4400000000
(1786394291.434334) can0 18EBFFFF#03010BFFFFFFFFFF
(1786394291.467564) can0 1CECFFF1#20120003FF19F000
(1786394291.468519) can0 1CEBFFF1#0127100000000000
(1786394291.469580) can0 1CEBFFF1#0200000000000000
(1786394291.470519) can0 1CEBFFF1#03FFEDAB74FFFFFF
(1786394291.496539) can0 18F015F1#0000463C4B6B457A
(1786394291.526807) can0 18FF09D1#01000A00CF64E7
(1786394291.528259) can0 18FEF1F8#FF0000FFFFFFFFFF
(1786394291.529423) can0 18F005F8#7DFFFF7DFFFFFFFF
(1786394291.568652) can0 1CECFFF1#20120003FF19F000
(1786394291.569529) can0 1CEBFFF1#0127100000000000
(1786394291.570594) can0 1CEBFFF1#0200000000000000
(1786394291.571590) can0 1CEBFFF1#03FFEDAB74FFFFFF
(1786394291.597665) can0 18F015F1#0000463C4B6B457A
(1786394291.626863) can0 18FF09D1#01000A00CF64E7
(1786394291.628357) can0 18FEF1F8#FF0000FFFFFFFFFF
(1786394291.629522) can0 18F005F8#7DFFFF7DFFFFFFFF
(1786394291.668604) can0 1CECFFF1#20120003FF19F000
(1786394291.669527) can0 1CEBFFF1#0127100000000000
(1786394291.670534) can0 1CEBFFF1#0200000000000000
(1786394291.671515) can0 1CEBFFF1#03FFEDAB74FFFFFF
(1786394291.697521) can0 18F015F1#0000463C4B6B457A
(1786394291.726916) can0 18FF09D1#01000A00CF64E7
(1786394291.727264) can0 18FF14D1#
(1786394291.728549) can0 18FEF1F8#FF0000FFFFFFFFFF
(1786394291.729686) can0 18F005F8#7DFFFF7DFFFFFFFF
(1786394291.768574) can0 1CECFFF1#20120003FF19F000
(1786394291.769538) can0 1CEBFFF1#0127100000000000
(1786394291.770549) can0 1CEBFFF1#0200000000000000
(1786394291.771530) can0 1CEBFFF1#03FFEDAB74FFFFFF
(1786394291.797520) can0 18F015F1#0000463C4B6B457A
(1786394291.807451) can0 18F017F1#DF33FDAF964C
(1786394291.807920) can0 18F018F1#DC34F5D6924D
(1786394291.826815) can0 18FF09D1#01000A00CF64E7
(1786394291.828271) can0 18FEF1F8#FF0000FFFFFFFFFF
(1786394291.829429) can0 18F005F8#7DFFFF7DFFFFFFFF
(1786394291.868932) can0 1CECFFF1#20120003FF19F000
(1786394291.869527) can0 1CEBFFF1#0127100000000000
(1786394291.870602) can0 1CEBFFF1#0200000000000000
(1786394291.871544) can0 1CEBFFF1#03FFEDAB74FFFFFF
(1786394291.897774) can0 18F015F1#0000463C4B6B457A
(1786394291.928023) can0 18ECFFD1#200E0002FF09FF00
(1786394291.928695) can0 18EBFFD1#0101000A00CFFAE7
(1786394291.931740) can0 18EBFFD1#0201000C00CF1CDA
(1786394291.933566) can0 18FEF1F8#FF0000FFFFFFFFFF
(1786394291.934727) can0 18F005F8#7DFFFF7DFFFFFFFF
(1786394291.935912) can0 18ECFFFF#20100003FF13FF00
(1786394291.937009) can0 18EBFFFF#0100330F5EFA6010
(1786394291.938158) can0 18EBFFFF#02515D4400000000
(1786394291.939400) can0 18EBFFFF#03010BFFFFFFFFFF
(1786394291.968937) can0 1CECFFF1#20120003FF19F000
(1786394291.969574) can0 1CEBFFF1#0127100000000000
(1786394291.970549) can0 1CEBFFF1#0200000000000000
(1786394291.971514) can0 1CEBFFF1#03FFEDAB74FFFFFF
(1786394291.997584) can0 18F015F1#0000463C4B6B457A
(1786394292.027022) can0 18ECFFD1#200E0002FF09FF00
(1786394292.027463) can0 18EBFFD1#0101000A00CFFAE7
(1786394292.028104) can0 18EBFFD1#0201000C00CF1CDA
(1786394292.028601) can0 18FEF1F8#FF0000FFFFFFFFFF
(1786394292.029748) can0 18F005F8#7DFFFF7DFFFFFFFF
(1786394292.068595) can0 1CECFFF1#20120003FF19F000
(1786394292.069562) can0 1CEBFFF1#0127100000000000
(1786394292.070550) can0 1CEBFFF1#0200000000000000
(1786394292.071527) can0 1CEBFFF1#03FFEDAB74FFFFFF
(1786394292.097564) can0 18F015F1#0000463C4B6B457A
(1786394292.126964) can0 18ECFFD1#200E0002FF09FF00
(1786394292.127436) can0 18EBFFD1#0101000A00CFFAE7
(1786394292.128111) can0 18EBFFD1#0201000C00CF1CDA
(1786394292.128599) can0 18FEF1F8#FF0000FFFFFFFFFF
(1786394292.129732) can0 18F005F8#7DFFFF7DFFFFFFFF
(1786394292.168599) can0 1CECFFF1#20120003FF19F000
(1786394292.169536) can0 1CEBFFF1#0127100000000000
(1786394292.170547) can0 1CEBFFF1#0200000000000000
(1786394292.171529) can0 1CEBFFF1#03FFEDAB74FFFFFF
(1786394292.197882) can0 18F015F1#0000463C4B6B457A
(1786394292.227533) can0 18ECFFD1#200E0002FF09FF00
(1786394292.228132) can0 18EBFFD1#0101000A00CFFAE7
(1786394292.228585) can0 18EBFFD1#0201000C00CF1CDA
(1786394292.229241) can0 18FF14D1#
(1786394292.229647) can0 18FF16D1#01000A0064
(1786394292.231418) can0 18FEF1F8#FF0000FFFFFFFFFF
(1786394292.233282) can0 18F005F8#7DFFFF7DFFFFFFFF
(1786394292.268577) can0 1CECFFF1#20120003FF19F000
(1786394292.269521) can0 1CEBFFF1#0127100000000000
(1786394292.270531) can0 1CEBFFF1#0200000000000000
(1786394292.271514) can0 1CEBFFF1#03FFEDAB74FFFFFF
(1786394292.298527) can0 18F015F1#0000463C4B6B457A
(1786394292.326963) can0 18ECFFD1#200E0002FF09FF00
(1786394292.327426) can0 18EBFFD1#0101000A00CFFAE7
(1786394292.328105) can0 18EBFFD1#0201000C00CF1CDA
(1786394292.328594) can0 18FEF1F8#FF0000FFFFFFFFFF
(1786394292.329710) can0 18F005F8#7DFFFF7DFFFFFFFF
(1786394292.369571) can0 1CECFFF1#20120003FF19F000
(1786394292.370535) can0 1CEBFFF1#0127100000000000
(1786394292.371545) can0 1CEBFFF1#0200000000000000
(1786394292.372557) can0 1CEBFFF1#03FFEDAB74FFFFFF
(1786394292.398525) can0 18F015F1#0000463C4B6B457A
(1786394292.427096) can0 18ECFFD1#200E0002FF09FF00
(1786394292.428848) can0 18EBFFD1#0101000A00CF0CE5
(1786394292.429004) can0 18EBFFD1#0201000C00CF1CDA
(1786394292.430434) can0 18FEF1F8#FF0000FFFFFFFFFF
(1786394292.431588) can0 18F005F8#7DFFFF7DFFFFFFFF
(1786394292.432718) can0 18ECFFFF#20100003FF13FF00
(1786394292.433852) can0 18EBFFFF#0100330F5EFA6010
(1786394292.434980) can0 18EBFFFF#02515D4400000000
(1786394292.436120) can0 18EBFFFF#03010BFFFFFFFFFF
(1786394292.469559) can0 1CECFFF1#20120003FF19F000
(1786394292.470536) can0 1CEBFFF1#0127100000000000
(1786394292.471546) can0 1CEBFFF1#0200000000000000
(1786394292.472527) can0 1CEBFFF1#03FFEDAB74FFFFFF
(1786394292.498559) can0 18F015F1#0000463C4B6B457A
(1786394292.526933) can0 18ECFFD1#200E0002FF09FF00
(1786394292.527464) can0 18EBFFD1#0101000A00CF0CE5
(1786394292.527988) can0 18EBFFD1#0201000C00CF1CDA
(1786394292.529365) can0 18FEF1F8#FF0000FFFFFFFFFF
(1786394292.530590) can0 18F005F8#7DFFFF7DFFFFFFFF
(1786394292.569566) can0 1CECFFF1#20120003FF19F000
(1786394292.570524) can0 1CEBFFF1#0127100000000000
(1786394292.571539) can0 1CEBFFF1#0200000000000000
(1786394292.572518) can0 1CEBFFF1#03FFEDAB74FFFFFF
(1786394292.598515) can0 18F015F1#0000463C4B6B457A
(1786394292.626849) can0 18ECFFD1#200E0002FF09FF00
(1786394292.627399) can0 18EBFFD1#0101000A00CF0CE5
(1786394292.628017) can0 18EBFFD1#0201000C00CF1CDA
(1786394292.628517) can0 18FEF1F8#FF0000FFFFFFFFFF
(1786394292.629651) can0 18F005F8#7DFFFF7DFFFFFFFF
(1786394292.669624) can0 1CECFFF1#20120003FF19F000
(1786394292.670537) can0 1CEBFFF1#0127100000000000
(1786394292.671537) can0 1CEBFFF1#0200000000000000
(1786394292.672525) can0 1CEBFFF1#03FFEDAB74FFFFFF
(1786394292.698535) can0 18F015F1#0000463C4B6B457A
(1786394292.727295) can0 18ECFFD1#200E0002FF09FF00
(1786394292.727968) can0 18EBFFD1#0101000A00CF0CE5
(1786394292.728369) can0 18EBFFD1#0201000C00CF1CDA
(1786394292.728933) can0 18FEF1F8#FF0000FFFFFFFFFF
(1786394292.729195) can0 18FF14D1#
(1786394292.730398) can0 18F005F8#7DFFFF7DFFFFFFFF
(1786394292.769562) can0 1CECFFF1#20120003FF19F000
(1786394292.770529) can0 1CEBFFF1#0127100000000000
(1786394292.771539) can0 1CEBFFF1#0200000000000000
(1786394292.772523) can0 1CEBFFF1#03FFEDAB74FFFFFF
(1786394292.799519) can0 18F015F1#0000463C4B6B457A
(1786394292.808448) can0 18F017F1#DF07FE31965B
(1786394292.808909) can0 18F018F1#DC6FF6209212
(1786394292.826887) can0 18ECFFD1#200E0002FF09FF00
(1786394292.827422) can0 18EBFFD1#0101000A00CF0CE5
(1786394292.828064) can0 18EBFFD1#0201000C00CF1CDA
(1786394292.828557) can0 18FEF1F8#FF0000FFFFFFFFFF
(1786394292.829682) can0 18F005F8#7DFFFF7DFFFFFFFF
(1786394292.870144) can0 1CECFFF1#20120003FF19F000
(1786394292.870587) can0 1CEBFFF1#0127100000000000
(1786394292.871585) can0 1CEBFFF1#0200000000000000
(1786394292.872560) can0 1CEBFFF1#03FFEDAB74FFFFFF
(1786394292.900179) can0 18F015F1#0000463C4B6B457A
(1786394292.927769) can0 18ECFFD1#200E0002FF09FF00
(1786394292.928198) can0 18EBFFD1#0201000C00CF1CDA
(1786394292.928572) can0 18EBFFD1#0101000A00CF0CE5
(1786394292.931680) can0 18FEF1F8#FF0000FFFFFFFFFF
(1786394292.933001) can0 18F005F8#7DFFFF7DFFFFFFFF
(1786394292.934372) can0 18ECFFFF#20100003FF13FF00
(1786394292.935484) can0 18EBFFFF#0100330F5EFA6010
(1786394292.936597) can0 18EBFFFF#02515D4400000000
(1786394292.937731) can0 18EBFFFF#03010BFFFFFFFFFF
(1786394292.969581) can0 1CECFFF1#20120003FF19F000
(1786394292.970529) can0 1CEBFFF1#0127100000000000
(1786394292.971540) can0 1CEBFFF1#0200000000000000
(1786394292.972523) can0 1CEBFFF1#03FFEDAB74FFFFFF
(1786394292.998567) can0 18F015F1#0000463C4B6A457A
(1786394293.026908) can0 18ECFFD1#200E0002FF09FF00
(1786394293.027411) can0 18EBFFD1#0101000A00CF0CE5
(1786394293.028054) can0 18EBFFD1#0201000C00CF1CDA
(1786394293.028564) can0 18FEF1F8#FF0000FFFFFFFFFF
(1786394293.029718) can0 18F005F8#7DFFFF7DFFFFFFFF
(1786394293.070580) can0 1CECFFF1#20120003FF19F000
(1786394293.071545) can0 1CEBFFF1#0127100000000000
(1786394293.072544) can0 1CEBFFF1#0200000000000000
(1786394293.073537) can0 1CEBFFF1#03FFEDAB74FFFFFF
(1786394293.099532) can0 18F015F1#0000463C4B6A457A
(1786394293.126874) can0 18ECFFD1#200E0002FF09FF00
(1786394293.127405) can0 18EBFFD1#0101000A00CF0CE5
(1786394293.128046) can0 18EBFFD1#0201000C00CF1CDA
(1786394293.128571) can0 18FEF1F8#FF0000FFFFFFFFFF
(1786394293.129707) can0 18F005F8#7DFFFF7DFFFFFFFF
(1786394293.170599) can0 1CECFFF1#20120003FF19F000
(1786394293.171542) can0 1CEBFFF1#0127100000000000
(1786394293.172558) can0 1CEBFFF1#0200000000000000
(1786394293.173534) can0 1CEBFFF1#03FFEDAB74FFFFFF
(1786394293.199724) can0 18F015F1#0000463C4B6B457A
(1786394293.227350) can0 18ECFFD1#200E0002FF09FF00
(1786394293.228106) can0 18EBFFD1#0201000C00CF1CDA
(1786394293.228268) can0 18EBFFD1#0101000A00CF0CE5
(1786394293.229012) can0 18FF14D1#
(1786394293.229481) can0 18FEF1F8#FF0000FFFFFFFFFF
(1786394293.231334) can0 18F005F8#7DFFFF7DFFFFFFFF
(1786394293.270758) can0 1CECFFF1#20120003FF19F000
(1786394293.271562) can0 1CEBFFF1#0127100000000000
(1786394293.272574) can0 1CEBFFF1#0200000000000000
(1786394293.273570) can0 1CEBFFF1#03FFEDAB74FFFFFF
(1786394293.299577) can0 18F015F1#0000463C4B6A457A
(1786394293.327006) can0 18ECFFD1#200E0002FF09FF00
(1786394293.327392) can0 18EBFFD1#0101000A00CF0CE5
(1786394293.328201) can0 18EBFFD1#0201000C00CF1CDA
(1786394293.328676) can0 18FEF1F8#FF0000FFFFFFFFFF
(1786394293.329866) can0 18F005F8#7DFFFF7DFFFFFFFF
(1786394293.370663) can0 1CECFFF1#20120003FF19F000
(1786394293.371550) can0 1CEBFFF1#0127100000000000
(1786394293.372562) can0 1CEBFFF1#0200000000000000
(1786394293.373562) can0 1CEBFFF1#03FFEC6BB5FFFFFF
(1786394293.399606) can0 18F015F1#0000463B4B6A457A
(1786394293.427054) can0 18ECFFD1#200E0002FF09FF00
(1786394293.427534) can0 18EBFFD1#0101000A00CF2CE8
(1786394293.427949) can0 18EBFFD1#0201000C00CF1CDA
(1786394293.429567) can0 18FEF1F8#FF0000FFFFFFFFFF
(1786394293.430776) can0 18F005F8#7DFFFF7DFFFFFFFF
(1786394293.431936) can0 18ECFFFF#20100003FF13FF00
(1786394293.433069) can0 18EBFFFF#0100330F5EFA6010
(1786394293.434186) can0 18EBFFFF#02515D4400000000
(1786394293.435330) can0 18EBFFFF#03010BFFFFFFFFFF
(1786394293.470569) can0 1CECFFF1#20120003FF19F000
(1786394293.471539) can0 1CEBFFF1#0127100000000000
(1786394293.472549) can0 1CEBFFF1#0200000000000000
(1786394293.473531) can0 1CEBFFF1#03FFEDAB74FFFFFF
(1786394293.499539) can0 18F015F1#0000463C4B6A457A
(1786394293.526868) can0 18ECFFD1#200E0002FF09FF00
(1786394293.527422) can0 18EBFFD1#0101000A00CF2CE8
(1786394293.528074) can0 18EBFFD1#0201000C00CF1CDA
(1786394293.528564) can0 18FEF1F8#FF0000FFFFFFFFFF
(1786394293.529706) can0 18F005F8#7DFFFF7DFFFFFFFF
(1786394293.570642) can0 1CECFFF1#20120003FF19F000
(1786394293.571561) can0 1CEBFFF1#0127100000000000
(1786394293.572604) can0 1CEBFFF1#0200000000000000
(1786394293.573568) can0 1CEBFFF1#03FFEC6BB5FFFFFF
(1786394293.599620) can0 18F015F1#0000463B4B6A457A
(1786394293.627126) can0 18ECFFD1#200E0002FF09FF00
(1786394293.627839) can0 18EBFFD1#0101000A00CF2CE8
(1786394293.628162) can0 18EBFFD1#0201000C00CF1CDA
(1786394293.629595) can0 18FEF1F8#FF0000FFFFFFFFFF
(1786394293.630849) can0 18F005F8#7DFFFF7DFFFFFFFF
(1786394293.671845) can0 1CECFFF1#20120003FF19F000
(1786394293.672711) can0 1CEBFFF1#0127100000000000
(1786394293.673591) can0 1CEBFFF1#0200000000000000
(1786394293.674574) can0 1CEBFFF1#03FFEC6BB5FFFFFF
(1786394293.699563) can0 18F015F1#0000463B4B6A457A
(1786394293.726965) can0 18ECFFD1#200E0002FF09FF00
(1786394293.727500) can0 18EBFFD1#0101000A00CF2CE8
(1786394293.728143) can0 18EBFFD1#0201000C00CF1CDA
(1786394293.728668) can0 18FEF1F8#FF0000FFFFFFFFFF
(1786394293.728960) can0 18FF14D1#
(1786394293.730213) can0 18F005F8#7DFFFF7DFFFFFFFF
(1786394293.770581) can0 1CECFFF1#20120003FF19F000
(1786394293.771555) can0 1CEBFFF1#0127100000000000
(1786394293.772564) can0 1CEBFFF1#0200000000000000
(1786394293.773545) can0 1CEBFFF1#03FFEC6BB5FFFFFF
(1786394293.800536) can0 18F015F1#0000463C4B6A457A
(1786394293.809469) can0 18F017F1#DF07FE31965B
(1786394293.809937) can0 18F018F1#DC6FF6209212
(1786394293.826821) can0 18ECFFD1#200E0002FF09FF00
(1786394293.827397) can0 18EBFFD1#0101000A00CF2CE8
(1786394293.828034) can0 18EBFFD1#0201000C00CF1CDA
(1786394293.828556) can0 18FEF1F8#FF0000FFFFFFFFFF
(1786394293.829693) can0 18F005F8#7DFFFF7DFFFFFFFF
(1786394293.871632) can0 1CECFFF1#20120003FF19F000
(1786394293.872622) can0 1CEBFFF1#0127100000000000
(1786394293.873565) can0 1CEBFFF1#0200000000000000
(1786394293.874544) can0 1CEBFFF1#03FFEC6BB5FFFFFF
(1786394293.900794) can0 18F015F1#0000463B4B6A457A
(1786394293.927655) can0 18ECFFD1#200E0002FF09FF00
(1786394293.929099) can0 18EBFFD1#0201000C00CF1CDA
(1786394293.929267) can0 18EBFFD1#0101000A00CFE0E3
(1786394293.930529) can0 18FEF1F8#FF0000FFFFFFFFFF
(1786394293.931866) can0 18F005F8#7DFFFF7DFFFFFFFF
(1786394293.934656) can0 18ECFFFF#20100003FF13FF00
(1786394293.936027) can0 18EBFFFF#0100330F5EFA6010
(1786394293.937262) can0 18EBFFFF#02515D4400000000
(1786394293.938482) can0 18EBFFFF#03010BFFFFFFFFFF
(1786394293.971581) can0 1CECFFF1#20120003FF19F000
(1786394293.972544) can0 1CEBFFF1#0127100000000000
(1786394293.973548) can0 1CEBFFF1#0200000000000000
(1786394293.974527) can0 1CEBFFF1#03FFEC6BB5FFFFFF
(1786394294.000649) can0 18F015F1#0000463B4B6A457A
(1786394294.026979) can0 18ECFFD1#200E0002FF09FF00
(1786394294.027330) can0 18EBFFD1#0101000A00CFE0E3
(1786394294.028094) can0 18EBFFD1#0201000C00CF1CDA
(1786394294.028590) can0 18FEF1F8#FF0000FFFFFFFFFF
(1786394294.029719) can0 18F005F8#7DFFFF7DFFFFFFFF
(1786394294.071583) can0 1CECFFF1#20120003FF19F000
(1786394294.072546) can0 1CEBFFF1#0127100000000000
(1786394294.073548) can0 1CEBFFF1#0200000000000000
(1786394294.074530) can0 1CEBFFF1#03FFEC6BB5FFFFFF
(1786394294.100546) can0 18F015F1#0000463B4B6A457A
(1786394294.126807) can0 18ECFFD1#200E0002FF09FF00
(1786394294.127373) can0 18EBFFD1#0101000A00CFE0E3
(1786394294.128087) can0 18EBFFD1#0201000C00CF1CDA
(1786394294.128534) can0 18FEF1F8#FF0000FFFFFFFFFF
(1786394294.129678) can0 18F005F8#7DFFFF7DFFFFFFFF
(1786394294.171629) can0 1CECFFF1#20120003FF19F000
(1786394294.172563) can0 1CEBFFF1#0127100000000000
(1786394294.173558) can0 1CEBFFF1#0200000000000000
(1786394294.174539) can0 1CEBFFF1#03FFEC6BB5FFFFFF
(1786394294.200720) can0 18F015F1#0000463B4B6A457A
(1786394294.227189) can0 18ECFFD1#200E0002FF09FF00
(1786394294.227635) can0 18EBFFD1#0101000A00CFE0E3
(1786394294.228219) can0 18EBFFD1#0201000C00CF1CDA
(1786394294.229160) can0 18FF14D1#
(1786394294.229699) can0 18FEF1F8#FF0000FFFFFFFFFF
(1786394294.230418) can0 18FF16D1#01000A0064
(1786394294.230971) can0 18F005F8#7DFFFF7DFFFFFFFF
(1786394294.271586) can0 1CECFFF1#20120003FF19F000
(1786394294.272550) can0 1CEBFFF1#0127100000000000
(1786394294.273555) can0 1CEBFFF1#0200000000000000
(1786394294.274534) can0 1CEBFFF1#03FFEC6BB5FFFFFF
(1786394294.301564) can0 18F015F1#0000463B4B6A457A
(1786394294.326889) can0 18ECFFD1#200E0002FF09FF00
(1786394294.327416) can0 18EBFFD1#0101000A00CFE0E3
(1786394294.328116) can0 18EBFFD1#0201000C00CF1CDA
(1786394294.328600) can0 18FEF1F8#FF0000FFFFFFFFFF
(1786394294.329734) can0 18F005F8#7DFFFF7DFFFFFFFF
(1786394294.371622) can0 1CECFFF1#20120003FF19F000
(1786394294.372542) can0 1CEBFFF1#0127100000000000
(1786394294.373559) can0 1CEBFFF1#0200000000000000
(1786394294.374533) can0 1CEBFFF1#03FFEC6BB5FFFFFF
(1786394294.400584) can0 18F015F1#0000463B4B6A457A
(1786394294.427150) can0 18FF09D1#01000A00CF00E7
(1786394294.429083) can0 18FEF1F8#FF0000FFFFFFFFFF
(1786394294.430267) can0 18F005F8#7DFFFF7DFFFFFFFF
(1786394294.431389) can0 18ECFFFF#20100003FF13FF00
(1786394294.432506) can0 18EBFFFF#0100330F5EFA6010
(1786394294.433615) can0 18EBFFFF#02515D4400000000
(1786394294.434740) can0 18EBFFFF#03010BFFFFFFFFFF
(1786394294.472572) can0 1CECFFF1#20120003FF19F000
(1786394294.473544) can0 1CEBFFF1#0127100000000000
(1786394294.474553) can0 1CEBFFF1#0200000000000000
(1786394294.475532) can0 1CEBFFF1#03FFEC6BB5FFFFFF
(1786394294.501540) can0 18F015F1#0000463B4B6A457A
(1786394294.526742) can0 18FF09D1#01000A00CF00E7
(1786394294.528269) can0 18FEF1F8#FF0000FFFFFFFFFF
(1786394294.529427) can0 18F005F8#7DFFFF7DFFFFFFFF
(1786394294.572664) can0 1CECFFF1#20120003FF19F000
(1786394294.573551) can0 1CEBFFF1#0127100000000000
(1786394294.574549) can0 1CEBFFF1#0200000000000000
(1786394294.575528) can0 1CEBFFF1#03FFEC6BB5FFFFFF
(1786394294.601535) can0 18F015F1#0000463B4B6A457A
(1786394294.626684) can0 18FF09D1#01000A00CF00E7
(1786394294.628231) can0 18FEF1F8#FF0000FFFFFFFFFF
(1786394294.629374) can0 18F005F8#7DFFFF7DFFFFFFFF
(1786394294.672764) can0 1CECFFF1#20120003FF19F000
(1786394294.673567) can0 1CEBFFF1#0127100000000000
(1786394294.674572) can0 1CEBFFF1#0200000000000000
(1786394294.675533) can0 1CEBFFF1#03FFEC6BB5FFFFFF
(1786394294.701551) can0 18F015F1#0000463B4B6A457A
(1786394294.726789) can0 18FF09D1#01000A00CF00E7
(1786394294.727096) can0 18FF14D1#
(1786394294.728469) can0 18FEF1F8#FF0000FFFFFFFFFF
(1786394294.729643) can0 18F005F8#7DFFFF7DFFFFFFFF
(1786394294.772572) can0 1CECFFF1#20120003FF19F000
(1786394294.773560) can0 1CEBFFF1#0127100000000000
(1786394294.774575) can0 1CEBFFF1#0200000000000000
(1786394294.775545) can0 1CEBFFF1#03FFEC6BB5FFFFFF
(1786394294.802542) can0 18F015F1#0000463B4B6A457A
(1786394294.811463) can0 18F017F1#DEC4FE86964D
(1786394294.811926) can0 18F018F1#DC6DF682923C
(1786394294.826722) can0 18FF09D1#01000A00CF00E7
(1786394294.828252) can0 18FEF1F8#FF0000FFFFFFFFFF
(1786394294.829450) can0 18F005F8#7DFFFF7DFFFFFFFF
(1786394294.872724) can0 1CECFFF1#20120003FF19F000
(1786394294.873608) can0 1CEBFFF1#0127100000000000
(1786394294.874584) can0 1CEBFFF1#0200000000000000
(1786394294.875600) can0 1CEBFFF1#03FFEC6BB5FFFFFF
(1786394294.901652) can0 18F015F1#0000463B4B6A457A
(1786394294.927347) can0 18FF09D1#01000A00CF00E7
(1786394294.928739) can0 18FEF1F8#FF0000FFFFFFFFFF
(1786394294.929972) can0 18F005F8#7DFFFF7DFFFFFFFF
(1786394294.931441) can0 18ECFFFF#20100003FF13FF00
(1786394294.932547) can0 18EBFFFF#0100330F5EFA6010
(1786394294.933640) can0 18EBFFFF#02515D4400000000
(1786394294.934737) can0 18EBFFFF#03010BFFFFFFFFFF
(1786394294.972679) can0 1CECFFF1#20120003FF19F000
(1786394294.973547) can0 1CEBFFF1#0127100000000000
(1786394294.974551) can0 1CEBFFF1#0200000000000000
(1786394294.975530) can0 1CEBFFF1#03FFEC6BB5FFFFFF
(1786394295.001668) can0 18F015F1#0000463B4B6A457A
(1786394295.026714) can0 18FF09D1#01000A00CF90E8
(1786394295.028249) can0 18FEF1F8#FF0000FFFFFFFFFF
(1786394295.029393) can0 18F005F8#7DFFFF7DFFFFFFFF
(1786394295.072582) can0 1CECFFF1#20120003FF19F000
(1786394295.073547) can0 1CEBFFF1#0127100000000000
(1786394295.074555) can0 1CEBFFF1#0200000000000000
(1786394295.075536) can0 1CEBFFF1#03FFEC6BB5FFFFFF
(1786394295.101577) can0 18F015F1#0000463B4B6A457A
(1786394295.126705) can0 18FF09D1#01000A00CF90E8
(1786394295.128258) can0 18FEF1F8#FF0000FFFFFFFFFF
(1786394295.129432) can0 18F005F8#7DFFFF7DFFFFFFFF
(1786394295.172586) can0 1CECFFF1#20120003FF19F000
(1786394295.173549) can0 1CEBFFF1#0127100000000000
(1786394295.174564) can0 1CEBFFF1#0200000000000000
(1786394295.175545) can0 1CEBFFF1#03FFEC6BB5FFFFFF
(1786394295.201581) can0 18F015F1#0000463B4B6A4579
(1786394295.226895) can0 18FF09D1#01000A00CF90E8
(1786394295.227559) can0 18FF14D1#
(1786394295.228828) can0 18FEF1F8#FF0000FFFFFFFFFF
(1786394295.230143) can0 18F005F8#7DFFFF7DFFFFFFFF
(1786394295.273595) can0 1CECFFF1#20120003FF19F000
(1786394295.274550) can0 1CEBFFF1#0127100000000000
(1786394295.275562) can0 1CEBFFF1#0200000000000000
(1786394295.276552) can0 1CEBFFF1#03FFEC6BB5FFFFFF
(1786394295.302546) can0 18F015F1#0000463B4B6A457A
(1786394295.327126) can0 18FF09D1#01000A00CF90E8
(1786394295.328478) can0 18FEF1F8#FF0000FFFFFFFFFF
(1786394295.329618) can0 18F005F8#7DFFFF7DFFFFFFFF
(1786394295.373657) can0 1CECFFF1#20120003FF19F000
(1786394295.374572) can0 1CEBFFF1#0127100000000000
(1786394295.375573) can0 1CEBFFF1#0200000000000000
(1786394295.376571) can0 1CEBFFF1#03FFEC6BB5FFFFFF
(1786394295.402668) can0 18F015F1#0000463B4B6A457A
(1786394295.426701) can0 18FF09D1#01000A00CF90E8
(1786394295.428555) can0 18FEF1F8#FF0000FFFFFFFFFF
(1786394295.429813) can0 18F005F8#7DFFFF7DFFFFFFFF
(1786394295.431100) can0 18ECFFFF#20100003FF13FF00
(1786394295.432207) can0 18EBFFFF#0100330F5EFA6010
(1786394295.433313) can0 18EBFFFF#02515D4400000000
(1786394295.434454) can0 18EBFFFF#03010BFFFFFFFFFF
(1786394295.473594) can0 1CECFFF1#20120003FF19F000
(1786394295.474553) can0 1CEBFFF1#0127100000000000
(1786394295.475567) can0 1CEBFFF1#0200000000000000
(1786394295.476563) can0 1CEBFFF1#03FFEC6BB5FFFFFF
(1786394295.502560) can0 18F015F1#0000463B4B6A457A
(1786394295.526743) can0 18FF09D1#01000A00CF90E8
(1786394295.528351) can0 18FEF1F8#FF0000FFFFFFFFFF
(1786394295.529517) can0 18F005F8#7DFFFF7DFFFFFFFF
(1786394295.573719) can0 1CECFFF1#20120003FF19F000
(1786394295.574604) can0 1CEBFFF1#0127100000000000
(1786394295.575663) can0 1CEBFFF1#0200000000000000
(1786394295.576593) can0 1CEBFFF1#03FFEC6BB5FFFFFF
(1786394295.602555) can0 18F015F1#0000463B4B6A457A
(1786394295.626680) can0 18FF09D1#01000A00CF90E8
(1786394295.628237) can0 18FEF1F8#FF0000FFFFFFFFFF
(1786394295.629380) can0 18F005F8#7DFFFF7DFFFFFFFF
(1786394295.674079) can0 1CECFFF1#20120003FF19F000
(1786394295.674601) can0 1CEBFFF1#0127100000000000
(1786394295.675591) can0 1CEBFFF1#0200000000000000
(1786394295.676547) can0 1CEBFFF1#03FFEC6BB5FFFFFF
(1786394295.702568) can0 18F015F1#0000463B4B6A457A
(1786394295.726756) can0 18FF09D1#01000A00CF90E8
(1786394295.727082) can0 18FF14D1#
(1786394295.728348) can0 18FEF1F8#FF0000FFFFFFFFFF
(1786394295.729478) can0 18F005F8#7DFFFF7DFFFFFFFF
(1786394295.773589) can0 1CECFFF1#20120003FF19F000
(1786394295.774549) can0 1CEBFFF1#0127100000000000
(1786394295.775562) can0 1CEBFFF1#0200000000000000
(1786394295.776548) can0 1CEBFFF1#03FFEC6BB5FFFFFF
(1786394295.803559) can0 18F015F1#0000463B4B6A457A
(1786394295.812467) can0 18F017F1#DEC4FE86964D
(1786394295.812936) can0 18F018F1#DC6DF682923C
(1786394295.826673) can0 18FF09D1#01000A00CF90E8
(1786394295.828247) can0 18FEF1F8#FF0000FFFFFFFFFF
(1786394295.829406) can0 18F005F8#7DFFFF7DFFFFFFFF
(1786394295.873665) can0 1CECFFF1#20120003FF19F000
(1786394295.874621) can0 1CEBFFF1#0127100000000000
(1786394295.876629) can0 1CEBFFF1#0200000000000000
(1786394295.877361) can0 1CEBFFF1#03FFEC6BB5FFFFFF
(1786394295.902772) can0 18F015F1#0000463B4B6A457A
(1786394295.933110) can0 18FF09D1#01000A00CF90E8
(1786394295.934901) can0 18FEF1F8#FF0000FFFFFFFFFF
(1786394295.936506) can0 18F005F8#7DFFFF7DFFFFFFFF
(1786394295.941674) can0 18ECFFFF#20100003FF13FF00
(1786394295.943257) can0 18EBFFFF#0100330F5EFA6010
(1786394295.944441) can0 18EBFFFF#02515D4400000000
(1786394295.945586) can0 18EBFFFF#03010BFFFFFFFFFF
(1786394295.973600) can0 1CECFFF1#20120003FF19F000
(1786394295.974550) can0 1CEBFFF1#0127100000000000
(1786394295.975572) can0 1CEBFFF1#0200000000000000
(1786394295.976553) can0 1CEBFFF1#03FFEC6BB5FFFFFF
(1786394296.002871) can0 18F015F1#0000463B4B6A457A
(1786394296.026718) can0 18FF09D1#01000A00CF64E7
(1786394296.028306) can0 18FEF1F8#FF0000FFFFFFFFFF
(1786394296.029477) can0 18F005F8#7DFFFF7DFFFFFFFF
(1786394296.074617) can0 1CECFFF1#20120003FF19F000
(1786394296.075563) can0 1CEBFFF1#0127100000000000
(1786394296.076579) can0 1CEBFFF1#0200000000000000
(1786394296.077546) can0 1CEBFFF1#03FFEC6BB5FFFFFF
(1786394296.103567) can0 18F015F1#0000463B4B6A457A
(1786394296.126643) can0 18FF09D1#01000A00CF64E7
(1786394296.128261) can0 18FEF1F8#FF0000FFFFFFFFFF
(1786394296.129398) can0 18F005F8#7DFFFF7DFFFFFFFF
(1786394296.174607) can0 1CECFFF1#20120003FF19F000
(1786394296.175571) can0 1CEBFFF1#0127100000000000
(1786394296.176588) can0 1CEBFFF1#0200000000000000
(1786394296.177557) can0 1CEBFFF1#03FFEC6BB5FFFFFF
(1786394296.203578) can0 18F015F1#0000463B4B6A457A
(1786394296.226932) can0 18FF09D1#01000A00CF64E7
(1786394296.227426) can0 18FF14D1#
(1786394296.227690) can0 18FF16D1#01000A0064
(1786394296.230440) can0 18FEF1F8#FF0000FFFFFFFFFF
(1786394296.231632) can0 18F005F8#7DFFFF7DFFFFFFFF
(1786394296.274604) can0 1CECFFF1#20120003FF19F000
(1786394296.275554) can0 1CEBFFF1#0127100000000000
(1786394296.276571) can0 1CEBFFF1#0200000000000000
(1786394296.277551) can0 1CEBFFF1#03FFEC6BB5FFFFFF
(1786394296.303553) can0 18F015F1#0000463B4B6A457A
(1786394296.326681) can0 18FF09D1#01000A00CF64E7
(1786394296.328409) can0 18FEF1F8#FF0000FFFFFFFFFF
(1786394296.329574) can0 18F005F8#7DFFFF7DFFFFFFFF
(1786394296.374610) can0 1CECFFF1#20120003FF19F000
(1786394296.375562) can0 1CEBFFF1#0127100000000000
(1786394296.376575) can0 1CEBFFF1#0200000000000000
(1786394296.377553) can0 1CEBFFF1#03FFEC6BB5FFFFFF
(1786394296.403562) can0 18F015F1#0000463B4B6A457A
(1786394296.426676) can0 18FF09D1#01000A00CF64E7
(1786394296.428358) can0 18FEF1F8#FF0000FFFFFFFFFF
(1786394296.429623) can0 18F005F8#7DFFFF7DFFFFFFFF
(1786394296.431834) can0 18ECFFFF#20100003FF13FF00
(1786394296.432997) can0 18EBFFFF#0100330F5EFA6010
(1786394296.434162) can0 18EBFFFF#02515D4400000000
(1786394296.435313) can0 18EBFFFF#03010BFFFFFFFFFF
(1786394296.474626) can0 1CECFFF1#20120003FF19F000
(1786394296.475576) can0 1CEBFFF1#0127100000000000
(1786394296.476592) can0 1CEBFFF1#0200000000000000
(1786394296.477561) can0 1CEBFFF1#03FFEC6BB5FFFFFF
(1786394296.503599) can0 18F015F1#0000463B4B6A457A
(1786394296.526809) can0 18ECFFD1#200E0002FF09FF00
(1786394296.527232) can0 18EBFFD1#0101000A00CF90E8
(1786394296.528070) can0 18EBFFD1#0201000C00CF80DA
(1786394296.528598) can0 18FEF1F8#FF0000FFFFFFFFFF
(1786394296.529781) can0 18F005F8#7DFFFF7DFFFFFFFF
(1786394296.574725) can0 1CECFFF1#20120003FF19F000
(1786394296.575558) can0 1CEBFFF1#0127100000000000
(1786394296.576599) can0 1CEBFFF1#0200000000000000
(1786394296.577560) can0 1CEBFFF1#03FFEC6BB5FFFFFF
(1786394296.603585) can0 18F015F1#0000463B4B6A457A
(1786394296.626771) can0 18ECFFD1#200E0002FF09FF00
(1786394296.627279) can0 18EBFFD1#0101000A00CF90E8
(1786394296.627941) can0 18EBFFD1#0201000C00CF80DA
(1786394296.628440) can0 18FEF1F8#FF0000FFFFFFFFFF
(1786394296.629541) can0 18F005F8#7DFFFF7DFFFFFFFF
(1786394296.674663) can0 1CECFFF1#20120003FF19F000
(1786394296.675575) can0 1CEBFFF1#0127100000000000
(1786394296.676591) can0 1CEBFFF1#0200000000000000
(1786394296.677555) can0 1CEBFFF1#03FFEC6BB5FFFFFF
(1786394296.703574) can0 18F015F1#0000463B4B6A457A
(1786394296.726824) can0 18ECFFD1#200E0002FF09FF00
(1786394296.727359) can0 18EBFFD1#0101000A00CF90E8
(1786394296.728023) can0 18EBFFD1#0201000C00CF80DA
(1786394296.728538) can0 18FEF1F8#FF0000FFFFFFFFFF
(1786394296.728849) can0 18FF14D1#
(1786394296.730058) can0 18F005F8#7DFFFF7DFFFFFFFF
(1786394296.775593) can0 1CECFFF1#20120003FF19F000
(1786394296.776569) can0 1CEBFFF1#0127100000000000
(1786394296.777574) can0 1CEBFFF1#0200000000000000
(1786394296.778554) can0 1CEBFFF1#03FFEC6BB5FFFFFF
(1786394296.804557) can0 18F015F1#0000463B4B6A457A
(1786394296.814479) can0 18F017F1#DECEFE69965C
(1786394296.814931) can0 18F018F1#DCA2F6B291F3
(1786394296.826715) can0 18ECFFD1#200E0002FF09FF00
(1786394296.827270) can0 18EBFFD1#0101000A00CF90E8
(1786394296.827888) can0 18EBFFD1#0201000C00CF80DA
(1786394296.828413) can0 18FEF1F8#FF0000FFFFFFFFFF
(1786394296.829549) can0 18F005F8#7DFFFF7DFFFFFFFF
(1786394296.875716) can0 1CECFFF1#20120003FF19F000
(1786394296.876572) can0 1CEBFFF1#0127100000000000
(1786394296.877604) can0 1CEBFFF1#0200000000000000
(1786394296.878583) can0 1CEBFFF1#03FFEC6BB5FFFFFF
(1786394296.904946) can0 18F015F1#0000463B4B6A457A
(1786394296.927603) can0 18ECFFD1#200E0002FF09FF00
(1786394296.928122) can0 18EBFFD1#0201000C00CF80DA
(1786394296.928445) can0 18EBFFD1#0101000A00CF90E8
(1786394296.930225) can0 18FEF1F8#FF0000FFFFFFFFFF
(1786394296.931978) can0 18F005F8#7DFFFF7DFFFFFFFF
(1786394296.936863) can0 18ECFFFF#20100003FF13FF00
(1786394296.938064) can0 18EBFFFF#0100330F5EFA6010
(1786394296.941655) can0 18EBFFFF#02515D4400000000
(1786394296.943437) can0 18EBFFFF#03010BFFFFFFFFFF
(1786394296.975587) can0 1CECFFF1#20120003FF19F000
(1786394296.976562) can0 1CEBFFF1#0127100000000000
(1786394296.977567) can0 1CEBFFF1#0200000000000000
(1786394296.978544) can0 1CEBFFF1#03FFEC6BB5FFFFFF
(1786394297.004762) can0 18F015F1#0000463B4B6A457A
(1786394297.026952) can0 18ECFFD1#200E0002FF09FF00
(1786394297.027418) can0 18EBFFD1#0101000A00CF44E4
(1786394297.027812) can0 18EBFFD1#0201000C00CF80DA
(1786394297.029270) can0 18FEF1F8#FF0000FFFFFFFFFF
(1786394297.030584) can0 18F005F8#7DFFFF7DFFFFFFFF
(1786394297.075605) can0 1CECFFF1#20120003FF19F000
(1786394297.076571) can0 1CEBFFF1#0127100000000000
(1786394297.077576) can0 1CEBFFF1#0200000000000000
(1786394297.078555) can0 1CEBFFF1#03FFEC6BB5FFFFFF
(1786394297.104554) can0 18F015F1#0000463B4B6A457A
(1786394297.126741) can0 18ECFFD1#200E0002FF09FF00
(1786394297.127274) can0 18EBFFD1#0101000A00CF44E4
(1786394297.127914) can0 18EBFFD1#0201000C00CF80DA
(1786394297.128411) can0 18FEF1F8#FF0000FFFFFFFFFF
(1786394297.129529) can0 18F005F8#7DFFFF7DFFFFFFFF
(1786394297.175634) can0 1CECFFF1#20120003FF19F000
(1786394297.176569) can0 1CEBFFF1#0127100000000000
(1786394297.177574) can0 1CEBFFF1#0200000000000000
(1786394297.178553) can0 1CEBFFF1#03FFEC6BB5FFFFFF
(1786394297.204582) can0 18F015F1#0000463B4B6A457A
(1786394297.226917) can0 18ECFFD1#200E0002FF09FF00
(1786394297.227452) can0 18EBFFD1#0101000A00CF44E4
(1786394297.228223) can0 18EBFFD1#0201000C00CF80DA
(1786394297.228686) can0 18FEF1F8#FF0000FFFFFFFFFF
(1786394297.228985) can0 18FF14D1#
(1786394297.230409) can0 18F005F8#7DFFFF7DFFFFFFFF
(1786394297.275621) can0 1CECFFF1#20120003FF19F000
(1786394297.276563) can0 1CEBFFF1#0127100000000000
(1786394297.277567) can0 1CEBFFF1#0200000000000000
(1786394297.278546) can0 1CEBFFF1#03FFEC6BB5FFFFFF
(1786394297.305554) can0 18F015F1#0000463B4B6A457A
(1786394297.327210) can0 18ECFFD1#200E0002FF09FF00
(1786394297.327755) can0 18EBFFD1#0201000C00CF80DA
(1786394297.327907) can0 18EBFFD1#0101000A00CF44E4
(1786394297.329114) can0 18FEF1F8#FF0000FFFFFFFFFF
(1786394297.330220) can0 18F005F8#7DFFFF7DFFFFFFFF
(1786394297.377365) can0 1CECFFF1#20120003FF19F000
(1786394297.377746) can0 1CEBFFF1#0200000000000000
(1786394297.377899) can0 1CEBFFF1#0127100000000000
(1786394297.378566) can0 1CEBFFF1#03FFEC6BB5FFFFFF
(1786394297.404606) can0 18F015F1#0000463B4B6A457A
(1786394297.426747) can0 18ECFFD1#200E0002FF09FF00
(1786394297.427379) can0 18EBFFD1#0101000A00CF44E4
(1786394297.427817) can0 18EBFFD1#0201000C00CF80DA
(1786394297.429279) can0 18FEF1F8#FF0000FFFFFFFFFF
(1786394297.430484) can0 18F005F8#7DFFFF7DFFFFFFFF
(1786394297.431597) can0 18ECFFFF#20100003FF13FF00
(1786394297.432925) can0 18EBFFFF#0100330F5EFA6010
(1786394297.434039) can0 18EBFFFF#02515D4400000000
(1786394297.435151) can0 18EBFFFF#03010BFFFFFFFFFF
(1786394297.475622) can0 1CECFFF1#20120003FF19F000
(1786394297.476591) can0 1CEBFFF1#0127100000000000
(1786394297.477591) can0 1CEBFFF1#0200000000000000
(1786394297.478568) can0 1CEBFFF1#03FFEC6BB5FFFFFF
(1786394297.504564) can0 18F015F1#0000463B4B6A457A
(1786394297.526746) can0 18ECFFD1#200E0002FF09FF00
