(1785878678.083934) can0 1CECFFF1#20120003FF19F000
(1785878678.084827) can0 1CEBFFF1#0127100000000000
(1785878678.085870) can0 1CEBFFF1#0200000000000000
(1785878678.086828) can0 1CEBFFF1#03FF3D3775FFFFFF
(1785878678.112871) can0 18F015F1#0000458C4A564443
(1785878678.183889) can0 1CECFFF1#20120003FF19F000
(1785878678.184817) can0 1CEBFFF1#0127100000000000
(1785878678.185826) can0 1CEBFFF1#0200000000000000
(1785878678.186808) can0 1CEBFFF1#03FF3D3775FFFFFF
(1785878678.212942) can0 18F015F1#0000458C4A574443
(1785878678.235594) can0 18FF14D1#
(1785878678.285519) can0 1CECFFF1#20120003FF19F000
(1785878678.286342) can0 1CEBFFF1#0127100000000000
(1785878678.286864) can0 1CEBFFF1#0200000000000000
(1785878678.287879) can0 1CEBFFF1#03FF3D3775FFFFFF
(1785878678.313876) can0 18F015F1#0000458B4A574443
(1785878678.384875) can0 1CECFFF1#20120003FF19F000
(1785878678.385899) can0 1CEBFFF1#0127100000000000
(1785878678.386822) can0 1CEBFFF1#0200000000000000
(1785878678.387832) can0 1CEBFFF1#03FF3CF7B4FFFFFF
(1785878678.413821) can0 18F015F1#0000458C4A564443
(1785878678.463007) can0 18FEF1F8#FF0000FFFFFFFFFF
(1785878678.464224) can0 18F005F8#7DFFFF7DFFFFFFFF
(1785878678.484836) can0 1CECFFF1#20120003FF19F000
(1785878678.485822) can0 1CEBFFF1#0127100000000000
(1785878678.486833) can0 1CEBFFF1#0200000000000000
(1785878678.487809) can0 1CEBFFF1#03FF3CF7B4FFFFFF
(1785878678.513892) can0 18F015F1#0000458C4A564443
(1785878678.563232) can0 18FEF1F8#FF0000FFFFFFFFFF
(1785878678.564626) can0 18F005F8#7DFFFF7DFFFFFFFF
(1785878678.585071) can0 1CECFFF1#20120003FF19F000
(1785878678.586031) can0 1CEBFFF1#0127100000000000
(1785878678.586925) can0 1CEBFFF1#0200000000000000
(1785878678.587848) can0 1CEBFFF1#03FF3CF7B4FFFFFF
(1785878678.613977) can0 18F015F1#0000458B4A574443
(1785878678.663329) can0 18FEF1F8#FF0000FFFFFFFFFF
(1785878678.664563) can0 18F005F8#7DFFFF7DFFFFFFFF
(1785878678.685100) can0 1CECFFF1#20120003FF19F000
(1785878678.686020) can0 1CEBFFF1#0127100000000000
(1785878678.687027) can0 1CEBFFF1#0200000000000000
(1785878678.687878) can0 1CEBFFF1#03FF3CF7B4FFFFFF
(1785878678.713872) can0 18F015F1#0000458B4A564443
(1785878678.735562) can0 18FF14D1#
(1785878678.763065) can0 18FEF1F8#FF0000FFFFFFFFFF
(1785878678.764613) can0 18F005F8#7DFFFF7DFFFFFFFF
(1785878678.784867) can0 1CECFFF1#20120003FF19F000
(1785878678.785817) can0 1CEBFFF1#0127100000000000
(1785878678.786838) can0 1CEBFFF1#0200000000000000
(1785878678.787810) can0 1CEBFFF1#03FF3CF7B4FFFFFF
(1785878678.813828) can0 18F015F1#0000458B4A574443
(1785878678.863464) can0 18FEF1F8#FF0000FFFFFFFFFF
(1785878678.864595) can0 18F005F8#7DFFFF7DFFFFFFFF
(1785878678.884904) can0 1CECFFF1#20120003FF19F000
(1785878678.885848) can0 1CEBFFF1#0127100000000000
(1785878678.886839) can0 1CEBFFF1#0200000000000000
(1785878678.887810) can0 1CEBFFF1#03FF3CF7B4FFFFFF
(1785878678.913941) can0 18F015F1#0000458B4A574443
(1785878678.924767) can0 18F017F1#E662FA8C997C
(1785878678.925300) can0 18F018F1#E2A6F25091EF
(1785878678.963878) can0 18FEF1F8#FF0000FFFFFFFFFF
(1785878678.965921) can0 18F005F8#7DFFFF7DFFFFFFFF
(1785878678.985141) can0 1CECFFF1#20120003FF19F000
(1785878678.986134) can0 1CEBFFF1#0127100000000000
(1785878678.986961) can0 1CEBFFF1#0200000000000000
(1785878678.987904) can0 1CEBFFF1#03FF3CF7B4FFFFFF
(1785878679.013844) can0 18F015F1#0000458B4A564443
(1785878679.063013) can0 18FEF1F8#FF0000FFFFFFFFFF
(1785878679.064179) can0 18F005F8#7DFFFF7DFFFFFFFF
(1785878679.085842) can0 1CECFFF1#20120003FF19F000
(1785878679.086820) can0 1CEBFFF1#0127100000000000
(1785878679.087826) can0 1CEBFFF1#0200000000000000
(1785878679.088800) can0 1CEBFFF1#03FF3CF7B4FFFFFF
(1785878679.113877) can0 18F015F1#0000458B4A564443
(1785878679.163011) can0 18FEF1F8#FF0000FFFFFFFFFF
(1785878679.164220) can0 18F005F8#7DFFFF7DFFFFFFFF
(1785878679.186017) can0 1CECFFF1#20120003FF19F000
(1785878679.186876) can0 1CEBFFF1#0127100000000000
(1785878679.187858) can0 1CEBFFF1#0200000000000000
(1785878679.188826) can0 1CEBFFF1#03FF3CF7B4FFFFFF
(1785878679.216171) can0 18F015F1#0000458B4A574443
(1785878679.236384) can0 18FF14D1#
(1785878679.263261) can0 18FEF1F8#FF0000FFFFFFFFFF
(1785878679.264487) can0 18F005F8#7DFFFF7DFFFFFFFF
(1785878679.285875) can0 1CECFFF1#20120003FF19F000
(1785878679.286815) can0 1CEBFFF1#0127100000000000
(1785878679.287824) can0 1CEBFFF1#0200000000000000
(1785878679.288798) can0 1CEBFFF1#03FF3CF7B4FFFFFF
(1785878679.314846) can0 18F015F1#0000458B4A564443
(1785878679.363185) can0 18FEF1F8#FF0000FFFFFFFFFF
(1785878679.364767) can0 18F005F8#7DFFFF7DFFFFFFFF
(1785878679.385854) can0 1CECFFF1#20120003FF19F000
(1785878679.386831) can0 1CEBFFF1#0127100000000000
(1785878679.387849) can0 1CEBFFF1#0200000000000000
(1785878679.388819) can0 1CEBFFF1#03FF3CF7B4FFFFFF
(1785878679.414847) can0 18F015F1#0000458B4A564443
(1785878679.462993) can0 18FEF1F8#FF0000FFFFFFFFFF
(1785878679.464165) can0 18F005F8#7DFFFF7DFFFFFFFF
(1785878679.485854) can0 1CECFFF1#20120003FF19F000
(1785878679.486828) can0 1CEBFFF1#0127100000000000
(1785878679.487841) can0 1CEBFFF1#0200000000000000
(1785878679.488833) can0 1CEBFFF1#03FF3CF7B4FFFFFF
(1785878679.514937) can0 18F015F1#0000458B4A574442
(1785878679.566201) can0 18FEF1F8#FF0000FFFFFFFFFF
(1785878679.568230) can0 18F005F8#7DFFFF7DFFFFFFFF
(1785878679.586325) can0 1CECFFF1#20120003FF19F000
(1785878679.587021) can0 1CEBFFF1#0127100000000000
(1785878679.587889) can0 1CEBFFF1#0200000000000000
(1785878679.588820) can0 1CEBFFF1#03FF3B35F5FFFFFF
(1785878679.614834) can0 18F015F1#0000458B4A564443
(1785878679.663079) can0 18FEF1F8#FF0000FFFFFFFFFF
(1785878679.664220) can0 18F005F8#7DFFFF7DFFFFFFFF
(1785878679.685877) can0 1CECFFF1#20120003FF19F000
(1785878679.686824) can0 1CEBFFF1#0127100000000000
(1785878679.687835) can0 1CEBFFF1#0200000000000000
(1785878679.688810) can0 1CEBFFF1#03FF3B35F5FFFFFF
(1785878679.714825) can0 18F015F1#0000458A4A564442
(1785878679.735491) can0 18FF14D1#
(1785878679.762964) can0 18FEF1F8#FF0000FFFFFFFFFF
(1785878679.764136) can0 18F005F8#7DFFFF7DFFFFFFFF
(1785878679.785866) can0 1CECFFF1#20120003FF19F000
(1785878679.786817) can0 1CEBFFF1#0127100000000000
(1785878679.787826) can0 1CEBFFF1#0200000000000000
(1785878679.788851) can0 1CEBFFF1#03FF3B35F5FFFFFF
(1785878679.814820) can0 18F015F1#0000458A4A574442
(1785878679.863368) can0 18FEF1F8#FF0000FFFFFFFFFF
(1785878679.864611) can0 18F005F8#7DFFFF7DFFFFFFFF
(1785878679.885974) can0 1CECFFF1#20120003FF19F000
(1785878679.887048) can0 1CEBFFF1#0127100000000000
(1785878679.887920) can0 1CEBFFF1#0200000000000000
(1785878679.888924) can0 1CEBFFF1#03FF3B35F5FFFFFF
(1785878679.916450) can0 18F015F1#0000458A4A564442
(1785878679.926059) can0 18F017F1#E66EFA649AD9
(1785878679.926697) can0 18F018F1#E2A9F1C990CB
(1785878679.962998) can0 18FEF1F8#FF0000FFFFFFFFFF
(1785878679.964143) can0 18F005F8#7DFFFF7DFFFFFFFF
(1785878679.986971) can0 1CECFFF1#20120003FF19F000
(1785878679.987839) can0 1CEBFFF1#0127100000000000
(1785878679.988843) can0 1CEBFFF1#0200000000000000
(1785878679.989832) can0 1CEBFFF1#03FF3B35F5FFFFFF
(1785878680.015912) can0 18F015F1#0000458A4A564442
(1785878680.063029) can0 18FEF1F8#FF0000FFFFFFFFFF
(1785878680.064179) can0 18F005F8#7DFFFF7DFFFFFFFF
(1785878680.086837) can0 1CECFFF1#20120003FF19F000
(1785878680.087825) can0 1CEBFFF1#0127100000000000
(1785878680.088833) can0 1CEBFFF1#0200000000000000
(1785878680.089831) can0 1CEBFFF1#03FF3B35F5FFFFFF
(1785878680.115863) can0 18F015F1#0000458A4A574442
(1785878680.163490) can0 18FEF1F8#FF0000FFFFFFFFFF
(1785878680.164715) can0 18F005F8#7DFFFF7DFFFFFFFF
(1785878680.186902) can0 1CECFFF1#20120003FF19F000
(1785878680.187883) can0 1CEBFFF1#0127100000000000
(1785878680.188861) can0 1CEBFFF1#0200000000000000
(1785878680.189838) can0 1CEBFFF1#03FF3B35F5FFFFFF
(1785878680.216017) can0 18F015F1#0000458A4A564443
(1785878680.236181) can0 18FF14D1#
(1785878680.263183) can0 18FEF1F8#FF0000FFFFFFFFFF
(1785878680.264509) can0 18F005F8#7DFFFF7DFFFFFFFF
(1785878680.286847) can0 1CECFFF1#20120003FF19F000
(1785878680.287822) can0 1CEBFFF1#0127100000000000
(1785878680.288831) can0 1CEBFFF1#0200000000000000
(1785878680.289816) can0 1CEBFFF1#03FF3B35F5FFFFFF
(1785878680.315863) can0 18F015F1#0000458A4A564442
(1785878680.363321) can0 18FEF1F8#FF0000FFFFFFFFFF
(1785878680.364503) can0 18F005F8#7DFFFF7DFFFFFFFF
(1785878680.386885) can0 1CECFFF1#20120003FF19F000
(1785878680.387833) can0 1CEBFFF1#0127100000000000
(1785878680.388850) can0 1CEBFFF1#0200000000000000
(1785878680.389832) can0 1CEBFFF1#03FF3B35F5FFFFFF
(1785878680.415893) can0 18F015F1#0000458A4A574442
(1785878680.463082) can0 18FEF1F8#FF0000FFFFFFFFFF
(1785878680.464256) can0 18F005F8#7DFFFF7DFFFFFFFF
(1785878680.486872) can0 1CECFFF1#20120003FF19F000
(1785878680.487850) can0 1CEBFFF1#0127100000000000
(1785878680.488860) can0 1CEBFFF1#0200000000000000
(1785878680.489842) can0 1CEBFFF1#03FF3B35F5FFFFFF
(1785878680.516061) can0 18F015F1#0000458A4A564442
(1785878680.565298) can0 18FEF1F8#FF0000FFFFFFFFFF
(1785878680.566830) can0 18F005F8#7DFFFF7DFFFFFFFF
(1785878680.587021) can0 1CECFFF1#20120003FF19F000
(1785878680.587871) can0 1CEBFFF1#0127100000000000
(1785878680.588926) can0 1CEBFFF1#0200000000000000
(1785878680.589890) can0 1CEBFFF1#03FF3B35F5FFFFFF
(1785878680.615893) can0 18F015F1#0000458A4A564442
(1785878680.663075) can0 18FEF1F8#FF0000FFFFFFFFFF
(1785878680.664224) can0 18F005F8#7DFFFF7DFFFFFFFF
(1785878680.687856) can0 1CECFFF1#20120003FF19F000
(1785878680.688831) can0 1CEBFFF1#0127100000000000
(1785878680.689843) can0 1CEBFFF1#0200000000000000
(1785878680.690822) can0 1CEBFFF1#03FF3B35F5FFFFFF
(1785878680.715861) can0 18F015F1#0000458A4A564442
(1785878680.735464) can0 18FF14D1#
(1785878680.763005) can0 18FEF1F8#FF0000FFFFFFFFFF
(1785878680.764188) can0 18F005F8#7DFFFF7DFFFFFFFF
(1785878680.787865) can0 1CECFFF1#20120003FF19F000
(1785878680.788858) can0 1CEBFFF1#0127100000000000
(1785878680.789858) can0 1CEBFFF1#0200000000000000
(1785878680.790839) can0 1CEBFFF1#03FF3B35F5FFFFFF
(1785878680.816832) can0 18F015F1#0000458A4A564442
(1785878680.863236) can0 18FEF1F8#FF0000FFFFFFFFFF
(1785878680.864430) can0 18F005F8#7DFFFF7DFFFFFFFF
(1785878680.887974) can0 1CECFFF1#20120003FF19F000
(1785878680.888878) can0 1CEBFFF1#0127100000000000
(1785878680.889879) can0 1CEBFFF1#0200000000000000
(1785878680.890889) can0 1CEBFFF1#03FF3AF534FFFFFF
(1785878680.917389) can0 18F015F1#0000458A4A564442
(1785878680.927419) can0 18F017F1#E66EFA649AD9
(1785878680.927830) can0 18F018F1#E2A9F1C990CB
(1785878680.963478) can0 18FEF1F8#FF0000FFFFFFFFFF
(1785878680.964690) can0 18F005F8#7DFFFF7DFFFFFFFF
(1785878680.987884) can0 1CECFFF1#20120003FF19F000
(1785878680.988833) can0 1CEBFFF1#0127100000000000
(1785878680.989844) can0 1CEBFFF1#0200000000000000
(1785878680.990826) can0 1CEBFFF1#03FF3AF534FFFFFF
(1785878681.016856) can0 18F015F1#000045894A574442
(1785878681.062970) can0 18FEF1F8#FF0000FFFFFFFFFF
(1785878681.064116) can0 18F005F8#7DFFFF7DFFFFFFFF
(1785878681.087865) can0 1CECFFF1#20120003FF19F000
(1785878681.088847) can0 1CEBFFF1#0127100000000000
(1785878681.089853) can0 1CEBFFF1#0200000000000000
(1785878681.090836) can0 1CEBFFF1#03FF3AF534FFFFFF
(1785878681.116858) can0 18F015F1#000045894A564442
(1785878681.162986) can0 18FEF1F8#FF0000FFFFFFFFFF
(1785878681.164193) can0 18F005F8#7DFFFF7DFFFFFFFF
(1785878681.188045) can0 1CECFFF1#20120003FF19F000
(1785878681.188879) can0 1CEBFFF1#0127100000000000
(1785878681.189882) can0 1CEBFFF1#0200000000000000
(1785878681.190869) can0 1CEBFFF1#03FF3AF534FFFFFF
(1785878681.217046) can0 18F015F1#000045894A564441
(1785878681.236070) can0 18FF14D1#
(1785878681.263206) can0 18FEF1F8#FF0000FFFFFFFFFF
(1785878681.264374) can0 18F005F8#7DFFFF7DFFFFFFFF
(1785878681.287848) can0 1CECFFF1#20120003FF19F000
(1785878681.288835) can0 1CEBFFF1#0127100000000000
(1785878681.289843) can0 1CEBFFF1#0200000000000000
(1785878681.290827) can0 1CEBFFF1#03FF3AF534FFFFFF
(1785878681.316870) can0 18F015F1#000045894A574441
(1785878681.363247) can0 18FEF1F8#FF0000FFFFFFFFFF
(1785878681.364392) can0 18F005F8#7DFFFF7DFFFFFFFF
(1785878681.387880) can0 1CECFFF1#20120003FF19F000
(1785878681.388843) can0 1CEBFFF1#0127100000000000
(1785878681.389845) can0 1CEBFFF1#0200000000000000
(1785878681.390826) can0 1CEBFFF1#03FF3AF534FFFFFF
(1785878681.416845) can0 18F015F1#000045894A564441
(1785878681.463005) can0 18FEF1F8#FF0000FFFFFFFFFF
(1785878681.464334) can0 18F005F8#7DFFFF7DFFFFFFFF
(1785878681.487862) can0 1CECFFF1#20120003FF19F000
(1785878681.488847) can0 1CEBFFF1#0127100000000000
(1785878681.489860) can0 1CEBFFF1#0200000000000000
(1785878681.490838) can0 1CEBFFF1#03FF3AF534FFFFFF
(1785878681.517036) can0 18F015F1#000045894A564441
(1785878681.563397) can0 18FEF1F8#FF0000FFFFFFFFFF
(1785878681.565125) can0 18F005F8#7DFFFF7DFFFFFFFF
(1785878681.589123) can0 1CECFFF1#20120003FF19F000
(1785878681.589878) can0 1CEBFFF1#0127100000000000
(1785878681.590850) can0 1CEBFFF1#0200000000000000
(1785878681.591870) can0 1CEBFFF1#03FF3AF534FFFFFF
(1785878681.617896) can0 18F015F1#000045884A574441
(1785878681.663171) can0 18FEF1F8#FF0000FFFFFFFFFF
(1785878681.664359) can0 18F005F8#7DFFFF7DFFFFFFFF
(1785878681.688887) can0 1CECFFF1#20120003FF19F000
(1785878681.689859) can0 1CEBFFF1#0127100000000000
(1785878681.690865) can0 1CEBFFF1#0200000000000000
(1785878681.691837) can0 1CEBFFF1#03FF39F474FFFFFF
(1785878681.717857) can0 18F015F1#000045884A564441
(1785878681.735422) can0 18FF14D1#
(1785878681.762969) can0 18FEF1F8#FF0000FFFFFFFFFF
(1785878681.764144) can0 18F005F8#7DFFFF7DFFFFFFFF
(1785878681.788869) can0 1CECFFF1#20120003FF19F000
(1785878681.789851) can0 1CEBFFF1#0127100000000000
(1785878681.790859) can0 1CEBFFF1#0200000000000000
(1785878681.791840) can0 1CEBFFF1#03FF39F474FFFFFF
(1785878681.817837) can0 18F015F1#000045884A564441
(1785878681.863373) can0 18FEF1F8#FF0000FFFFFFFFFF
(1785878681.864560) can0 18F005F8#7DFFFF7DFFFFFFFF
(1785878681.889130) can0 1CECFFF1#20120003FF19F000
(1785878681.889885) can0 1CEBFFF1#0127100000000000
(1785878681.891814) can0 1CEBFFF1#0200000000000000
(1785878681.892519) can0 1CEBFFF1#03FF39F474FFFFFF
(1785878681.918155) can0 18F015F1#000045884A564440
(1785878681.929504) can0 18F017F1#E6D2FAB59B2F
(1785878681.930004) can0 18F018F1#E2CCF17D9060
(1785878681.963034) can0 18FEF1F8#FF0000FFFFFFFFFF
(1785878681.964216) can0 18F005F8#7DFFFF7DFFFFFFFF
(1785878681.988884) can0 1CECFFF1#20120003FF19F000
(1785878681.989848) can0 1CEBFFF1#0127100000000000
(1785878681.990860) can0 1CEBFFF1#0200000000000000
(1785878681.991843) can0 1CEBFFF1#03FF39F474FFFFFF
(1785878682.017881) can0 18F015F1#000045884A564441
(1785878682.063037) can0 18FEF1F8#FF0000FFFFFFFFFF
(1785878682.064234) can0 18F005F8#7DFFFF7DFFFFFFFF
(1785878682.088873) can0 1CECFFF1#20120003FF19F000
(1785878682.089856) can0 1CEBFFF1#0127100000000000
(1785878682.090863) can0 1CEBFFF1#0200000000000000
(1785878682.091839) can0 1CEBFFF1#03FF39F474FFFFFF
(1785878682.117872) can0 18F015F1#000045884A564440
(1785878682.162956) can0 18FEF1F8#FF0000FFFFFFFFFF
(1785878682.164154) can0 18F005F8#7DFFFF7DFFFFFFFF
(1785878682.189011) can0 1CECFFF1#20120003FF19F000
(1785878682.189861) can0 1CEBFFF1#0127100000000000
(1785878682.190860) can0 1CEBFFF1#0200000000000000
(1785878682.191844) can0 1CEBFFF1#03FF39F474FFFFFF
(1785878682.218122) can0 18F015F1#000045884A564441
(1785878682.235683) can0 18FF14D1#
(1785878682.263409) can0 18FEF1F8#FF0000FFFFFFFFFF
(1785878682.265215) can0 18F005F8#7DFFFF7DFFFFFFFF
(1785878682.288880) can0 1CECFFF1#20120003FF19F000
(1785878682.289854) can0 1CEBFFF1#0127100000000000
(1785878682.290860) can0 1CEBFFF1#0200000000000000
(1785878682.291836) can0 1CEBFFF1#03FF39F474FFFFFF
(1785878682.318422) can0 18F015F1#000045884A564440
(1785878682.363656) can0 18FEF1F8#FF0000FFFFFFFFFF
(1785878682.364897) can0 18F005F8#7DFFFF7DFFFFFFFF
(1785878682.389903) can0 1CECFFF1#20120003FF19F000
(1785878682.390852) can0 1CEBFFF1#0127100000000000
(1785878682.391862) can0 1CEBFFF1#0200000000000000
(1785878682.392841) can0 1CEBFFF1#03FF39F474FFFFFF
(1785878682.418865) can0 18F015F1#000045884A564441
(1785878682.462996) can0 18FEF1F8#FF0000FFFFFFFFFF
(1785878682.464216) can0 18F005F8#7DFFFF7DFFFFFFFF
(1785878682.489872) can0 1CECFFF1#20120003FF19F000
(1785878682.490854) can0 1CEBFFF1#0127100000000000
(1785878682.491867) can0 1CEBFFF1#0200000000000000
(1785878682.492844) can0 1CEBFFF1#03FF39F474FFFFFF
(1785878682.519045) can0 18F015F1#000045884A564440
(1785878682.563140) can0 18FEF1F8#FF0000FFFFFFFFFF
(1785878682.564471) can0 18F005F8#7DFFFF7DFFFFFFFF
(1785878682.590225) can0 1CECFFF1#20120003FF19F000
(1785878682.590929) can0 1CEBFFF1#0127100000000000
(1785878682.591972) can0 1CEBFFF1#0200000000000000
(1785878682.592942) can0 1CEBFFF1#03FF39F474FFFFFF
(1785878682.619427) can0 18F015F1#000045884A564440
(1785878682.663148) can0 18FEF1F8#FF0000FFFFFFFFFF
(1785878682.664305) can0 18F005F8#7DFFFF7DFFFFFFFF
(1785878682.689920) can0 1CECFFF1#20120003FF19F000
(1785878682.690845) can0 1CEBFFF1#0127100000000000
(1785878682.691864) can0 1CEBFFF1#0200000000000000
(1785878682.692841) can0 1CEBFFF1#03FF3834B5FFFFFF
(1785878682.718879) can0 18F015F1#000045884A564440
(1785878682.735439) can0 18FF14D1#
(1785878682.763007) can0 18FEF1F8#FF0000FFFFFFFFFF
(1785878682.764130) can0 18F005F8#7DFFFF7DFFFFFFFF
(1785878682.789871) can0 1CECFFF1#20120003FF19F000
(1785878682.790853) can0 1CEBFFF1#0127100000000000
(1785878682.791866) can0 1CEBFFF1#0200000000000000
(1785878682.792839) can0 1CEBFFF1#03FF39F474FFFFFF
(1785878682.818853) can0 18F015F1#000045884A564440
(1785878682.863486) can0 18FEF1F8#FF0000FFFFFFFFFF
(1785878682.864655) can0 18F005F8#7DFFFF7DFFFFFFFF
(1785878682.890022) can0 1CECFFF1#20120003FF19F000
(1785878682.890875) can0 1CEBFFF1#0127100000000000
(1785878682.891925) can0 1CEBFFF1#0200000000000000
(1785878682.892877) can0 1CEBFFF1#03FF3834B5FFFFFF
(1785878682.919675) can0 18F015F1#000045874A564440
(1785878682.929774) can0 18F017F1#E6D2FAB59B2F
(1785878682.930271) can0 18F018F1#E2CCF17D9060
(1785878682.962979) can0 18FEF1F8#FF0000FFFFFFFFFF
(1785878682.964189) can0 18F005F8#7DFFFF7DFFFFFFFF
(1785878682.989874) can0 1CECFFF1#20120003FF19F000
(1785878682.990872) can0 1CEBFFF1#0127100000000000
(1785878682.991875) can0 1CEBFFF1#0200000000000000
(1785878682.992856) can0 1CEBFFF1#03FF3834B5FFFFFF
(1785878683.018892) can0 18F015F1#000045874A564440
(1785878683.063028) can0 18FEF1F8#FF0000FFFFFFFFFF
(1785878683.064247) can0 18F005F8#7DFFFF7DFFFFFFFF
(1785878683.089885) can0 1CECFFF1#20120003FF19F000
(1785878683.090867) can0 1CEBFFF1#0127100000000000
(1785878683.091883) can0 1CEBFFF1#0200000000000000
(1785878683.092862) can0 1CEBFFF1#03FF3834B5FFFFFF
(1785878683.118853) can0 18F015F1#000045874A56443F
(1785878683.162993) can0 18FEF1F8#FF0000FFFFFFFFFF
(1785878683.164217) can0 18F005F8#7DFFFF7DFFFFFFFF
(1785878683.191128) can0 1CECFFF1#20120003FF19F000
(1785878683.191908) can0 1CEBFFF1#0127100000000000
(1785878683.192880) can0 1CEBFFF1#0200000000000000
(1785878683.193866) can0 1CEBFFF1#03FF3834B5FFFFFF
(1785878683.220222) can0 18F015F1#000045874A564440
(1785878683.235773) can0 18FF14D1#
(1785878683.263221) can0 18FEF1F8#FF0000FFFFFFFFFF
(1785878683.264516) can0 18F005F8#7DFFFF7DFFFFFFFF
(1785878683.290886) can0 1CECFFF1#20120003FF19F000
(1785878683.291855) can0 1CEBFFF1#0127100000000000
(1785878683.292865) can0 1CEBFFF1#0200000000000000
(1785878683.293843) can0 1CEBFFF1#03FF3834B5FFFFFF
(1785878683.319851) can0 18F015F1#000045874A56443F
(1785878683.363297) can0 18FEF1F8#FF0000FFFFFFFFFF
(1785878683.364490) can0 18F005F8#7DFFFF7DFFFFFFFF
(1785878683.390923) can0 1CECFFF1#20120003FF19F000
(1785878683.391860) can0 1CEBFFF1#0127100000000000
(1785878683.392869) can0 1CEBFFF1#0200000000000000
(1785878683.393854) can0 1CEBFFF1#03FF3834B5FFFFFF
(1785878683.419870) can0 18F015F1#000045874A57443F
(1785878683.462992) can0 18FEF1F8#FF0000FFFFFFFFFF
(1785878683.464188) can0 18F005F8#7DFFFF7DFFFFFFFF
(1785878683.490878) can0 1CECFFF1#20120003FF19F000
(1785878683.491857) can0 1CEBFFF1#0127100000000000
(1785878683.492867) can0 1CEBFFF1#0200000000000000
(1785878683.493852) can0 1CEBFFF1#03FF3834B5FFFFFF
(1785878683.519910) can0 18F015F1#000045874A56443F
(1785878683.563387) can0 18FEF1F8#FF0000FFFFFFFFFF
(1785878683.564736) can0 18F005F8#7DFFFF7DFFFFFFFF
(1785878683.592160) can0 1CECFFF1#20120003FF19F000
(1785878683.592400) can0 1CEBFFF1#0127100000000000
(1785878683.592930) can0 1CEBFFF1#0200000000000000
(1785878683.593888) can0 1CEBFFF1#03FF3834B5FFFFFF
(1785878683.619960) can0 18F015F1#000045874A56443F
(1785878683.663088) can0 18FEF1F8#FF0000FFFFFFFFFF
(1785878683.664472) can0 18F005F8#7DFFFF7DFFFFFFFF
(1785878683.690978) can0 1CECFFF1#20120003FF19F000
(1785878683.691972) can0 1CEBFFF1#0127100000000000
(1785878683.692991) can0 1CEBFFF1#0200000000000000
(1785878683.693949) can0 1CEBFFF1#03FF3730F5FFFFFF
(1785878683.719876) can0 18F015F1#000045864A57443F
(1785878683.735363) can0 18FF14D1#
(1785878683.762961) can0 18FEF1F8#FF0000FFFFFFFFFF
(1785878683.764130) can0 18F005F8#7DFFFF7DFFFFFFFF
(1785878683.790911) can0 1CECFFF1#20120003FF19F000
(1785878683.791864) can0 1CEBFFF1#0127100000000000
(1785878683.792869) can0 1CEBFFF1#0200000000000000
(1785878683.793849) can0 1CEBFFF1#03FF3730F5FFFFFF
(1785878683.819866) can0 18F015F1#000045864A56443F
(1785878683.863007) can0 18FEF1F8#FF0000FFFFFFFFFF
(1785878683.864154) can0 18F005F8#7DFFFF7DFFFFFFFF
(1785878683.891007) can0 1CECFFF1#20120003FF19F000
(1785878683.891888) can0 1CEBFFF1#0127100000000000
(1785878683.892903) can0 1CEBFFF1#0200000000000000
(1785878683.893892) can0 1CEBFFF1#03FF3730F5FFFFFF
(1785878683.919966) can0 18F015F1#000045864A56443F
(1785878683.931143) can0 18F017F1#E6F3FA4E9AF6
(1785878683.931542) can0 18F018F1#E198F0B090DA
(1785878683.963475) can0 18FEF1F8#FF0000FFFFFFFFFF
(1785878683.964721) can0 18F005F8#7DFFFF7DFFFFFFFF
(1785878683.991896) can0 1CECFFF1#20120003FF19F000
(1785878683.992867) can0 1CEBFFF1#0127100000000000
(1785878683.993875) can0 1CEBFFF1#0200000000000000
(1785878683.994851) can0 1CEBFFF1#03FF3730F5FFFFFF
(1785878684.020940) can0 18F015F1#000045864A57443F
(1785878684.063005) can0 18FEF1F8#FF0000FFFFFFFFFF
(1785878684.064135) can0 18F005F8#7DFFFF7DFFFFFFFF
(1785878684.091896) can0 1CECFFF1#20120003FF19F000
(1785878684.092875) can0 1CEBFFF1#0127100000000000
(1785878684.093897) can0 1CEBFFF1#0200000000000000
(1785878684.094862) can0 1CEBFFF1#03FF3730F5FFFFFF
(1785878684.120888) can0 18F015F1#000045864A56443F
(1785878684.162983) can0 18FEF1F8#FF0000FFFFFFFFFF
(1785878684.164137) can0 18F005F8#7DFFFF7DFFFFFFFF
(1785878684.192061) can0 1CECFFF1#20120003FF19F000
(1785878684.192899) can0 1CEBFFF1#0127100000000000
(1785878684.193908) can0 1CEBFFF1#0200000000000000
(1785878684.194892) can0 1CEBFFF1#03FF3730F5FFFFFF
(1785878684.221192) can0 18F015F1#000045864A56443F
(1785878684.235444) can0 18FF14D1#
(1785878684.263296) can0 18FEF1F8#FF0000FFFFFFFFFF
(1785878684.264489) can0 18F005F8#7DFFFF7DFFFFFFFF
(1785878684.291899) can0 1CECFFF1#20120003FF19F000
(1785878684.292877) can0 1CEBFFF1#0127100000000000
(1785878684.293879) can0 1CEBFFF1#0200000000000000
(1785878684.294866) can0 1CEBFFF1#03FF36F034FFFFFF
(1785878684.320854) can0 18F015F1#000045854A57443E
(1785878684.363229) can0 18FEF1F8#FF0000FFFFFFFFFF
(1785878684.364428) can0 18F005F8#7DFFFF7DFFFFFFFF
(1785878684.391926) can0 1CECFFF1#20120003FF19F000
(1785878684.392869) can0 1CEBFFF1#0127100000000000
(1785878684.393874) can0 1CEBFFF1#0200000000000000
(1785878684.394852) can0 1CEBFFF1#03FF3730F5FFFFFF
(1785878684.420873) can0 18F015F1#000045864A56443F
(1785878684.462974) can0 18FEF1F8#FF0000FFFFFFFFFF
(1785878684.464187) can0 18F005F8#7DFFFF7DFFFFFFFF
(1785878684.491884) can0 1CECFFF1#20120003FF19F000
(1785878684.492875) can0 1CEBFFF1#0127100000000000
(1785878684.493886) can0 1CEBFFF1#0200000000000000
(1785878684.494870) can0 1CEBFFF1#03FF36F034FFFFFF
(1785878684.521001) can0 18F015F1#000045854A56443E
(1785878684.563247) can0 18FEF1F8#FF0000FFFFFFFFFF
(1785878684.564651) can0 18F005F8#7DFFFF7DFFFFFFFF
(1785878684.592021) can0 1CECFFF1#20120003FF19F000
(1785878684.592902) can0 1CEBFFF1#0127100000000000
(1785878684.593873) can0 1CEBFFF1#0200000000000000
(1785878684.594857) can0 1CEBFFF1#03FF36F034FFFFFF
(1785878684.620862) can0 18F015F1#000045854A57443E
(1785878684.663012) can0 18FEF1F8#FF0000FFFFFFFFFF
(1785878684.664186) can0 18F005F8#7DFFFF7DFFFFFFFF
(1785878684.692397) can0 1CECFFF1#20120003FF19F000
(1785878684.693072) can0 1CEBFFF1#0127100000000000
(1785878684.694018) can0 1CEBFFF1#0200000000000000
(1785878684.694978) can0 1CEBFFF1#03FF36F034FFFFFF
(1785878684.720885) can0 18F015F1#000045854A56443E
(1785878684.735338) can0 18FF14D1#
(1785878684.763025) can0 18FEF1F8#FF0000FFFFFFFFFF
(1785878684.764315) can0 18F005F8#7DFFFF7DFFFFFFFF
(1785878684.792932) can0 1CECFFF1#20120003FF19F000
(1785878684.793879) can0 1CEBFFF1#0127100000000000
(1785878684.794885) can0 1CEBFFF1#0200000000000000
(1785878684.795882) can0 1CEBFFF1#03FF36F034FFFFFF
(1785878684.820919) can0 18F015F1#000045854A56443E
(1785878684.863270) can0 18FEF1F8#FF0000FFFFFFFFFF
(1785878684.864408) can0 18F005F8#7DFFFF7DFFFFFFFF
(1785878684.893077) can0 1CECFFF1#20120003FF19F000
(1785878684.893882) can0 1CEBFFF1#0127100000000000
(1785878684.894902) can0 1CEBFFF1#0200000000000000
(1785878684.895926) can0 1CEBFFF1#03FF36F034FFFFFF
(1785878684.921991) can0 18F015F1#000045854A57443D
(1785878684.931928) can0 18F017F1#E6F3FA4E9AF6
(1785878684.932207) can0 18F018F1#E198F0B090DA
(1785878684.963483) can0 18FEF1F8#FF0000FFFFFFFFFF
(1785878684.965170) can0 18F005F8#7DFFFF7DFFFFFFFF
(1785878684.992904) can0 1CECFFF1#20120003FF19F000
(1785878684.993866) can0 1CEBFFF1#0127100000000000
(1785878684.994879) can0 1CEBFFF1#0200000000000000
(1785878684.995888) can0 1CEBFFF1#03FF36F034FFFFFF
(1785878685.021906) can0 18F015F1#000045854A56443E
(1785878685.062984) can0 18FEF1F8#FF0000FFFFFFFFFF
(1785878685.064153) can0 18F005F8#7DFFFF7DFFFFFFFF
(1785878685.092901) can0 1CECFFF1#20120003FF19F000
(1785878685.093876) can0 1CEBFFF1#0127100000000000
(1785878685.094882) can0 1CEBFFF1#0200000000000000
(1785878685.095888) can0 1CEBFFF1#03FF36F034FFFFFF
(1785878685.121901) can0 18F015F1#000045854A56443D
(1785878685.162969) can0 18FEF1F8#FF0000FFFFFFFFFF
(1785878685.164168) can0 18F005F8#7DFFFF7DFFFFFFFF
(1785878685.193057) can0 1CECFFF1#20120003FF19F000
(1785878685.193907) can0 1CEBFFF1#0127100000000000
(1785878685.194909) can0 1CEBFFF1#0200000000000000
(1785878685.195911) can0 1CEBFFF1#03FF36F034FFFFFF
(1785878685.222032) can0 18F015F1#000045854A56443D
(1785878685.235515) can0 18FF14D1#
(1785878685.263086) can0 18FEF1F8#FF0000FFFFFFFFFF
(1785878685.264420) can0 18F005F8#7DFFFF7DFFFFFFFF
(1785878685.292916) can0 1CECFFF1#20120003FF19F000
(1785878685.293878) can0 1CEBFFF1#0127100000000000
(1785878685.294882) can0 1CEBFFF1#0200000000000000
(1785878685.295880) can0 1CEBFFF1#03FF36F034FFFFFF
(1785878685.321866) can0 18F015F1#000045854A56443D
(1785878685.363509) can0 18FEF1F8#FF0000FFFFFFFFFF
(1785878685.364728) can0 18F005F8#7DFFFF7DFFFFFFFF
(1785878685.392944) can0 1CECFFF1#20120003FF19F000
(1785878685.393878) can0 1CEBFFF1#0127100000000000
(1785878685.394884) can0 1CEBFFF1#0200000000000000
(1785878685.395877) can0 1CEBFFF1#03FF36F034FFFFFF
(1785878685.421900) can0 18F015F1#000045854A56443D
(1785878685.462994) can0 18FEF1F8#FF0000FFFFFFFFFF
(1785878685.464170) can0 18F005F8#7DFFFF7DFFFFFFFF
(1785878685.492907) can0 1CECFFF1#20120003FF19F000
(1785878685.493888) can0 1CEBFFF1#0127100000000000
(1785878685.494896) can0 1CEBFFF1#0200000000000000
(1785878685.495886) can0 1CEBFFF1#03FF35F174FFFFFF
(1785878685.521912) can0 18F015F1#000045844A56443D
(1785878685.563323) can0 18FEF1F8#FF0000FFFFFFFFFF
(1785878685.564662) can0 18F005F8#7DFFFF7DFFFFFFFF
(1785878685.594020) can0 1CECFFF1#20120003FF19F000
(1785878685.595075) can0 1CEBFFF1#0127100000000000
(1785878685.596137) can0 1CEBFFF1#0200000000000000
(1785878685.597034) can0 1CEBFFF1#03FF35F174FFFFFF
(1785878685.622899) can0 18F015F1#000045844A56443D
(1785878685.663086) can0 18FEF1F8#FF0000FFFFFFFFFF
(1785878685.664268) can0 18F005F8#7DFFFF7DFFFFFFFF
(1785878685.693969) can0 1CECFFF1#20120003FF19F000
(1785878685.694896) can0 1CEBFFF1#0127100000000000
(1785878685.695895) can0 1CEBFFF1#0200000000000000
(1785878685.696877) can0 1CEBFFF1#03FF35F174FFFFFF
(1785878685.722898) can0 18F015F1#000045844A56443D
(1785878685.735298) can0 18FF14D1#
(1785878685.762985) can0 18FEF1F8#FF0000FFFFFFFFFF
(1785878685.764188) can0 18F005F8#7DFFFF7DFFFFFFFF
(1785878685.793900) can0 1CECFFF1#20120003FF19F000
(1785878685.794884) can0 1CEBFFF1#0127100000000000
(1785878685.795898) can0 1CEBFFF1#0200000000000000
(1785878685.796875) can0 1CEBFFF1#03FF35F174FFFFFF
(1785878685.822873) can0 18F015F1#000045844A57443D
(1785878685.863519) can0 18FEF1F8#FF0000FFFFFFFFFF
(1785878685.864726) can0 18F005F8#7DFFFF7DFFFFFFFF
(1785878685.893995) can0 1CECFFF1#20120003FF19F000
(1785878685.894918) can0 1CEBFFF1#0127100000000000
(1785878685.895976) can0 1CEBFFF1#0200000000000000
(1785878685.896947) can0 1CEBFFF1#03FF35F174FFFFFF
(1785878685.923283) can0 18F015F1#000045844A56443C
(1785878685.934289) can0 18F017F1#E766F9909BA0
(1785878685.934822) can0 18F018F1#E157F0808FF4
(1785878685.963255) can0 18FEF1F8#FF0000FFFFFFFFFF
(1785878685.964452) can0 18F005F8#7DFFFF7DFFFFFFFF
(1785878685.993903) can0 1CECFFF1#20120003FF19F000
(1785878685.994887) can0 1CEBFFF1#0127100000000000
(1785878685.995896) can0 1CEBFFF1#0200000000000000
(1785878685.996872) can0 1CEBFFF1#03FF35F174FFFFFF
(1785878686.022985) can0 18F015F1#000045844A56443C
(1785878686.063011) can0 18FEF1F8#FF0000FFFFFFFFFF
(1785878686.064184) can0 18F005F8#7DFFFF7DFFFFFFFF
(1785878686.093935) can0 1CECFFF1#20120003FF19F000
(1785878686.094884) can0 1CEBFFF1#0127100000000000
(1785878686.095899) can0 1CEBFFF1#0200000000000000
(1785878686.096881) can0 1CEBFFF1#03FF35F174FFFFFF
(1785878686.122873) can0 18F015F1#000045844A56443C
(1785878686.162980) can0 18FEF1F8#FF0000FFFFFFFFFF
(1785878686.164158) can0 18F005F8#7DFFFF7DFFFFFFFF
(1785878686.194037) can0 1CECFFF1#20120003FF19F000
(1785878686.194921) can0 1CEBFFF1#0127100000000000
(1785878686.195973) can0 1CEBFFF1#0200000000000000
(1785878686.196911) can0 1CEBFFF1#03FF35F174FFFFFF
(1785878686.223022) can0 18F015F1#000045844A56443C
(1785878686.235594) can0 18FF14D1#
(1785878686.263446) can0 18FEF1F8#FF0000FFFFFFFFFF
(1785878686.265213) can0 18F005F8#7DFFFF7DFFFFFFFF
(1785878686.293926) can0 1CECFFF1#20120003FF19F000
(1785878686.294883) can0 1CEBFFF1#0127100000000000
(1785878686.295898) can0 1CEBFFF1#0200000000000000
(1785878686.296894) can0 1CEBFFF1#03FF3431B5FFFFFF
(1785878686.322875) can0 18F015F1#000045834A56443B
(1785878686.363523) can0 18FEF1F8#FF0000FFFFFFFFFF
(1785878686.364677) can0 18F005F8#7DFFFF7DFFFFFFFF
(1785878686.394946) can0 1CECFFF1#20120003FF19F000
(1785878686.395890) can0 1CEBFFF1#0127100000000000
(1785878686.396894) can0 1CEBFFF1#0200000000000000
(1785878686.397877) can0 1CEBFFF1#03FF3431B5FFFFFF
(1785878686.423900) can0 18F015F1#000045834A56443B
(1785878686.462977) can0 18FEF1F8#FF0000FFFFFFFFFF
(1785878686.464128) can0 18F005F8#7DFFFF7DFFFFFFFF
(1785878686.494906) can0 1CECFFF1#20120003FF19F000
(1785878686.495899) can0 1CEBFFF1#0127100000000000
(1785878686.496910) can0 1CEBFFF1#0200000000000000
(1785878686.497894) can0 1CEBFFF1#03FF3431B5FFFFFF
(1785878686.523945) can0 18F015F1#000045834A56443B
(1785878686.563293) can0 18FEF1F8#FF0000FFFFFFFFFF
(1785878686.564678) can0 18F005F8#7DFFFF7DFFFFFFFF
(1785878686.595107) can0 1CECFFF1#20120003FF19F000
(1785878686.596066) can0 1CEBFFF1#0127100000000000
(1785878686.597004) can0 1CEBFFF1#0200000000000000
(1785878686.598136) can0 1CEBFFF1#03FF3431B5FFFFFF
(1785878686.623904) can0 18F015F1#000045834A56443B
(1785878686.662984) can0 18FEF1F8#FF0000FFFFFFFFFF
(1785878686.664203) can0 18F005F8#7DFFFF7DFFFFFFFF
(1785878686.695342) can0 1CECFFF1#20120003FF19F000
(1785878686.695892) can0 1CEBFFF1#0127100000000000
(1785878686.696913) can0 1CEBFFF1#0200000000000000
(1785878686.697882) can0 1CEBFFF1#03FF3431B5FFFFFF
(1785878686.723907) can0 18F015F1#000045834A56443A
(1785878686.735284) can0 18FF14D1#
(1785878686.763139) can0 18FEF1F8#FF0000FFFFFFFFFF
(1785878686.764283) can0 18F005F8#7DFFFF7DFFFFFFFF
(1785878686.794913) can0 1CECFFF1#20120003FF19F000
(1785878686.795890) can0 1CEBFFF1#0127100000000000
(1785878686.796895) can0 1CEBFFF1#0200000000000000
(1785878686.797877) can0 1CEBFFF1#03FF3431B5FFFFFF
(1785878686.823895) can0 18F015F1#000045834A56443A
(1785878686.863403) can0 18FEF1F8#FF0000FFFFFFFFFF
(1785878686.864573) can0 18F005F8#7DFFFF7DFFFFFFFF
(1785878686.895052) can0 1CECFFF1#20120003FF19F000
(1785878686.895905) can0 1CEBFFF1#0127100000000000
(1785878686.896928) can0 1CEBFFF1#0200000000000000
(1785878686.897921) can0 1CEBFFF1#03FF3431B5FFFFFF
(1785878686.924096) can0 18F015F1#000045834A56443A
(1785878686.934997) can0 18F017F1#E766F9909BA0
(1785878686.935453) can0 18F018F1#E157F0808FF4
(1785878686.964350) can0 18FEF1F8#FF0000FFFFFFFFFF
(1785878686.965701) can0 18F005F8#7DFFFF7DFFFFFFFF
(1785878686.994976) can0 1CECFFF1#20120003FF19F000
(1785878686.995892) can0 1CEBFFF1#0127100000000000
(1785878686.996899) can0 1CEBFFF1#0200000000000000
(1785878686.997941) can0 1CEBFFF1#03FF3431B5FFFFFF
(1785878687.023943) can0 18F015F1#000045834A56443A
(1785878687.063070) can0 18FEF1F8#FF0000FFFFFFFFFF
(1785878687.064220) can0 18F005F8#7DFFFF7DFFFFFFFF
(1785878687.094969) can0 1CECFFF1#20120003FF19F000
(1785878687.095900) can0 1CEBFFF1#0127100000000000
(1785878687.096914) can0 1CEBFFF1#0200000000000000
(1785878687.097903) can0 1CEBFFF1#03FF33F3F4FFFFFF
(1785878687.123920) can0 18F015F1#000045824A554439
(1785878687.163067) can0 18FEF1F8#FF0000FFFFFFFFFF
(1785878687.164195) can0 18F005F8#7DFFFF7DFFFFFFFF
(1785878687.195950) can0 1CECFFF1#20120003FF19F000
(1785878687.196887) can0 1CEBFFF1#0127100000000000
(1785878687.197896) can0 1CEBFFF1#0200000000000000
(1785878687.198890) can0 1CEBFFF1#03FF33F3F4FFFFFF
(1785878687.223989) can0 18F015F1#000045824A564439
(1785878687.235408) can0 18FF14D1#
(1785878687.263196) can0 18FEF1F8#FF0000FFFFFFFFFF
(1785878687.264435) can0 18F005F8#7DFFFF7DFFFFFFFF
(1785878687.296097) can0 1CECFFF1#20120003FF19F000
(1785878687.296896) can0 1CEBFFF1#0127100000000000
(1785878687.297896) can0 1CEBFFF1#0200000000000000
(1785878687.298885) can0 1CEBFFF1#03FF33F3F4FFFFFF
(1785878687.324900) can0 18F015F1#000045824A564439
(1785878687.363192) can0 18FEF1F8#FF0000FFFFFFFFFF
(1785878687.364395) can0 18F005F8#7DFFFF7DFFFFFFFF
(1785878687.395990) can0 1CECFFF1#20120003FF19F000
(1785878687.396887) can0 1CEBFFF1#0127100000000000
(1785878687.397895) can0 1CEBFFF1#0200000000000000
(1785878687.398891) can0 1CEBFFF1#03FF33F3F4FFFFFF
(1785878687.424896) can0 18F015F1#000045824A564439
(1785878687.462992) can0 18FEF1F8#FF0000FFFFFFFFFF
(1785878687.464168) can0 18F005F8#7DFFFF7DFFFFFFFF
(1785878687.495916) can0 1CECFFF1#20120003FF19F000
(1785878687.496902) can0 1CEBFFF1#0127100000000000
(1785878687.497912) can0 1CEBFFF1#0200000000000000
(1785878687.498901) can0 1CEBFFF1#03FF33F3F4FFFFFF
(1785878687.525347) can0 18F015F1#000045824A564438
(1785878687.563248) can0 18FEF1F8#FF0000FFFFFFFFFF
(1785878687.564485) can0 18F005F8#7DFFFF7DFFFFFFFF
(1785878687.596306) can0 1CECFFF1#20120003FF19F000
(1785878687.596996) can0 1CEBFFF1#0127100000000000
(1785878687.597955) can0 1CEBFFF1#0200000000000000
(1785878687.598953) can0 1CEBFFF1#03FF33F3F4FFFFFF
(1785878687.625008) can0 18F015F1#000045824A564439
(1785878687.663030) can0 18FEF1F8#FF0000FFFFFFFFFF
(1785878687.664252) can0 18F005F8#7DFFFF7DFFFFFFFF
(1785878687.696380) can0 1CECFFF1#20120003FF19F000
(1785878687.697144) can0 1CEBFFF1#0127100000000000
(1785878687.698027) can0 1CEBFFF1#0200000000000000
(1785878687.699049) can0 1CEBFFF1#03FF33F3F4FFFFFF
(1785878687.724914) can0 18F015F1#000045824A564438
(1785878687.735256) can0 18FF14D1#
(1785878687.762963) can0 18FEF1F8#FF0000FFFFFFFFFF
(1785878687.764122) can0 18F005F8#7DFFFF7DFFFFFFFF
(1785878687.796065) can0 1CECFFF1#20120003FF19F000
(1785878687.796897) can0 1CEBFFF1#0127100000000000
(1785878687.797900) can0 1CEBFFF1#0200000000000000
(1785878687.798895) can0 1CEBFFF1#03FF33F3F4FFFFFF
(1785878687.824924) can0 18F015F1#000045824A564438
(1785878687.863197) can0 18FEF1F8#FF0000FFFFFFFFFF
(1785878687.864337) can0 18F005F8#7DFFFF7DFFFFFFFF
(1785878687.896208) can0 1CECFFF1#20120003FF19F000
(1785878687.896940) can0 1CEBFFF1#0127100000000000
(1785878687.897936) can0 1CEBFFF1#0200000000000000
(1785878687.898904) can0 1CEBFFF1#03FF323335FFFFFF
(1785878687.925026) can0 18F015F1#000045814A564437
(1785878687.935983) can0 18F017F1#E74EF89F9C0A
(1785878687.936354) can0 18F018F1#E0EBF0088F93
(1785878687.963463) can0 18FEF1F8#FF0000FFFFFFFFFF
(1785878687.964934) can0 18F005F8#7DFFFF7DFFFFFFFF
(1785878687.995971) can0 1CECFFF1#20120003FF19F000
(1785878687.996895) can0 1CEBFFF1#0127100000000000
(1785878687.997899) can0 1CEBFFF1#0200000000000000
(1785878687.998877) can0 1CEBFFF1#03FF323335FFFFFF
(1785878688.025347) can0 18F015F1#000045824A564438
(1785878688.063018) can0 18FEF1F8#FF0000FFFFFFFFFF
(1785878688.064195) can0 18F005F8#7DFFFF7DFFFFFFFF
(1785878688.096930) can0 1CECFFF1#20120003FF19F000
(1785878688.097898) can0 1CEBFFF1#0127100000000000
(1785878688.098903) can0 1CEBFFF1#0200000000000000
(1785878688.099893) can0 1CEBFFF1#03FF323335FFFFFF
(1785878688.125941) can0 18F015F1#000045814A564437
(1785878688.162956) can0 18FEF1F8#FF0000FFFFFFFFFF
(1785878688.164137) can0 18F005F8#7DFFFF7DFFFFFFFF
(1785878688.196970) can0 1CECFFF1#20120003FF19F000
(1785878688.197911) can0 1CEBFFF1#0127100000000000
(1785878688.198916) can0 1CEBFFF1#0200000000000000
(1785878688.199896) can0 1CEBFFF1#03FF323335FFFFFF
(1785878688.226055) can0 18F015F1#000045814A564437
(1785878688.235352) can0 18FF14D1#
(1785878688.263141) can0 18FEF1F8#FF0000FFFFFFFFFF
(1785878688.264455) can0 18F005F8#7DFFFF7DFFFFFFFF
(1785878688.297118) can0 1CECFFF1#20120003FF19F000
(1785878688.298037) can0 1CEBFFF1#0127100000000000
(1785878688.298911) can0 1CEBFFF1#0200000000000000
(1785878688.299883) can0 1CEBFFF1#03FF323335FFFFFF
(1785878688.325900) can0 18F015F1#000045814A564436
(1785878688.363702) can0 18FEF1F8#FF0000FFFFFFFFFF
(1785878688.364971) can0 18F005F8#7DFFFF7DFFFFFFFF
(1785878688.396952) can0 1CECFFF1#20120003FF19F000
(1785878688.397914) can0 1CEBFFF1#0127100000000000
(1785878688.398909) can0 1CEBFFF1#0200000000000000
(1785878688.399906) can0 1CEBFFF1#03FF323335FFFFFF
(1785878688.425910) can0 18F015F1#000045814A564436
(1785878688.462995) can0 18FEF1F8#FF0000FFFFFFFFFF
(1785878688.464162) can0 18F005F8#7DFFFF7DFFFFFFFF
(1785878688.496945) can0 1CECFFF1#20120003FF19F000
(1785878688.497920) can0 1CEBFFF1#0127100000000000
(1785878688.498933) can0 1CEBFFF1#0200000000000000
(1785878688.499905) can0 1CEBFFF1#03FF323335FFFFFF
(1785878688.525900) can0 18F015F1#000045814A564436
(1785878688.563078) can0 18FEF1F8#FF0000FFFFFFFFFF
(1785878688.564397) can0 18F005F8#7DFFFF7DFFFFFFFF
(1785878688.597031) can0 1CECFFF1#20120003FF19F000
(1785878688.597970) can0 1CEBFFF1#0127100000000000
(1785878688.598981) can0 1CEBFFF1#0200000000000000
(1785878688.599957) can0 1CEBFFF1#03FF323335FFFFFF
(1785878688.626464) can0 18F015F1#000045814A564436
(1785878688.663265) can0 18FEF1F8#FF0000FFFFFFFFFF
(1785878688.664434) can0 18F005F8#7DFFFF7DFFFFFFFF
(1785878688.697069) can0 1CECFFF1#20120003FF19F000
(1785878688.697915) can0 1CEBFFF1#0127100000000000
(1785878688.698910) can0 1CEBFFF1#0200000000000000
(1785878688.699890) can0 1CEBFFF1#03FF323335FFFFFF
(1785878688.725970) can0 18F015F1#000045814A564435
(1785878688.735218) can0 18FF14D1#
(1785878688.763006) can0 18FEF1F8#FF0000FFFFFFFFFF
(1785878688.764210) can0 18F005F8#7DFFFF7DFFFFFFFF
(1785878688.797955) can0 1CECFFF1#20120003FF19F000
(1785878688.798909) can0 1CEBFFF1#0127100000000000
(1785878688.799919) can0 1CEBFFF1#0200000000000000
(1785878688.800897) can0 1CEBFFF1#03FF323335FFFFFF
(1785878688.825909) can0 18F015F1#000045814A564436
(1785878688.863204) can0 18FEF1F8#FF0000FFFFFFFFFF
(1785878688.864321) can0 18F005F8#7DFFFF7DFFFFFFFF
(1785878688.898022) can0 1CECFFF1#20120003FF19F000
(1785878688.898911) can0 1CEBFFF1#0127100000000000
(1785878688.899930) can0 1CEBFFF1#0200000000000000
(1785878688.900948) can0 1CEBFFF1#03FF313275FFFFFF
(1785878688.927018) can0 18F015F1#000045804A564435
(1785878688.937022) can0 18F017F1#E74EF89F9C0A
(1785878688.937429) can0 18F018F1#E0EBF0088F93
(1785878688.963269) can0 18FEF1F8#FF0000FFFFFFFFFF
(1785878688.964438) can0 18F005F8#7DFFFF7DFFFFFFFF
(1785878688.997938) can0 1CECFFF1#20120003FF19F000
(1785878688.998898) can0 1CEBFFF1#0127100000000000
(1785878688.999910) can0 1CEBFFF1#0200000000000000
(1785878689.000892) can0 1CEBFFF1#03FF313275FFFFFF
(1785878689.026912) can0 18F015F1#000045804A564435
(1785878689.063041) can0 18FEF1F8#FF0000FFFFFFFFFF
(1785878689.064188) can0 18F005F8#7DFFFF7DFFFFFFFF
(1785878689.097949) can0 1CECFFF1#20120003FF19F000
(1785878689.098910) can0 1CEBFFF1#0127100000000000
(1785878689.099915) can0 1CEBFFF1#0200000000000000
(1785878689.100898) can0 1CEBFFF1#03FF313275FFFFFF
(1785878689.126929) can0 18F015F1#000045804A564435
(1785878689.162991) can0 18FEF1F8#FF0000FFFFFFFFFF
(1785878689.164162) can0 18F005F8#7DFFFF7DFFFFFFFF
(1785878689.197965) can0 1CECFFF1#20120003FF19F000
(1785878689.198930) can0 1CEBFFF1#0127100000000000
(1785878689.199932) can0 1CEBFFF1#0200000000000000
(1785878689.200915) can0 1CEBFFF1#03FF313275FFFFFF
(1785878689.227066) can0 18F015F1#000045804A564435
(1785878689.235331) can0 18FF14D1#
(1785878689.263381) can0 18FEF1F8#FF0000FFFFFFFFFF
(1785878689.264638) can0 18F005F8#7DFFFF7DFFFFFFFF
(1785878689.298182) can0 1CECFFF1#20120003FF19F000
(1785878689.298970) can0 1CEBFFF1#0127100000000000
(1785878689.299962) can0 1CEBFFF1#0200000000000000
(1785878689.300934) can0 1CEBFFF1#03FF313275FFFFFF
(1785878689.327005) can0 18F015F1#000045804A564434
(1785878689.363292) can0 18FEF1F8#FF0000FFFFFFFFFF
(1785878689.365053) can0 18F005F8#7DFFFF7DFFFFFFFF
(1785878689.398071) can0 1CECFFF1#20120003FF19F000
(1785878689.398914) can0 1CEBFFF1#0127100000000000
(1785878689.399922) can0 1CEBFFF1#0200000000000000
(1785878689.401241) can0 1CEBFFF1#03FF313275FFFFFF
(1785878689.426946) can0 18F015F1#000045804A564434
(1785878689.463006) can0 18FEF1F8#FF0000FFFFFFFFFF
(1785878689.464192) can0 18F005F8#7DFFFF7DFFFFFFFF
(1785878689.497940) can0 1CECFFF1#20120003FF19F000
(1785878689.498948) can0 1CEBFFF1#0127100000000000
(1785878689.499931) can0 1CEBFFF1#0200000000000000
(1785878689.500912) can0 1CEBFFF1#03FF313275FFFFFF
(1785878689.526912) can0 18F015F1#000045804A564433
(1785878689.563896) can0 18FEF1F8#FF0000FFFFFFFFFF
(1785878689.565080) can0 18F005F8#7DFFFF7DFFFFFFFF
(1785878689.598036) can0 1CECFFF1#20120003FF19F000
(1785878689.598926) can0 1CEBFFF1#0127100000000000
(1785878689.599931) can0 1CEBFFF1#0200000000000000
(1785878689.600919) can0 1CEBFFF1#03FF313275FFFFFF
(1785878689.627297) can0 18F015F1#000045804A564433
(1785878689.663057) can0 18FEF1F8#FF0000FFFFFFFFFF
(1785878689.664307) can0 18F005F8#7DFFFF7DFFFFFFFF
(1785878689.698951) can0 1CECFFF1#20120003FF19F000
(1785878689.699914) can0 1CEBFFF1#0127100000000000
(1785878689.701377) can0 1CEBFFF1#0200000000000000
(1785878689.702163) can0 1CEBFFF1#03FF313275FFFFFF
(1785878689.727932) can0 18F015F1#000045804A564433
(1785878689.735191) can0 18FF14D1#
(1785878689.762979) can0 18FEF1F8#FF0000FFFFFFFFFF
(1785878689.764120) can0 18F005F8#7DFFFF7DFFFFFFFF
(1785878689.798947) can0 1CECFFF1#20120003FF19F000
(1785878689.799919) can0 1CEBFFF1#0127100000000000
(1785878689.800927) can0 1CEBFFF1#0200000000000000
(1785878689.801911) can0 1CEBFFF1#03FF313275FFFFFF
(1785878689.827913) can0 18F015F1#000045804A564433
(1785878689.863026) can0 18FEF1F8#FF0000FFFFFFFFFF
(1785878689.864200) can0 18F005F8#7DFFFF7DFFFFFFFF
(1785878689.899052) can0 1CECFFF1#20120003FF19F000
(1785878689.899919) can0 1CEBFFF1#0127100000000000
(1785878689.901015) can0 1CEBFFF1#0200000000000000
(1785878689.901998) can0 1CEBFFF1#03FF30F2B4FFFFFF
(1785878689.928019) can0 18F015F1#0000457F4A554432
(1785878689.938027) can0 18F017F1#E735F8679B85
(1785878689.938378) can0 18F018F1#E05FEF9C8F6C
(1785878689.964310) can0 18FEF1F8#FF0000FFFFFFFFFF
(1785878689.965822) can0 18F005F8#7DFFFF7DFFFFFFFF
(1785878689.999074) can0 1CECFFF1#20120003FF19F000
(1785878689.999934) can0 1CEBFFF1#0127100000000000
(1785878690.001026) can0 1CEBFFF1#0200000000000000
(1785878690.001980) can0 1CEBFFF1#03FF30F2B4FFFFFF
(1785878690.027939) can0 18F015F1#0000457F4A564432
(1785878690.063013) can0 18FEF1F8#FF0000FFFFFFFFFF
(1785878690.064183) can0 18F005F8#7DFFFF7DFFFFFFFF
(1785878690.098974) can0 1CECFFF1#20120003FF19F000
(1785878690.099924) can0 1CEBFFF1#0127100000000000
(1785878690.100945) can0 1CEBFFF1#0200000000000000
(1785878690.101904) can0 1CEBFFF1#03FF30F2B4FFFFFF
(1785878690.127944) can0 18F015F1#0000457F4A554432
(1785878690.162967) can0 18FEF1F8#FF0000FFFFFFFFFF
(1785878690.164174) can0 18F005F8#7DFFFF7DFFFFFFFF
(1785878690.198932) can0 1CECFFF1#20120003FF19F000
(1785878690.199922) can0 1CEBFFF1#0127100000000000
(1785878690.200927) can0 1CEBFFF1#0200000000000000
(1785878690.201902) can0 1CEBFFF1#03FF30F2B4FFFFFF
(1785878690.227952) can0 18F015F1#0000457F4A564432
(1785878690.235309) can0 18FF14D1#
(1785878690.263247) can0 18FEF1F8#FF0000FFFFFFFFFF
(1785878690.264561) can0 18F005F8#7DFFFF7DFFFFFFFF
(1785878690.299392) can0 1CECFFF1#20120003FF19F000
(1785878690.301251) can0 1CEBFFF1#0127100000000000
(1785878690.301499) can0 1CEBFFF1#0200000000000000
(1785878690.301888) can0 1CEBFFF1#03FF30F2B4FFFFFF
(1785878690.329033) can0 18F015F1#0000457F4A564431
(1785878690.363249) can0 18FEF1F8#FF0000FFFFFFFFFF
(1785878690.364459) can0 18F005F8#7DFFFF7DFFFFFFFF
(1785878690.398975) can0 1CECFFF1#20120003FF19F000
(1785878690.399911) can0 1CEBFFF1#0127100000000000
(1785878690.400925) can0 1CEBFFF1#0200000000000000
(1785878690.401899) can0 1CEBFFF1#03FF30F2B4FFFFFF
(1785878690.427928) can0 18F015F1#0000457F4A564431
(1785878690.462990) can0 18FEF1F8#FF0000FFFFFFFFFF
(1785878690.464120) can0 18F005F8#7DFFFF7DFFFFFFFF
(1785878690.499934) can0 1CECFFF1#20120003FF19F000
(1785878690.500916) can0 1CEBFFF1#0127100000000000
(1785878690.501925) can0 1CEBFFF1#0200000000000000
(1785878690.502913) can0 1CEBFFF1#03FF2F3AF5FFFFFF
(1785878690.528940) can0 18F015F1#0000457F4A564430
(1785878690.563006) can0 18FEF1F8#FF0000FFFFFFFFFF
(1785878690.564255) can0 18F005F8#7DFFFF7DFFFFFFFF
(1785878690.600092) can0 1CECFFF1#20120003FF19F000
(1785878690.600959) can0 1CEBFFF1#0127100000000000
(1785878690.601985) can0 1CEBFFF1#0200000000000000
(1785878690.602949) can0 1CEBFFF1#03FF30F2B4FFFFFF
(1785878690.629093) can0 18F015F1#0000457F4A564431
(1785878690.663028) can0 18FEF1F8#FF0000FFFFFFFFFF
(1785878690.664283) can0 18F005F8#7DFFFF7DFFFFFFFF
(1785878690.699969) can0 1CECFFF1#20120003FF19F000
(1785878690.700914) can0 1CEBFFF1#0127100000000000
(1785878690.701924) can0 1CEBFFF1#0200000000000000
(1785878690.702959) can0 1CEBFFF1#03FF2F3AF5FFFFFF
(1785878690.728960) can0 18F015F1#0000457E4A56442F
(1785878690.735236) can0 18FF14D1#
(1785878690.762973) can0 18FEF1F8#FF0000FFFFFFFFFF
(1785878690.764183) can0 18F005F8#7DFFFF7DFFFFFFFF
(1785878690.799965) can0 1CECFFF1#20120003FF19F000
(1785878690.800934) can0 1CEBFFF1#0127100000000000
(1785878690.801945) can0 1CEBFFF1#0200000000000000
(1785878690.802945) can0 1CEBFFF1#03FF2F3AF5FFFFFF
(1785878690.828923) can0 18F015F1#0000457E4A564430
(1785878690.863211) can0 18FEF1F8#FF0000FFFFFFFFFF
(1785878690.864351) can0 18F005F8#7DFFFF7DFFFFFFFF
(1785878690.900085) can0 1CECFFF1#20120003FF19F000
(1785878690.900956) can0 1CEBFFF1#0127100000000000
(1785878690.901965) can0 1CEBFFF1#0200000000000000
(1785878690.902955) can0 1CEBFFF1#03FF2F3AF5FFFFFF
(1785878690.929053) can0 18F015F1#0000457E4A56442F
(1785878690.939973) can0 18F017F1#E735F8679B85
(1785878690.940435) can0 18F018F1#E05FEF9C8F6C
(1785878690.963589) can0 18FEF1F8#FF0000FFFFFFFFFF
(1785878690.966007) can0 18F005F8#7DFFFF7DFFFFFFFF
(1785878691.000059) can0 1CECFFF1#20120003FF19F000
(1785878691.000939) can0 1CEBFFF1#0127100000000000
(1785878691.001935) can0 1CEBFFF1#0200000000000000
(1785878691.002921) can0 1CEBFFF1#03FF2F3AF5FFFFFF
(1785878691.028926) can0 18F015F1#0000457E4A56442F
(1785878691.063021) can0 18FEF1F8#FF0000FFFFFFFFFF
(1785878691.064161) can0 18F005F8#7DFFFF7DFFFFFFFF
(1785878691.099955) can0 1CECFFF1#20120003FF19F000
(1785878691.100925) can0 1CEBFFF1#0127100000000000
(1785878691.101929) can0 1CEBFFF1#0200000000000000
(1785878691.102918) can0 1CEBFFF1#03FF2F3AF5FFFFFF
(1785878691.128933) can0 18F015F1#0000457E4A55442E
(1785878691.162956) can0 18FEF1F8#FF0000FFFFFFFFFF
(1785878691.164091) can0 18F005F8#7DFFFF7DFFFFFFFF
(1785878691.199934) can0 1CECFFF1#20120003FF19F000
(1785878691.200919) can0 1CEBFFF1#0127100000000000
(1785878691.201931) can0 1CEBFFF1#0200000000000000
(1785878691.202917) can0 1CEBFFF1#03FF2F3AF5FFFFFF
(1785878691.229079) can0 18F015F1#0000457E4A56442F
(1785878691.235276) can0 18FF14D1#
(1785878691.263285) can0 18FEF1F8#FF0000FFFFFFFFFF
(1785878691.264649) can0 18F005F8#7DFFFF7DFFFFFFFF
(1785878691.301112) can0 1CECFFF1#20120003FF19F000
(1785878691.301929) can0 1CEBFFF1#0127100000000000
(1785878691.302987) can0 1CEBFFF1#0200000000000000
(1785878691.303933) can0 1CEBFFF1#03FF2EFA34FFFFFF
(1785878691.329944) can0 18F015F1#0000457D4A56442D
(1785878691.363046) can0 18FEF1F8#FF0000FFFFFFFFFF
(1785878691.364176) can0 18F005F8#7DFFFF7DFFFFFFFF
(1785878691.400985) can0 1CECFFF1#20120003FF19F000
(1785878691.401927) can0 1CEBFFF1#0127100000000000
(1785878691.402940) can0 1CEBFFF1#0200000000000000
(1785878691.403915) can0 1CEBFFF1#03FF2EFA34FFFFFF
(1785878691.429955) can0 18F015F1#0000457D4A56442D
(1785878691.463051) can0 18FEF1F8#FF0000FFFFFFFFFF
(1785878691.464238) can0 18F005F8#7DFFFF7DFFFFFFFF
(1785878691.501004) can0 1CECFFF1#20120003FF19F000
(1785878691.501943) can0 1CEBFFF1#0127100000000000
(1785878691.502949) can0 1CEBFFF1#0200000000000000
(1785878691.503924) can0 1CEBFFF1#03FF2EFA34FFFFFF
(1785878691.529963) can0 18F015F1#0000457D4A56442D
(1785878691.563111) can0 18FEF1F8#FF0000FFFFFFFFFF
(1785878691.564329) can0 18F005F8#7DFFFF7DFFFFFFFF
(1785878691.601061) can0 1CECFFF1#20120003FF19F000
(1785878691.601941) can0 1CEBFFF1#0127100000000000
(1785878691.602951) can0 1CEBFFF1#0200000000000000
(1785878691.603939) can0 1CEBFFF1#03FF2EFA34FFFFFF
(1785878691.630012) can0 18F015F1#0000457D4A56442D
(1785878691.663004) can0 18FEF1F8#FF0000FFFFFFFFFF
(1785878691.664126) can0 18F005F8#7DFFFF7DFFFFFFFF
(1785878691.700976) can0 1CECFFF1#20120003FF19F000
(1785878691.701933) can0 1CEBFFF1#0127100000000000
(1785878691.702952) can0 1CEBFFF1#0200000000000000
(1785878691.703923) can0 1CEBFFF1#03FF2EFA34FFFFFF
(1785878691.729978) can0 18F015F1#0000457D4A56442C
(1785878691.735137) can0 18FF14D1#
(1785878691.763008) can0 18FEF1F8#FF0000FFFFFFFFFF
(1785878691.764146) can0 18F005F8#7DFFFF7DFFFFFFFF
(1785878691.800959) can0 1CECFFF1#20120003FF19F000
(1785878691.801933) can0 1CEBFFF1#0127100000000000
(1785878691.802952) can0 1CEBFFF1#0200000000000000
(1785878691.803930) can0 1CEBFFF1#03FF2EFA34FFFFFF
(1785878691.829935) can0 18F015F1#0000457D4A56442C
(1785878691.863016) can0 18FEF1F8#FF0000FFFFFFFFFF
(1785878691.864140) can0 18F005F8#7DFFFF7DFFFFFFFF
(1785878691.901026) can0 1CECFFF1#20120003FF19F000
(1785878691.901962) can0 1CEBFFF1#0127100000000000
(1785878691.902962) can0 1CEBFFF1#0200000000000000
(1785878691.903936) can0 1CEBFFF1#03FF2EFA34FFFFFF
(1785878691.929997) can0 18F015F1#0000457D4A56442B
(1785878691.941082) can0 18F017F1#E731F89F9B2E
(1785878691.941514) can0 18F018F1#E028EF788F6B
(1785878691.963907) can0 18FEF1F8#FF0000FFFFFFFFFF
(1785878691.965743) can0 18F005F8#7DFFFF7DFFFFFFFF
(1785878692.001040) can0 1CECFFF1#20120003FF19F000
(1785878692.002093) can0 1CEBFFF1#0127100000000000
(1785878692.002983) can0 1CEBFFF1#0200000000000000
(1785878692.003994) can0 1CEBFFF1#03FF2DFB74FFFFFF
(1785878692.029956) can0 18F015F1#0000457D4A56442C
(1785878692.063034) can0 18FEF1F8#FF0000FFFFFFFFFF
(1785878692.064178) can0 18F005F8#7DFFFF7DFFFFFFFF
(1785878692.100986) can0 1CECFFF1#20120003FF19F000
(1785878692.101937) can0 1CEBFFF1#0127100000000000
(1785878692.102948) can0 1CEBFFF1#0200000000000000
(1785878692.103957) can0 1CEBFFF1#03FF2DFB74FFFFFF
(1785878692.130944) can0 18F015F1#0000457C4A56442B
(1785878692.162991) can0 18FEF1F8#FF0000FFFFFFFFFF
(1785878692.164149) can0 18F005F8#7DFFFF7DFFFFFFFF
(1785878692.201948) can0 1CECFFF1#20120003FF19F000
(1785878692.202940) can0 1CEBFFF1#0127100000000000
(1785878692.203950) can0 1CEBFFF1#0200000000000000
(1785878692.204935) can0 1CEBFFF1#03FF2DFB74FFFFFF
(1785878692.231030) can0 18F015F1#0000457C4A56442A
(1785878692.235318) can0 18FF14D1#
(1785878692.263251) can0 18FEF1F8#FF0000FFFFFFFFFF
(1785878692.264596) can0 18F005F8#7DFFFF7DFFFFFFFF
(1785878692.302574) can0 1CECFFF1#20120003FF19F000
(1785878692.303108) can0 1CEBFFF1#0127100000000000
(1785878692.303956) can0 1CEBFFF1#0200000000000000
(1785878692.304956) can0 1CEBFFF1#03FF2DFB74FFFFFF
(1785878692.331052) can0 18F015F1#0000457C4A55442A
(1785878692.363939) can0 18FEF1F8#FF0000FFFFFFFFFF
(1785878692.367090) can0 18F005F8#7DFFFF7DFFFFFFFF
(1785878692.401996) can0 1CECFFF1#20120003FF19F000
(1785878692.402931) can0 1CEBFFF1#0127100000000000
(1785878692.403939) can0 1CEBFFF1#0200000000000000
(1785878692.405038) can0 1CEBFFF1#03FF2DFB74FFFFFF
(1785878692.430955) can0 18F015F1#0000457C4A56442A
(1785878692.463003) can0 18FEF1F8#FF0000FFFFFFFFFF
(1785878692.464219) can0 18F005F8#7DFFFF7DFFFFFFFF
(1785878692.501959) can0 1CECFFF1#20120003FF19F000
(1785878692.502951) can0 1CEBFFF1#0127100000000000
(1785878692.503954) can0 1CEBFFF1#0200000000000000
(1785878692.504944) can0 1CEBFFF1#03FF2DFB74FFFFFF
(1785878692.530932) can0 18F015F1#0000457C4A564429
(1785878692.564192) can0 18FEF1F8#FF0000FFFFFFFFFF
(1785878692.565411) can0 18F005F8#7DFFFF7DFFFFFFFF
(1785878692.602114) can0 1CECFFF1#20120003FF19F000
(1785878692.602957) can0 1CEBFFF1#0127100000000000
(1785878692.603977) can0 1CEBFFF1#0200000000000000
(1785878692.604961) can0 1CEBFFF1#03FF2DFB74FFFFFF
(1785878692.631252) can0 18F015F1#0000457C4A564429
(1785878692.663257) can0 18FEF1F8#FF0000FFFFFFFFFF
(1785878692.666297) can0 18F005F8#7DFFFF7DFFFFFFFF
(1785878692.702012) can0 1CECFFF1#20120003FF19F000
(1785878692.702949) can0 1CEBFFF1#0127100000000000
(1785878692.703952) can0 1CEBFFF1#0200000000000000
(1785878692.704921) can0 1CEBFFF1#03FF2C3BB5FFFFFF
(1785878692.730986) can0 18F015F1#0000457B4A564428
(1785878692.735127) can0 18FF14D1#
(1785878692.763006) can0 18FEF1F8#FF0000FFFFFFFFFF
(1785878692.764222) can0 18F005F8#7DFFFF7DFFFFFFFF
(1785878692.801975) can0 1CECFFF1#20120003FF19F000
(1785878692.802940) can0 1CEBFFF1#0127100000000000
(1785878692.803946) can0 1CEBFFF1#0200000000000000
(1785878692.804926) can0 1CEBFFF1#03FF2C3BB5FFFFFF
(1785878692.830942) can0 18F015F1#0000457B4A564428
(1785878692.863007) can0 18FEF1F8#FF0000FFFFFFFFFF
(1785878692.864221) can0 18F005F8#7DFFFF7DFFFFFFFF
(1785878692.903126) can0 1CECFFF1#20120003FF19F000
(1785878692.903959) can0 1CEBFFF1#0127100000000000
(1785878692.904984) can0 1CEBFFF1#0200000000000000
(1785878692.906001) can0 1CEBFFF1#03FF2C3BB5FFFFFF
(1785878692.932109) can0 18F015F1#0000457B4A554427
(1785878692.942034) can0 18F017F1#E731F89F9B2E
(1785878692.942352) can0 18F018F1#E028EF788F6B
(1785878692.963486) can0 18FEF1F8#FF0000FFFFFFFFFF
(1785878692.964774) can0 18F005F8#7DFFFF7DFFFFFFFF
(1785878693.003005) can0 1CECFFF1#20120003FF19F000
(1785878693.003936) can0 1CEBFFF1#0127100000000000
(1785878693.004945) can0 1CEBFFF1#0200000000000000
(1785878693.005951) can0 1CEBFFF1#03FF2C3BB5FFFFFF
(1785878693.031936) can0 18F015F1#0000457B4A564427
(1785878693.063059) can0 18FEF1F8#FF0000FFFFFFFFFF
(1785878693.064198) can0 18F005F8#7DFFFF7DFFFFFFFF
(1785878693.102984) can0 1CECFFF1#20120003FF19F000
(1785878693.103936) can0 1CEBFFF1#0127100000000000
(1785878693.104946) can0 1CEBFFF1#0200000000000000
(1785878693.105946) can0 1CEBFFF1#03FF2C3BB5FFFFFF
(1785878693.131949) can0 18F015F1#0000457A4A564426
(1785878693.162996) can0 18FEF1F8#FF0000FFFFFFFFFF
(1785878693.164161) can0 18F005F8#7DFFFF7DFFFFFFFF
(1785878693.202990) can0 1CECFFF1#20120003FF19F000
(1785878693.203952) can0 1CEBFFF1#0127100000000000
(1785878693.204961) can0 1CEBFFF1#0200000000000000
(1785878693.205966) can0 1CEBFFF1#03FF2BF9F4FFFFFF
(1785878693.232037) can0 18F015F1#0000457B4A564426
(1785878693.235221) can0 18FF14D1#
(1785878693.263192) can0 18FEF1F8#FF0000FFFFFFFFFF
(1785878693.264430) can0 18F005F8#7DFFFF7DFFFFFFFF
(1785878693.303308) can0 1CECFFF1#20120003FF19F000
(1785878693.303995) can0 1CEBFFF1#0127100000000000
(1785878693.305043) can0 1CEBFFF1#0200000000000000
(1785878693.306250) can0 1CEBFFF1#03FF2BF9F4FFFFFF
(1785878693.332116) can0 18F015F1#0000457A4A564424
(1785878693.363283) can0 18FEF1F8#FF0000FFFFFFFFFF
(1785878693.364511) can0 18F005F8#7DFFFF7DFFFFFFFF
(1785878693.403020) can0 1CECFFF1#20120003FF19F000
(1785878693.403945) can0 1CEBFFF1#0127100000000000
(1785878693.404956) can0 1CEBFFF1#0200000000000000
(1785878693.405967) can0 1CEBFFF1#03FF2BF9F4FFFFFF
(1785878693.431968) can0 18F015F1#0000457A4A564425
(1785878693.463007) can0 18FEF1F8#FF0000FFFFFFFFFF
(1785878693.464221) can0 18F005F8#7DFFFF7DFFFFFFFF
(1785878693.502968) can0 1CECFFF1#20120003FF19F000
(1785878693.503955) can0 1CEBFFF1#0127100000000000
(1785878693.504954) can0 1CEBFFF1#0200000000000000
(1785878693.505961) can0 1CEBFFF1#03FF2BF9F4FFFFFF
(1785878693.531950) can0 18F015F1#0000457A4A554424
(1785878693.562978) can0 18FEF1F8#FF0000FFFFFFFFFF
(1785878693.564133) can0 18F005F8#7DFFFF7DFFFFFFFF
(1785878693.603088) can0 1CECFFF1#20120003FF19F000
(1785878693.603967) can0 1CEBFFF1#0127100000000000
(1785878693.604988) can0 1CEBFFF1#0200000000000000
(1785878693.606001) can0 1CEBFFF1#03FF2BF9F4FFFFFF
(1785878693.632527) can0 18F015F1#0000457A4A564424
(1785878693.663698) can0 18FEF1F8#FF0000FFFFFFFFFF
(1785878693.664955) can0 18F005F8#7DFFFF7DFFFFFFFF
(1785878693.703004) can0 1CECFFF1#20120003FF19F000
(1785878693.703954) can0 1CEBFFF1#0127100000000000
(1785878693.704959) can0 1CEBFFF1#0200000000000000
(1785878693.705967) can0 1CEBFFF1#03FF2BF9F4FFFFFF
(1785878693.731992) can0 18F015F1#000045794A564422
(1785878693.735157) can0 18FF14D1#
(1785878693.763033) can0 18FEF1F8#FF0000FFFFFFFFFF
(1785878693.764196) can0 18F005F8#7DFFFF7DFFFFFFFF
(1785878693.804009) can0 1CECFFF1#20120003FF19F000
(1785878693.804963) can0 1CEBFFF1#0127100000000000
(1785878693.806014) can0 1CEBFFF1#0200000000000000
(1785878693.806951) can0 1CEBFFF1#03FF2A3935FFFFFF
(1785878693.832971) can0 18F015F1#000045794A554423
(1785878693.863219) can0 18FEF1F8#FF0000FFFFFFFFFF
(1785878693.864373) can0 18F005F8#7DFFFF7DFFFFFFFF
(1785878693.904009) can0 1CECFFF1#20120003FF19F000
(1785878693.904960) can0 1CEBFFF1#0127100000000000
(1785878693.905995) can0 1CEBFFF1#0200000000000000
(1785878693.906953) can0 1CEBFFF1#03FF2A3935FFFFFF
(1785878693.932995) can0 18F015F1#000045794A554422
(1785878693.942964) can0 18F017F1#E6F5F8749A79
(1785878693.943444) can0 18F018F1#E03CEEEA8F53
(1785878693.963101) can0 18FEF1F8#FF0000FFFFFFFFFF
(1785878693.964314) can0 18F005F8#7DFFFF7DFFFFFFFF
(1785878694.004806) can0 1CECFFF1#20120003FF19F000
(1785878694.005981) can0 1CEBFFF1#0127100000000000
(1785878694.006629) can0 1CEBFFF1#0200000000000000
(1785878694.008915) can0 1CEBFFF1#03FF2A3935FFFFFF
(1785878694.033076) can0 18F015F1#000045794A564422
(1785878694.063488) can0 18FEF1F8#FF0000FFFFFFFFFF
(1785878694.064733) can0 18F005F8#7DFFFF7DFFFFFFFF
(1785878694.104013) can0 1CECFFF1#20120003FF19F000
(1785878694.104948) can0 1CEBFFF1#0127100000000000
(1785878694.106288) can0 1CEBFFF1#0200000000000000
(1785878694.106938) can0 1CEBFFF1#03FF293875FFFFFF
(1785878694.132939) can0 18F015F1#000045794A554421
(1785878694.162958) can0 18FEF1F8#FF0000FFFFFFFFFF
(1785878694.164115) can0 18F005F8#7DFFFF7DFFFFFFFF
(1785878694.203975) can0 1CECFFF1#20120003FF19F000
(1785878694.204948) can0 1CEBFFF1#0127100000000000
(1785878694.205982) can0 1CEBFFF1#0200000000000000
(1785878694.206934) can0 1CEBFFF1#03FF2A3935FFFFFF
(1785878694.232932) can0 18F015F1#000045794A554421
(1785878694.235108) can0 18FF14D1#
(1785878694.263144) can0 18FEF1F8#FF0000FFFFFFFFFF
(1785878694.264359) can0 18F005F8#7DFFFF7DFFFFFFFF
(1785878694.304137) can0 1CECFFF1#20120003FF19F000
(1785878694.304990) can0 1CEBFFF1#0127100000000000
(1785878694.306065) can0 1CEBFFF1#0200000000000000
(1785878694.307025) can0 1CEBFFF1#03FF293875FFFFFF
(1785878694.333202) can0 18F015F1#000045784A564420
(1785878694.363325) can0 18FEF1F8#FF0000FFFFFFFFFF
(1785878694.364505) can0 18F005F8#7DFFFF7DFFFFFFFF
(1785878694.404018) can0 1CECFFF1#20120003FF19F000
(1785878694.404948) can0 1CEBFFF1#0127100000000000
(1785878694.406006) can0 1CEBFFF1#0200000000000000
(1785878694.406948) can0 1CEBFFF1#03FF293875FFFFFF
(1785878694.432981) can0 18F015F1#000045784A554420
(1785878694.463002) can0 18FEF1F8#FF0000FFFFFFFFFF
(1785878694.464221) can0 18F005F8#7DFFFF7DFFFFFFFF
(1785878694.503982) can0 1CECFFF1#20120003FF19F000
(1785878694.504964) can0 1CEBFFF1#0127100000000000
(1785878694.505994) can0 1CEBFFF1#0200000000000000
(1785878694.506951) can0 1CEBFFF1#03FF293875FFFFFF
(1785878694.533957) can0 18F015F1#000045784A55441E
(1785878694.562960) can0 18FEF1F8#FF0000FFFFFFFFFF
(1785878694.564160) can0 18F005F8#7DFFFF7DFFFFFFFF
(1785878694.605236) can0 1CECFFF1#20120003FF19F000
(1785878694.606003) can0 1CEBFFF1#0127100000000000
(1785878694.606999) can0 1CEBFFF1#0200000000000000
(1785878694.607943) can0 1CEBFFF1#03FF293875FFFFFF
(1785878694.634187) can0 18F015F1#000045784A55441E
(1785878694.663011) can0 18FEF1F8#FF0000FFFFFFFFFF
(1785878694.664265) can0 18F005F8#7DFFFF7DFFFFFFFF
(1785878694.705007) can0 1CECFFF1#20120003FF19F000
(1785878694.705984) can0 1CEBFFF1#0127100000000000
(1785878694.707060) can0 1CEBFFF1#0200000000000000
(1785878694.707984) can0 1CEBFFF1#03FF28F8B4FFFFFF
(1785878694.738200) can0 18F015F1#000045774A55441D
(1785878694.738586) can0 18FF14D1#
(1785878694.764338) can0 18FEF1F8#FF0000FFFFFFFFFF
(1785878694.766594) can0 18F005F8#7DFFFF7DFFFFFFFF
(1785878694.805013) can0 1CECFFF1#20120003FF19F000
(1785878694.806121) can0 1CEBFFF1#0127100000000000
(1785878694.806966) can0 1CEBFFF1#0200000000000000
(1785878694.807946) can0 1CEBFFF1#03FF293875FFFFFF
(1785878694.833965) can0 18F015F1#000045774A56441D
(1785878694.863224) can0 18FEF1F8#FF0000FFFFFFFFFF
(1785878694.864362) can0 18F005F8#7DFFFF7DFFFFFFFF
(1785878694.905001) can0 1CECFFF1#20120003FF19F000
(1785878694.905999) can0 1CEBFFF1#0127100000000000
(1785878694.906966) can0 1CEBFFF1#0200000000000000
(1785878694.907951) can0 1CEBFFF1#03FF28F8B4FFFFFF
(1785878694.933958) can0 18F015F1#000045774A56441C
(1785878694.944908) can0 18F017F1#E6F5F8749A79
(1785878694.945327) can0 18F018F1#E03CEEEA8F53
(1785878694.963125) can0 18FEF1F8#FF0000FFFFFFFFFF
(1785878694.964284) can0 18F005F8#7DFFFF7DFFFFFFFF
(1785878695.005372) can0 1CECFFF1#20120003FF19F000
(1785878695.006120) can0 1CEBFFF1#0127100000000000
(1785878695.007012) can0 1CEBFFF1#0200000000000000
(1785878695.008005) can0 1CEBFFF1#03FF28F8B4FFFFFF
(1785878695.034111) can0 18F015F1#000045774A55441C
(1785878695.062967) can0 18FEF1F8#FF0000FFFFFFFFFF
(1785878695.064099) can0 18F005F8#7DFFFF7DFFFFFFFF
(1785878695.105027) can0 1CECFFF1#20120003FF19F000
(1785878695.105988) can0 1CEBFFF1#0127100000000000
(1785878695.106971) can0 1CEBFFF1#0200000000000000
(1785878695.107958) can0 1CEBFFF1#03FF28F8B4FFFFFF
(1785878695.133982) can0 18F015F1#000045774A55441A
(1785878695.162998) can0 18FEF1F8#FF0000FFFFFFFFFF
(1785878695.164219) can0 18F005F8#7DFFFF7DFFFFFFFF
(1785878695.204981) can0 1CECFFF1#20120003FF19F000
(1785878695.206013) can0 1CEBFFF1#0127100000000000
(1785878695.206989) can0 1CEBFFF1#0200000000000000
(1785878695.207969) can0 1CEBFFF1#03FF28F8B4FFFFFF
(1785878695.233961) can0 18F015F1#000045774A56441B
(1785878695.235183) can0 18FF14D1#
(1785878695.263484) can0 18FEF1F8#FF0000FFFFFFFFFF
(1785878695.264675) can0 18F005F8#7DFFFF7DFFFFFFFF
(1785878695.306185) can0 1CECFFF1#20120003FF19F000
(1785878695.306982) can0 1CEBFFF1#0127100000000000
(1785878695.308021) can0 1CEBFFF1#0200000000000000
(1785878695.308980) can0 1CEBFFF1#03FF27FCF4FFFFFF
(1785878695.334075) can0 18F015F1#000045764A554419
(1785878695.363482) can0 18FEF1F8#FF0000FFFFFFFFFF
(1785878695.364831) can0 18F005F8#7DFFFF7DFFFFFFFF
(1785878695.406042) can0 1CECFFF1#20120003FF19F000
(1785878695.406978) can0 1CEBFFF1#0127100000000000
(1785878695.408362) can0 1CEBFFF1#0200000000000000
(1785878695.408988) can0 1CEBFFF1#03FF27FCF4FFFFFF
(1785878695.434990) can0 18F015F1#000045764A564419
(1785878695.463005) can0 18FEF1F8#FF0000FFFFFFFFFF
(1785878695.464193) can0 18F005F8#7DFFFF7DFFFFFFFF
(1785878695.506026) can0 1CECFFF1#20120003FF19F000
(1785878695.506977) can0 1CEBFFF1#0127100000000000
(1785878695.507985) can0 1CEBFFF1#0200000000000000
(1785878695.508962) can0 1CEBFFF1#03FF27FCF4FFFFFF
(1785878695.534971) can0 18F015F1#000045764A564418
(1785878695.562981) can0 18FEF1F8#FF0000FFFFFFFFFF
(1785878695.564150) can0 18F005F8#7DFFFF7DFFFFFFFF
(1785878695.606313) can0 1CECFFF1#20120003FF19F000
(1785878695.606965) can0 1CEBFFF1#0127100000000000
(1785878695.607996) can0 1CEBFFF1#0200000000000000
(1785878695.608973) can0 1CEBFFF1#03FF27FCF4FFFFFF
(1785878695.635098) can0 18F015F1#000045764A554419
(1785878695.663453) can0 18FEF1F8#FF0000FFFFFFFFFF
(1785878695.664741) can0 18F005F8#7DFFFF7DFFFFFFFF
(1785878695.706041) can0 1CECFFF1#20120003FF19F000
(1785878695.706961) can0 1CEBFFF1#0127100000000000
(1785878695.707970) can0 1CEBFFF1#0200000000000000
(1785878695.708948) can0 1CEBFFF1#03FF27FCF4FFFFFF
(1785878695.734953) can0 18F015F1#000045764A554416
(1785878695.735197) can0 18FF14D1#
(1785878695.763025) can0 18FEF1F8#FF0000FFFFFFFFFF
(1785878695.764235) can0 18F005F8#7DFFFF7DFFFFFFFF
(1785878695.806041) can0 1CECFFF1#20120003FF19F000
(1785878695.806970) can0 1CEBFFF1#0127100000000000
(1785878695.807974) can0 1CEBFFF1#0200000000000000
(1785878695.808951) can0 1CEBFFF1#03FF27FCF4FFFFFF
(1785878695.835001) can0 18F015F1#000045754A564416
(1785878695.863060) can0 18FEF1F8#FF0000FFFFFFFFFF
(1785878695.864252) can0 18F005F8#7DFFFF7DFFFFFFFF
(1785878695.906076) can0 1CECFFF1#20120003FF19F000
(1785878695.907002) can0 1CEBFFF1#0127100000000000
(1785878695.907998) can0 1CEBFFF1#0200000000000000
(1785878695.908962) can0 1CEBFFF1#03FF263C35FFFFFF
(1785878695.935486) can0 18F015F1#000045754A554415
(1785878695.947065) can0 18F017F1#E79CF7B1995C
(1785878695.947499) can0 18F018F1#E054ED929013
(1785878695.963175) can0 18FEF1F8#FF0000FFFFFFFFFF
(1785878695.964444) can0 18F005F8#7DFFFF7DFFFFFFFF
(1785878696.007066) can0 1CECFFF1#20120003FF19F000
(1785878696.008566) can0 1CEBFFF1#0200000000000000
(1785878696.009266) can0 1CEBFFF1#0127100000000000
(1785878696.009878) can0 1CEBFFF1#03FF263C35FFFFFF
(1785878696.035474) can0 18F015F1#000045754A554415
(1785878696.062968) can0 18FEF1F8#FF0000FFFFFFFFFF
(1785878696.064122) can0 18F005F8#7DFFFF7DFFFFFFFF
(1785878696.106042) can0 1CECFFF1#20120003FF19F000
(1785878696.106980) can0 1CEBFFF1#0127100000000000
(1785878696.107975) can0 1CEBFFF1#0200000000000000
(1785878696.108958) can0 1CEBFFF1#03FF263C35FFFFFF
(1785878696.134983) can0 18F015F1#000045754A554413
(1785878696.162994) can0 18FEF1F8#FF0000FFFFFFFFFF
(1785878696.164129) can0 18F005F8#7DFFFF7DFFFFFFFF
(1785878696.206989) can0 1CECFFF1#20120003FF19F000
(1785878696.207968) can0 1CEBFFF1#0127100000000000
(1785878696.208980) can0 1CEBFFF1#0200000000000000
(1785878696.209962) can0 1CEBFFF1#03FF263C35FFFFFF
(1785878696.235037) can0 18FF14D1#
(1785878696.235969) can0 18F015F1#000045754A554414
(1785878696.263057) can0 18FEF1F8#FF0000FFFFFFFFFF
(1785878696.264234) can0 18F005F8#7DFFFF7DFFFFFFFF
(1785878696.307110) can0 1CECFFF1#20120003FF19F000
(1785878696.308159) can0 1CEBFFF1#0127100000000000
(1785878696.309032) can0 1CEBFFF1#0200000000000000
(1785878696.310017) can0 1CEBFFF1#03FF253D75FFFFFF
(1785878696.336314) can0 18F015F1#000045754A554412
(1785878696.363291) can0 18FEF1F8#FF0000FFFFFFFFFF
(1785878696.364432) can0 18F005F8#7DFFFF7DFFFFFFFF
(1785878696.407012) can0 1CECFFF1#20120003FF19F000
(1785878696.407963) can0 1CEBFFF1#0127100000000000
(1785878696.408974) can0 1CEBFFF1#0200000000000000
(1785878696.409956) can0 1CEBFFF1#03FF263C35FFFFFF
(1785878696.436038) can0 18F015F1#000045744A564412
(1785878696.462996) can0 18FEF1F8#FF0000FFFFFFFFFF
(1785878696.464179) can0 18F005F8#7DFFFF7DFFFFFFFF
(1785878696.507008) can0 1CECFFF1#20120003FF19F000
(1785878696.507973) can0 1CEBFFF1#0127100000000000
(1785878696.508980) can0 1CEBFFF1#0200000000000000
(1785878696.509959) can0 1CEBFFF1#03FF253D75FFFFFF
(1785878696.535993) can0 18F015F1#000045744A55440F
(1785878696.562950) can0 18FEF1F8#FF0000FFFFFFFFFF
(1785878696.564081) can0 18F005F8#7DFFFF7DFFFFFFFF
(1785878696.607166) can0 1CECFFF1#20120003FF19F000
(1785878696.608003) can0 1CEBFFF1#0127100000000000
(1785878696.609023) can0 1CEBFFF1#0200000000000000
(1785878696.609996) can0 1CEBFFF1#03FF253D75FFFFFF
(1785878696.636203) can0 18F015F1#000045744A554410
(1785878696.663611) can0 18FEF1F8#FF0000FFFFFFFFFF
(1785878696.664884) can0 18F005F8#7DFFFF7DFFFFFFFF
(1785878696.707015) can0 1CECFFF1#20120003FF19F000
(1785878696.707968) can0 1CEBFFF1#0127100000000000
(1785878696.708975) can0 1CEBFFF1#0200000000000000
(1785878696.709962) can0 1CEBFFF1#03FF24FDB4FFFFFF
(1785878696.734983) can0 18FF14D1#
(1785878696.735984) can0 18F015F1#000045734A56440E
(1785878696.763028) can0 18FEF1F8#FF0000FFFFFFFFFF
(1785878696.764192) can0 18F005F8#7DFFFF7DFFFFFFFF
(1785878696.807026) can0 1CECFFF1#20120003FF19F000
(1785878696.807977) can0 1CEBFFF1#0127100000000000
(1785878696.808984) can0 1CEBFFF1#0200000000000000
(1785878696.809969) can0 1CEBFFF1#03FF24FDB4FFFFFF
(1785878696.836009) can0 18F015F1#000045734A55440F
(1785878696.863347) can0 18FEF1F8#FF0000FFFFFFFFFF
(1785878696.864477) can0 18F005F8#7DFFFF7DFFFFFFFF
(1785878696.906999) can0 1CECFFF1#20120003FF19F000
(1785878696.907971) can0 1CEBFFF1#0127100000000000
(1785878696.908979) can0 1CEBFFF1#0200000000000000
(1785878696.909967) can0 1CEBFFF1#03FF24FDB4FFFFFF
(1785878696.937116) can0 18F015F1#000045734A55440C
(1785878696.946986) can0 18F017F1#E79CF7B1995C
(1785878696.947459) can0 18F018F1#E054ED929013
(1785878696.963044) can0 18FEF1F8#FF0000FFFFFFFFFF
(1785878696.964279) can0 18F005F8#7DFFFF7DFFFFFFFF
(1785878697.008644) can0 1CECFFF1#20120003FF19F000
(1785878697.010055) can0 1CEBFFF1#0127100000000000
(1785878697.010674) can0 1CEBFFF1#0200000000000000
(1785878697.011223) can0 1CEBFFF1#03FF24FDB4FFFFFF
(1785878697.037055) can0 18F015F1#000045724A55440C
(1785878697.063244) can0 18FEF1F8#FF0000FFFFFFFFFF
(1785878697.064417) can0 18F005F8#7DFFFF7DFFFFFFFF
(1785878697.108044) can0 1CECFFF1#20120003FF19F000
(1785878697.108980) can0 1CEBFFF1#0127100000000000
(1785878697.109987) can0 1CEBFFF1#0200000000000000
(1785878697.110984) can0 1CEBFFF1#03FF233FF5FFFFFF
(1785878697.136982) can0 18F015F1#000045724A554409
(1785878697.162959) can0 18FEF1F8#FF0000FFFFFFFFFF
(1785878697.164109) can0 18F005F8#7DFFFF7DFFFFFFFF
(1785878697.208019) can0 1CECFFF1#20120003FF19F000
(1785878697.208991) can0 1CEBFFF1#0127100000000000
(1785878697.210005) can0 1CEBFFF1#0200000000000000
(1785878697.210992) can0 1CEBFFF1#03FF233FF5FFFFFF
(1785878697.235332) can0 18FF14D1#
(1785878697.236992) can0 18F015F1#000045724A554409
(1785878697.263006) can0 18FEF1F8#FF0000FFFFFFFFFF
(1785878697.264130) can0 18F005F8#7DFFFF7DFFFFFFFF
(1785878697.308171) can0 1CECFFF1#20120003FF19F000
(1785878697.309036) can0 1CEBFFF1#0127100000000000
(1785878697.310054) can0 1CEBFFF1#0200000000000000
(1785878697.311023) can0 1CEBFFF1#03FF233FF5FFFFFF
(1785878697.337204) can0 18F015F1#000045714A564407
(1785878697.364650) can0 18FEF1F8#FF0000FFFFFFFFFF
(1785878697.365989) can0 18F005F8#7DFFFF7DFFFFFFFF
(1785878697.408046) can0 1CECFFF1#20120003FF19F000
(1785878697.408981) can0 1CEBFFF1#0127100000000000
(1785878697.409982) can0 1CEBFFF1#0200000000000000
(1785878697.410960) can0 1CEBFFF1#03FF22FF34FFFFFF
(1785878697.437021) can0 18F015F1#000045724A554408
(1785878697.462983) can0 18FEF1F8#FF0000FFFFFFFFFF
(1785878697.464098) can0 18F005F8#7DFFFF7DFFFFFFFF
(1785878697.508019) can0 1CECFFF1#20120003FF19F000
(1785878697.508992) can0 1CEBFFF1#0127100000000000
(1785878697.510003) can0 1CEBFFF1#0200000000000000
(1785878697.510980) can0 1CEBFFF1#03FF22FF34FFFFFF
(1785878697.536973) can0 18F015F1#000045714A554405
(1785878697.563005) can0 18FEF1F8#FF0000FFFFFFFFFF
(1785878697.564172) can0 18F005F8#7DFFFF7DFFFFFFFF
(1785878697.608141) can0 1CECFFF1#20120003FF19F000
(1785878697.608989) can0 1CEBFFF1#0127100000000000
(1785878697.610015) can0 1CEBFFF1#0200000000000000
(1785878697.610990) can0 1CEBFFF1#03FF22FF34FFFFFF
(1785878697.637140) can0 18F015F1#000045714A564405
(1785878697.664668) can0 18FEF1F8#FF0000FFFFFFFFFF
(1785878697.666361) can0 18F005F8#7DFFFF7DFFFFFFFF
(1785878697.708022) can0 1CECFFF1#20120003FF19F000
(1785878697.708990) can0 1CEBFFF1#0127100000000000
(1785878697.709986) can0 1CEBFFF1#0200000000000000
(1785878697.710972) can0 1CEBFFF1#03FF21FE74FFFFFF
(1785878697.734977) can0 18FF14D1#
(1785878697.736965) can0 18F015F1#000045704A554401
(1785878697.763084) can0 18FEF1F8#FF0000FFFFFFFFFF
(1785878697.764260) can0 18F005F8#7DFFFF7DFFFFFFFF
(1785878697.809012) can0 1CECFFF1#20120003FF19F000
(1785878697.809980) can0 1CEBFFF1#0127100000000000
(1785878697.810987) can0 1CEBFFF1#0200000000000000
(1785878697.811977) can0 1CEBFFF1#03FF21FE74FFFFFF
(1785878697.837990) can0 18F015F1#000045704A554401
(1785878697.863042) can0 18FEF1F8#FF0000FFFFFFFFFF
(1785878697.864175) can0 18F005F8#7DFFFF7DFFFFFFFF
(1785878697.909050) can0 1CECFFF1#20120003FF19F000
(1785878697.909981) can0 1CEBFFF1#0127100000000000
(1785878697.911001) can0 1CEBFFF1#0200000000000000
(1785878697.912007) can0 1CEBFFF1#03FF203EB5FFFFFF
(1785878697.938064) can0 18F015F1#0000456F4A5543FF
(1785878697.948108) can0 18F017F1#E703F68B979B
(1785878697.948650) can0 18F018F1#E0F2EC749082
(1785878697.963062) can0 18FEF1F8#FF0000FFFFFFFFFF
(1785878697.964249) can0 18F005F8#7DFFFF7DFFFFFFFF
(1785878698.011522) can0 1CECFFF1#20120003FF19F000
(1785878698.012644) can0 1CEBFFF1#03FF203EB5FFFFFF
(1785878698.012819) can0 1CEBFFF1#0127100000000000
(1785878698.044580) can0 18F015F1#0000456F4A5543FF
(1785878698.064083) can0 18FEF1F8#FF0000FFFFFFFFFF
(1785878698.065498) can0 18F005F8#7DFFFF7DFFFFFFFF
(1785878698.109074) can0 1CECFFF1#20120003FF19F000
(1785878698.110008) can0 1CEBFFF1#0127100000000000
(1785878698.111020) can0 1CEBFFF1#0200000000000000
(1785878698.111985) can0 1CEBFFF1#03FF203EB5FFFFFF
(1785878698.138034) can0 18F015F1#0000456F4A5543FB
(1785878698.163060) can0 18FEF1F8#FF0000FFFFFFFFFF
(1785878698.164283) can0 18F005F8#7DFFFF7DFFFFFFFF
(1785878698.209052) can0 1CECFFF1#20120003FF19F000
(1785878698.209993) can0 1CEBFFF1#0127100000000000
(1785878698.211007) can0 1CEBFFF1#0200000000000000
(1785878698.211999) can0 1CEBFFF1#03FF203EB5FFFFFF
(1785878698.235028) can0 18FF14D1#
(1785878698.237992) can0 18F015F1#0000456E4A5543FB
(1785878698.263016) can0 18FEF1F8#FF0000FFFFFFFFFF
(1785878698.264228) can0 18F005F8#7DFFFF7DFFFFFFFF
(1785878698.309121) can0 1CECFFF1#20120003FF19F000
(1785878698.310010) can0 1CEBFFF1#0127100000000000
(1785878698.311025) can0 1CEBFFF1#0200000000000000
(1785878698.312003) can0 1CEBFFF1#03FF1F2EF5FFFFFF
(1785878698.338079) can0 18F015F1#0000456E4A5543F9
(1785878698.363463) can0 18FEF1F8#FF0000FFFFFFFFFF
(1785878698.365063) can0 18F005F8#7DFFFF7DFFFFFFFF
(1785878698.409165) can0 1CECFFF1#20120003FF19F000
(1785878698.409996) can0 1CEBFFF1#0127100000000000
(1785878698.411066) can0 1CEBFFF1#0200000000000000
(1785878698.412029) can0 1CEBFFF1#03FF1F2EF5FFFFFF
(1785878698.438010) can0 18F015F1#0000456E4A5543F9
(1785878698.462980) can0 18FEF1F8#FF0000FFFFFFFFFF
(1785878698.464203) can0 18F005F8#7DFFFF7DFFFFFFFF
(1785878698.509043) can0 1CECFFF1#20120003FF19F000
(1785878698.510003) can0 1CEBFFF1#0127100000000000
(1785878698.511016) can0 1CEBFFF1#0200000000000000
(1785878698.511992) can0 1CEBFFF1#03FF1EEE34FFFFFF
(1785878698.538014) can0 18F015F1#0000456D4A5543F6
(1785878698.562986) can0 18FEF1F8#FF0000FFFFFFFFFF
(1785878698.564194) can0 18F005F8#7DFFFF7DFFFFFFFF
(1785878698.610154) can0 1CECFFF1#20120003FF19F000
(1785878698.611002) can0 1CEBFFF1#0127100000000000
(1785878698.612027) can0 1CEBFFF1#0200000000000000
(1785878698.612993) can0 1CEBFFF1#03FF1EEE34FFFFFF
(1785878698.639160) can0 18F015F1#0000456D4A5543F6
(1785878698.663616) can0 18FEF1F8#FF0000FFFFFFFFFF
(1785878698.665118) can0 18F005F8#7DFFFF7DFFFFFFFF
(1785878698.710139) can0 1CECFFF1#20120003FF19F000
(1785878698.710997) can0 1CEBFFF1#0127100000000000
(1785878698.711994) can0 1CEBFFF1#0200000000000000
(1785878698.713005) can0 1CEBFFF1#03FF1EEE34FFFFFF
(1785878698.734951) can0 18FF14D1#
(1785878698.738964) can0 18F015F1#0000456D4A5443F4
(1785878698.762984) can0 18FEF1F8#FF0000FFFFFFFFFF
(1785878698.764174) can0 18F005F8#7DFFFF7DFFFFFFFF
(1785878698.810048) can0 1CECFFF1#20120003FF19F000
(1785878698.810991) can0 1CEBFFF1#0127100000000000
(1785878698.812015) can0 1CEBFFF1#0200000000000000
(1785878698.812987) can0 1CEBFFF1#03FF1EEE34FFFFFF
(1785878698.839067) can0 18F015F1#0000456C4A5543F4
(1785878698.863094) can0 18FEF1F8#FF0000FFFFFFFFFF
(1785878698.864233) can0 18F005F8#7DFFFF7DFFFFFFFF
(1785878698.910043) can0 1CECFFF1#20120003FF19F000
(1785878698.911005) can0 1CEBFFF1#0127100000000000
(1785878698.912016) can0 1CEBFFF1#0200000000000000
(1785878698.913010) can0 1CEBFFF1#03FF1DEF74FFFFFF
(1785878698.939006) can0 18F015F1#0000456C4A5443F3
(1785878698.950004) can0 18F017F1#E703F68B979B
(1785878698.950440) can0 18F018F1#E0F2EC749082
(1785878698.963162) can0 18FEF1F8#FF0000FFFFFFFFFF
(1785878698.964360) can0 18F005F8#7DFFFF7DFFFFFFFF
(1785878699.010409) can0 1CECFFF1#20120003FF19F000
(1785878699.011126) can0 1CEBFFF1#0127100000000000
(1785878699.012066) can0 1CEBFFF1#0200000000000000
(1785878699.013031) can0 1CEBFFF1#03FF1DEF74FFFFFF
(1785878699.039174) can0 18F015F1#0000456C4A5443F3
(1785878699.063000) can0 18FEF1F8#FF0000FFFFFFFFFF
(1785878699.064162) can0 18F005F8#7DFFFF7DFFFFFFFF
(1785878699.110067) can0 1CECFFF1#20120003FF19F000
(1785878699.110999) can0 1CEBFFF1#0127100000000000
(1785878699.112003) can0 1CEBFFF1#0200000000000000
(1785878699.112985) can0 1CEBFFF1#03FF1DEF74FFFFFF
(1785878699.139028) can0 18F015F1#0000456C4A5543F1
(1785878699.162968) can0 18FEF1F8#FF0000FFFFFFFFFF
(1785878699.164108) can0 18F005F8#7DFFFF7DFFFFFFFF
(1785878699.210027) can0 1CECFFF1#20120003FF19F000
(1785878699.211007) can0 1CEBFFF1#0127100000000000
(1785878699.212017) can0 1CEBFFF1#0200000000000000
(1785878699.213000) can0 1CEBFFF1#03FF1C2FB5FFFFFF
(1785878699.235001) can0 18FF14D1#
(1785878699.239021) can0 18F015F1#0000456C4A5443F1
(1785878699.262983) can0 18FEF1F8#FF0000FFFFFFFFFF
(1785878699.264181) can0 18F005F8#7DFFFF7DFFFFFFFF
(1785878699.310196) can0 1CECFFF1#20120003FF19F000
(1785878699.311138) can0 1CEBFFF1#0127100000000000
(1785878699.312073) can0 1CEBFFF1#0200000000000000
(1785878699.313098) can0 1CEBFFF1#03FF1C2FB5FFFFFF
(1785878699.339265) can0 18F015F1#0000456B4A5443EF
(1785878699.363661) can0 18FEF1F8#FF0000FFFFFFFFFF
(1785878699.364928) can0 18F005F8#7DFFFF7DFFFFFFFF
(1785878699.411250) can0 1CECFFF1#20120003FF19F000
(1785878699.412013) can0 1CEBFFF1#0127100000000000
(1785878699.413002) can0 1CEBFFF1#0200000000000000
(1785878699.413986) can0 1CEBFFF1#03FF1C2FB5FFFFFF
(1785878699.440054) can0 18F015F1#0000456B4A5543EF
(1785878699.462976) can0 18FEF1F8#FF0000FFFFFFFFFF
(1785878699.464177) can0 18F005F8#7DFFFF7DFFFFFFFF
(1785878699.511047) can0 1CECFFF1#20120003FF19F000
(1785878699.512006) can0 1CEBFFF1#0127100000000000
(1785878699.513011) can0 1CEBFFF1#0200000000000000
(1785878699.513993) can0 1CEBFFF1#03FF1C2FB5FFFFFF
(1785878699.540009) can0 18F015F1#0000456B4A5443EF
(1785878699.562968) can0 18FEF1F8#FF0000FFFFFFFFFF
(1785878699.564130) can0 18F005F8#7DFFFF7DFFFFFFFF
(1785878699.611468) can0 1CECFFF1#20120003FF19F000
(1785878699.612016) can0 1CEBFFF1#0127100000000000
(1785878699.613024) can0 1CEBFFF1#0200000000000000
(1785878699.614011) can0 1CEBFFF1#03FF1C2FB5FFFFFF
(1785878699.640099) can0 18F015F1#0000456B4A5443EF
(1785878699.663276) can0 18FEF1F8#FF0000FFFFFFFFFF
(1785878699.665038) can0 18F005F8#7DFFFF7DFFFFFFFF
(1785878699.711094) can0 1CECFFF1#20120003FF19F000
(1785878699.711996) can0 1CEBFFF1#0127100000000000
(1785878699.713006) can0 1CEBFFF1#0200000000000000
(1785878699.713991) can0 1CEBFFF1#03FF1BEDF4FFFFFF
(1785878699.734925) can0 18FF14D1#
(1785878699.739990) can0 18F015F1#0000456A4A5543ED
(1785878699.762963) can0 18FEF1F8#FF0000FFFFFFFFFF
(1785878699.764412) can0 18F005F8#7DFFFF7DFFFFFFFF
(1785878699.811068) can0 1CECFFF1#20120003FF19F000
(1785878699.812018) can0 1CEBFFF1#0127100000000000
(1785878699.813008) can0 1CEBFFF1#0200000000000000
(1785878699.813993) can0 1CEBFFF1#03FF1BEDF4FFFFFF
(1785878699.840022) can0 18F015F1#0000456A4A5443EE
(1785878699.863051) can0 18FEF1F8#FF0000FFFFFFFFFF
(1785878699.864238) can0 18F005F8#7DFFFF7DFFFFFFFF
(1785878699.911060) can0 1CECFFF1#20120003FF19F000
(1785878699.912021) can0 1CEBFFF1#0127100000000000
(1785878699.913036) can0 1CEBFFF1#0200000000000000
(1785878699.914008) can0 1CEBFFF1#03FF1BEDF4FFFFFF
(1785878699.940038) can0 18F015F1#0000456A4A5443ED
(1785878699.951027) can0 18F017F1#E672F446966F
(1785878699.951468) can0 18F018F1#E21AEB4191FA
(1785878699.963198) can0 18FEF1F8#FF0000FFFFFFFFFF
(1785878699.964394) can0 18F005F8#7DFFFF7DFFFFFFFF
(1785878700.011660) can0 1CECFFF1#20120003FF19F000
(1785878700.012744) can0 1CEBFFF1#0127100000000000
(1785878700.013382) can0 1CEBFFF1#0200000000000000
(1785878700.014141) can0 1CEBFFF1#03FF1BEDF4FFFFFF
(1785878700.040271) can0 18F015F1#0000456A4A5543EC
(1785878700.062989) can0 18FEF1F8#FF0000FFFFFFFFFF
(1785878700.064142) can0 18F005F8#7DFFFF7DFFFFFFFF
(1785878700.111057) can0 1CECFFF1#20120003FF19F000
(1785878700.111999) can0 1CEBFFF1#0127100000000000
(1785878700.113009) can0 1CEBFFF1#0200000000000000
(1785878700.113998) can0 1CEBFFF1#03FF1BEDF4FFFFFF
(1785878700.140046) can0 18F015F1#0000456A4A5443ED
(1785878700.163003) can0 18FEF1F8#FF0000FFFFFFFFFF
(1785878700.164208) can0 18F005F8#7DFFFF7DFFFFFFFF
(1785878700.212041) can0 1CECFFF1#20120003FF19F000
(1785878700.213017) can0 1CEBFFF1#0127100000000000
(1785878700.214027) can0 1CEBFFF1#0200000000000000
(1785878700.215013) can0 1CEBFFF1#03FF1BEDF4FFFFFF
(1785878700.234934) can0 18FF14D1#
(1785878700.241052) can0 18F015F1#0000456A4A5443EC
(1785878700.263021) can0 18FEF1F8#FF0000FFFFFFFFFF
(1785878700.264183) can0 18F005F8#7DFFFF7DFFFFFFFF
(1785878700.312205) can0 1CECFFF1#20120003FF19F000
(1785878700.313047) can0 1CEBFFF1#0127100000000000
(1785878700.314083) can0 1CEBFFF1#0200000000000000
(1785878700.315034) can0 1CEBFFF1#03FF1A2D35FFFFFF
(1785878700.341203) can0 18F015F1#000045694A5543EB
(1785878700.363253) can0 18FEF1F8#FF0000FFFFFFFFFF
(1785878700.364634) can0 18F005F8#7DFFFF7DFFFFFFFF
(1785878700.412254) can0 1CECFFF1#20120003FF19F000
(1785878700.413092) can0 1CEBFFF1#0127100000000000
(1785878700.414336) can0 1CEBFFF1#0200000000000000
(1785878700.414997) can0 1CEBFFF1#03FF1A2D35FFFFFF
(1785878700.441109) can0 18F015F1#000045694A5443EC
(1785878700.463024) can0 18FEF1F8#FF0000FFFFFFFFFF
(1785878700.464205) can0 18F005F8#7DFFFF7DFFFFFFFF
(1785878700.512065) can0 1CECFFF1#20120003FF19F000
(1785878700.513018) can0 1CEBFFF1#0127100000000000
(1785878700.514024) can0 1CEBFFF1#0200000000000000
(1785878700.515002) can0 1CEBFFF1#03FF1A2D35FFFFFF
(1785878700.541011) can0 18F015F1#000045694A5543EB
(1785878700.562966) can0 18FEF1F8#FF0000FFFFFFFFFF
(1785878700.564143) can0 18F005F8#7DFFFF7DFFFFFFFF
(1785878700.612114) can0 1CECFFF1#20120003FF19F000
(1785878700.613029) can0 1CEBFFF1#0127100000000000
(1785878700.614041) can0 1CEBFFF1#0200000000000000
(1785878700.615028) can0 1CEBFFF1#03FF1A2D35FFFFFF
(1785878700.641107) can0 18F015F1#000045694A5543EB
(1785878700.663168) can0 18FEF1F8#FF0000FFFFFFFFFF
(1785878700.664371) can0 18F005F8#7DFFFF7DFFFFFFFF
(1785878700.712131) can0 1CECFFF1#20120003FF19F000
(1785878700.713019) can0 1CEBFFF1#0127100000000000
(1785878700.714011) can0 1CEBFFF1#0200000000000000
(1785878700.714994) can0 1CEBFFF1#03FF1A2D35FFFFFF
(1785878700.734876) can0 18FF14D1#
(1785878700.741000) can0 18F015F1#000045694A5443EB
(1785878700.762971) can0 18FEF1F8#FF0000FFFFFFFFFF
(1785878700.764154) can0 18F005F8#7DFFFF7DFFFFFFFF
(1785878700.812081) can0 1CECFFF1#20120003FF19F000
(1785878700.813020) can0 1CEBFFF1#0127100000000000
(1785878700.814026) can0 1CEBFFF1#0200000000000000
(1785878700.815009) can0 1CEBFFF1#03FF1A2D35FFFFFF
(1785878700.841036) can0 18F015F1#000045694A5543EB
(1785878700.863291) can0 18FEF1F8#FF0000FFFFFFFFFF
(1785878700.864423) can0 18F005F8#7DFFFF7DFFFFFFFF
(1785878700.912052) can0 1CECFFF1#20120003FF19F000
(1785878700.913011) can0 1CEBFFF1#0127100000000000
(1785878700.914025) can0 1CEBFFF1#0200000000000000
(1785878700.915003) can0 1CEBFFF1#03FF192C75FFFFFF
(1785878700.942067) can0 18F015F1#000045684A5543EA
(1785878700.952010) can0 18F017F1#E672F446966F
(1785878700.952443) can0 18F018F1#E21AEB4191FA
(1785878700.963207) can0 18FEF1F8#FF0000FFFFFFFFFF
(1785878700.964422) can0 18F005F8#7DFFFF7DFFFFFFFF
(1785878701.013674) can0 1CECFFF1#20120003FF19F000
(1785878701.014288) can0 1CEBFFF1#0127100000000000
(1785878701.015052) can0 1CEBFFF1#0200000000000000
(1785878701.016139) can0 1CEBFFF1#03FF192C75FFFFFF
(1785878701.042115) can0 18F015F1#000045684A5543EA
(1785878701.062983) can0 18FEF1F8#FF0000FFFFFFFFFF
(1785878701.064160) can0 18F005F8#7DFFFF7DFFFFFFFF
(1785878701.113102) can0 1CECFFF1#20120003FF19F000
(1785878701.114023) can0 1CEBFFF1#0127100000000000
(1785878701.115031) can0 1CEBFFF1#0200000000000000
(1785878701.116033) can0 1CEBFFF1#03FF192C75FFFFFF
(1785878701.142054) can0 18F015F1#000045684A5543EA
(1785878701.163080) can0 18FEF1F8#FF0000FFFFFFFFFF
(1785878701.164225) can0 18F005F8#7DFFFF7DFFFFFFFF
(1785878701.213049) can0 1CECFFF1#20120003FF19F000
(1785878701.214045) can0 1CEBFFF1#0127100000000000
(1785878701.215030) can0 1CEBFFF1#0200000000000000
(1785878701.216062) can0 1CEBFFF1#03FF192C75FFFFFF
(1785878701.234942) can0 18FF14D1#
(1785878701.242072) can0 18F015F1#000045684A5643EA
(1785878701.262974) can0 18FEF1F8#FF0000FFFFFFFFFF
(1785878701.264152) can0 18F005F8#7DFFFF7DFFFFFFFF
(1785878701.313142) can0 1CECFFF1#20120003FF19F000
(1785878701.314041) can0 1CEBFFF1#0127100000000000
(1785878701.315046) can0 1CEBFFF1#0200000000000000
(1785878701.316044) can0 1CEBFFF1#03FF192C75FFFFFF
(1785878701.342501) can0 18F015F1#000045684A5543EA
(1785878701.365075) can0 18FEF1F8#FF0000FFFFFFFFFF
(1785878701.366477) can0 18F005F8#7DFFFF7DFFFFFFFF
(1785878701.413067) can0 1CECFFF1#20120003FF19F000
(1785878701.414011) can0 1CEBFFF1#0127100000000000
(1785878701.415053) can0 1CEBFFF1#0200000000000000
(1785878701.416051) can0 1CEBFFF1#03FF192C75FFFFFF
(1785878701.442075) can0 18F015F1#000045684A5543EA
(1785878701.463023) can0 18FEF1F8#FF0000FFFFFFFFFF
(1785878701.464209) can0 18F005F8#7DFFFF7DFFFFFFFF
(1785878701.513066) can0 1CECFFF1#20120003FF19F000
(1785878701.514026) can0 1CEBFFF1#0127100000000000
(1785878701.515033) can0 1CEBFFF1#0200000000000000
(1785878701.516027) can0 1CEBFFF1#03FF192C75FFFFFF
(1785878701.542027) can0 18F015F1#000045674A5643E9
(1785878701.562971) can0 18FEF1F8#FF0000FFFFFFFFFF
(1785878701.564163) can0 18F005F8#7DFFFF7DFFFFFFFF
(1785878701.613079) can0 1CECFFF1#20120003FF19F000
(1785878701.614027) can0 1CEBFFF1#0127100000000000
(1785878701.615032) can0 1CEBFFF1#0200000000000000
(1785878701.616051) can0 1CEBFFF1#03FF18ECB4FFFFFF
(1785878701.642147) can0 18F015F1#000045674A5543EA
(1785878701.663387) can0 18FEF1F8#FF0000FFFFFFFFFF
(1785878701.664719) can0 18F005F8#7DFFFF7DFFFFFFFF
(1785878701.713227) can0 1CECFFF1#20120003FF19F000
(1785878701.714029) can0 1CEBFFF1#0127100000000000
(1785878701.715023) can0 1CEBFFF1#0200000000000000
(1785878701.716074) can0 1CEBFFF1#03FF18ECB4FFFFFF
(1785878701.734866) can0 18FF14D1#
(1785878701.742008) can0 18F015F1#000045674A5543E9
(1785878701.762966) can0 18FEF1F8#FF0000FFFFFFFFFF
(1785878701.764161) can0 18F005F8#7DFFFF7DFFFFFFFF
(1785878701.814088) can0 1CECFFF1#20120003FF19F000
(1785878701.815024) can0 1CEBFFF1#0127100000000000
(1785878701.816051) can0 1CEBFFF1#0200000000000000
(1785878701.817008) can0 1CEBFFF1#03FF18ECB4FFFFFF
(1785878701.843016) can0 18F015F1#000045674A5643E9
(1785878701.863011) can0 18FEF1F8#FF0000FFFFFFFFFF
(1785878701.864188) can0 18F005F8#7DFFFF7DFFFFFFFF
(1785878701.914112) can0 1CECFFF1#20120003FF19F000
(1785878701.915036) can0 1CEBFFF1#0127100000000000
(1785878701.916055) can0 1CEBFFF1#0200000000000000
(1785878701.917077) can0 1CEBFFF1#03FF18ECB4FFFFFF
(1785878701.943030) can0 18F015F1#000045674A5543E9
(1785878701.954394) can0 18F017F1#E68CF49D96E6
(1785878701.954658) can0 18F018F1#E269EA789288
(1785878701.963117) can0 18FEF1F8#FF0000FFFFFFFFFF
(1785878701.964278) can0 18F005F8#7DFFFF7DFFFFFFFF
(1785878702.014218) can0 1CECFFF1#20120003FF19F000
(1785878702.015171) can0 1CEBFFF1#0127100000000000
(1785878702.016505) can0 1CEBFFF1#0200000000000000
(1785878702.017059) can0 1CEBFFF1#03FF18ECB4FFFFFF
(1785878702.043742) can0 18F015F1#000045674A5543E9
(1785878702.064187) can0 18FEF1F8#FF0000FFFFFFFFFF
(1785878702.065595) can0 18F005F8#7DFFFF7DFFFFFFFF
(1785878702.114094) can0 1CECFFF1#20120003FF19F000
(1785878702.115014) can0 1CEBFFF1#0127100000000000
(1785878702.116063) can0 1CEBFFF1#0200000000000000
(1785878702.117006) can0 1CEBFFF1#03FF18ECB4FFFFFF
(1785878702.143055) can0 18F015F1#000045664A5643E9
(1785878702.162975) can0 18FEF1F8#FF0000FFFFFFFFFF
(1785878702.164153) can0 18F005F8#7DFFFF7DFFFFFFFF
(1785878702.214062) can0 1CECFFF1#20120003FF19F000
(1785878702.215033) can0 1CEBFFF1#0127100000000000
(1785878702.216065) can0 1CEBFFF1#0200000000000000
(1785878702.217027) can0 1CEBFFF1#03FF17E8F4FFFFFF
(1785878702.234868) can0 18FF14D1#
(1785878702.243044) can0 18F015F1#000045674A5543E9
(1785878702.262985) can0 18FEF1F8#FF0000FFFFFFFFFF
(1785878702.264186) can0 18F005F8#7DFFFF7DFFFFFFFF
(1785878702.314164) can0 1CECFFF1#20120003FF19F000
(1785878702.315043) can0 1CEBFFF1#0127100000000000
(1785878702.316096) can0 1CEBFFF1#0200000000000000
(1785878702.317048) can0 1CEBFFF1#03FF17E8F4FFFFFF
(1785878702.343154) can0 18F015F1#000045664A5543E9
(1785878702.364840) can0 18FEF1F8#FF0000FFFFFFFFFF
(1785878702.366327) can0 18F005F8#7DFFFF7DFFFFFFFF
(1785878702.414071) can0 1CECFFF1#20120003FF19F000
(1785878702.415015) can0 1CEBFFF1#0127100000000000
(1785878702.416074) can0 1CEBFFF1#0200000000000000
(1785878702.417035) can0 1CEBFFF1#03FF17E8F4FFFFFF
(1785878702.443157) can0 18F015F1#000045664A5643E9
(1785878702.463046) can0 18FEF1F8#FF0000FFFFFFFFFF
(1785878702.464234) can0 18F005F8#7DFFFF7DFFFFFFFF
(1785878702.514087) can0 1CECFFF1#20120003FF19F000
(1785878702.515025) can0 1CEBFFF1#0127100000000000
(1785878702.516062) can0 1CEBFFF1#0200000000000000
(1785878702.517022) can0 1CEBFFF1#03FF17E8F4FFFFFF
(1785878702.543088) can0 18F015F1#000045664A5543E9
(1785878702.565968) can0 18FEF1F8#FF0000FFFFFFFFFF
(1785878702.567090) can0 18F005F8#7DFFFF7DFFFFFFFF
(1785878702.615101) can0 1CECFFF1#20120003FF19F000
(1785878702.616066) can0 1CEBFFF1#0127100000000000
(1785878702.617042) can0 1CEBFFF1#0200000000000000
(1785878702.618025) can0 1CEBFFF1#03FF17E8F4FFFFFF
(1785878702.644100) can0 18F015F1#000045664A5543E9
(1785878702.663200) can0 18FEF1F8#FF0000FFFFFFFFFF
(1785878702.664393) can0 18F005F8#7DFFFF7DFFFFFFFF
(1785878702.715373) can0 1CECFFF1#20120003FF19F000
(1785878702.716140) can0 1CEBFFF1#0127100000000000
(1785878702.717065) can0 1CEBFFF1#0200000000000000
(1785878702.718099) can0 1CEBFFF1#03FF17E8F4FFFFFF
(1785878702.734995) can0 18FF14D1#
(1785878702.744169) can0 18F015F1#000045664A5643E9
(1785878702.762987) can0 18FEF1F8#FF0000FFFFFFFFFF
(1785878702.764126) can0 18F005F8#7DFFFF7DFFFFFFFF
(1785878702.815071) can0 1CECFFF1#20120003FF19F000
(1785878702.816058) can0 1CEBFFF1#0127100000000000
(1785878702.817043) can0 1CEBFFF1#0200000000000000
(1785878702.818185) can0 1CEBFFF1#03FF17E8F4FFFFFF
(1785878702.844035) can0 18F015F1#000045664A5543E9
(1785878702.862998) can0 18FEF1F8#FF0000FFFFFFFFFF
(1785878702.864148) can0 18F005F8#7DFFFF7DFFFFFFFF
(1785878702.915076) can0 1CECFFF1#20120003FF19F000
(1785878702.916064) can0 1CEBFFF1#0127100000000000
(1785878702.917058) can0 1CEBFFF1#0200000000000000
(1785878702.918040) can0 1CEBFFF1#03FF17E8F4FFFFFF
(1785878702.944029) can0 18F015F1#000045664A5543E8
(1785878702.954490) can0 18F017F1#E68CF49D96E6
(1785878702.954773) can0 18F018F1#E269EA789288
(1785878702.962987) can0 18FEF1F8#FF0000FFFFFFFFFF
(1785878702.964156) can0 18F005F8#7DFFFF7DFFFFFFFF
(1785878703.015136) can0 1CECFFF1#20120003FF19F000
(1785878703.016373) can0 1CEBFFF1#0127100000000000
(1785878703.017132) can0 1CEBFFF1#0200000000000000
(1785878703.018133) can0 1CEBFFF1#03FF17E8F4FFFFFF
(1785878703.044252) can0 18F015F1#000045654A5643E8
(1785878703.062986) can0 18FEF1F8#FF0000FFFFFFFFFF
(1785878703.064153) can0 18F005F8#7DFFFF7DFFFFFFFF
(1785878703.115121) can0 1CECFFF1#20120003FF19F000
(1785878703.116084) can0 1CEBFFF1#0127100000000000
(1785878703.117051) can0 1CEBFFF1#0200000000000000
(1785878703.118036) can0 1CEBFFF1#03FF162835FFFFFF
(1785878703.144041) can0 18F015F1#000045664A5543E8
(1785878703.162970) can0 18FEF1F8#FF0000FFFFFFFFFF
(1785878703.164126) can0 18F005F8#7DFFFF7DFFFFFFFF
(1785878703.215067) can0 1CECFFF1#20120003FF19F000
(1785878703.216073) can0 1CEBFFF1#0127100000000000
(1785878703.217042) can0 1CEBFFF1#0200000000000000
(1785878703.218030) can0 1CEBFFF1#03FF17E8F4FFFFFF
(1785878703.234876) can0 18FF14D1#
(1785878703.244047) can0 18F015F1#000045654A5643E9
(1785878703.262973) can0 18FEF1F8#FF0000FFFFFFFFFF
(1785878703.264163) can0 18F005F8#7DFFFF7DFFFFFFFF
(1785878703.315164) can0 1CECFFF1#20120003FF19F000
(1785878703.316074) can0 1CEBFFF1#0127100000000000
(1785878703.317056) can0 1CEBFFF1#0200000000000000
(1785878703.318051) can0 1CEBFFF1#03FF162835FFFFFF
(1785878703.344322) can0 18F015F1#000045654A5643E9
(1785878703.363211) can0 18FEF1F8#FF0000FFFFFFFFFF
(1785878703.364491) can0 18F005F8#7DFFFF7DFFFFFFFF
(1785878703.416158) can0 1CECFFF1#20120003FF19F000
(1785878703.417046) can0 1CEBFFF1#0127100000000000
(1785878703.418039) can0 1CEBFFF1#0200000000000000
(1785878703.419065) can0 1CEBFFF1#03FF162835FFFFFF
(1785878703.445040) can0 18F015F1#000045654A5643E9
(1785878703.463022) can0 18FEF1F8#FF0000FFFFFFFFFF
(1785878703.464193) can0 18F005F8#7DFFFF7DFFFFFFFF
(1785878703.516100) can0 1CECFFF1#20120003FF19F000
(1785878703.517052) can0 1CEBFFF1#0127100000000000
(1785878703.518059) can0 1CEBFFF1#0200000000000000
(1785878703.519043) can0 1CEBFFF1#03FF162835FFFFFF
(1785878703.545045) can0 18F015F1#000045654A5643E8
(1785878703.562984) can0 18FEF1F8#FF0000FFFFFFFFFF
(1785878703.564173) can0 18F005F8#7DFFFF7DFFFFFFFF
(1785878703.616127) can0 1CECFFF1#20120003FF19F000
(1785878703.617050) can0 1CEBFFF1#0127100000000000
(1785878703.618067) can0 1CEBFFF1#0200000000000000
(1785878703.619048) can0 1CEBFFF1#03FF162835FFFFFF
(1785878703.645160) can0 18F015F1#000045654A5743E8
(1785878703.663618) can0 18FEF1F8#FF0000FFFFFFFFFF
(1785878703.664868) can0 18F005F8#7DFFFF7DFFFFFFFF
(1785878703.716216) can0 1CECFFF1#20120003FF19F000
(1785878703.717136) can0 1CEBFFF1#0127100000000000
(1785878703.718107) can0 1CEBFFF1#0200000000000000
(1785878703.719060) can0 1CEBFFF1#03FF162835FFFFFF
(1785878703.734804) can0 18FF14D1#
(1785878703.745013) can0 18F015F1#000045654A5543E8
(1785878703.762936) can0 18FEF1F8#FF0000FFFFFFFFFF
(1785878703.764080) can0 18F005F8#7DFFFF7DFFFFFFFF
(1785878703.816125) can0 1CECFFF1#20120003FF19F000
(1785878703.817034) can0 1CEBFFF1#0127100000000000
(1785878703.818055) can0 1CEBFFF1#0200000000000000
(1785878703.819035) can0 1CEBFFF1#03FF162835FFFFFF
(1785878703.845049) can0 18F015F1#000045654A5643E8
(1785878703.863249) can0 18FEF1F8#FF0000FFFFFFFFFF
(1785878703.864383) can0 18F005F8#7DFFFF7DFFFFFFFF
(1785878703.916127) can0 1CECFFF1#20120003FF19F000
(1785878703.917038) can0 1CEBFFF1#0127100000000000
(1785878703.918058) can0 1CEBFFF1#0200000000000000
(1785878703.919033) can0 1CEBFFF1#03FF162835FFFFFF
(1785878703.945058) can0 18F015F1#000045654A5643E8
(1785878703.955970) can0 18F017F1#E63CF519987D
(1785878703.956396) can0 18F018F1#E26DEB1291A6
(1785878703.964609) can0 18FEF1F8#FF0000FFFFFFFFFF
(1785878703.965783) can0 18F005F8#7DFFFF7DFFFFFFFF
(1785878704.016300) can0 1CECFFF1#20120003FF19F000
(1785878704.017061) can0 1CEBFFF1#0127100000000000
(1785878704.018101) can0 1CEBFFF1#0200000000000000
(1785878704.019341) can0 1CEBFFF1#03FF162835FFFFFF
(1785878704.045345) can0 18F015F1#000045654A5643E9
(1785878704.063416) can0 18FEF1F8#FF0000FFFFFFFFFF
(1785878704.064860) can0 18F005F8#7DFFFF7DFFFFFFFF
(1785878704.116780) can0 1CECFFF1#20120003FF19F000
(1785878704.117330) can0 1CEBFFF1#0127100000000000
(1785878704.118057) can0 1CEBFFF1#0200000000000000
(1785878704.119036) can0 1CEBFFF1#03FF152975FFFFFF
(1785878704.145068) can0 18F015F1#000045644A5643E8
(1785878704.163018) can0 18FEF1F8#FF0000FFFFFFFFFF
(1785878704.164155) can0 18F005F8#7DFFFF7DFFFFFFFF
(1785878704.217078) can0 1CECFFF1#20120003FF19F000
(1785878704.218040) can0 1CEBFFF1#0127100000000000
(1785878704.219046) can0 1CEBFFF1#0200000000000000
(1785878704.220034) can0 1CEBFFF1#03FF152975FFFFFF
(1785878704.234816) can0 18FF14D1#
(1785878704.246103) can0 18F015F1#000045644A5643E8
(1785878704.262957) can0 18FEF1F8#FF0000FFFFFFFFFF
(1785878704.264137) can0 18F005F8#7DFFFF7DFFFFFFFF
(1785878704.317189) can0 1CECFFF1#20120003FF19F000
(1785878704.318050) can0 1CEBFFF1#0127100000000000
(1785878704.319059) can0 1CEBFFF1#0200000000000000
(1785878704.320046) can0 1CEBFFF1#03FF152975FFFFFF
(1785878704.346211) can0 18F015F1#000045644A5543E8
(1785878704.364035) can0 18FEF1F8#FF0000FFFFFFFFFF
(1785878704.366466) can0 18F005F8#7DFFFF7DFFFFFFFF
(1785878704.417245) can0 1CECFFF1#20120003FF19F000
(1785878704.418063) can0 1CEBFFF1#0127100000000000
(1785878704.419045) can0 1CEBFFF1#0200000000000000
(1785878704.420038) can0 1CEBFFF1#03FF152975FFFFFF
(1785878704.446065) can0 18F015F1#000045644A5643E8
(1785878704.463027) can0 18FEF1F8#FF0000FFFFFFFFFF
(1785878704.464207) can0 18F005F8#7DFFFF7DFFFFFFFF
(1785878704.517098) can0 1CECFFF1#20120003FF19F000
(1785878704.518048) can0 1CEBFFF1#0127100000000000
(1785878704.519057) can0 1CEBFFF1#0200000000000000
(1785878704.520058) can0 1CEBFFF1#03FF152975FFFFFF
(1785878704.546076) can0 18F015F1#000045644A5743E8
(1785878704.562971) can0 18FEF1F8#FF0000FFFFFFFFFF
(1785878704.564169) can0 18F005F8#7DFFFF7DFFFFFFFF
(1785878704.617102) can0 1CECFFF1#20120003FF19F000
(1785878704.618043) can0 1CEBFFF1#0127100000000000
(1785878704.619051) can0 1CEBFFF1#0200000000000000
(1785878704.620035) can0 1CEBFFF1#03FF152975FFFFFF
(1785878704.646307) can0 18F015F1#000045644A5643E9
(1785878704.663247) can0 18FEF1F8#FF0000FFFFFFFFFF
(1785878704.664452) can0 18F005F8#7DFFFF7DFFFFFFFF
(1785878704.717336) can0 1CECFFF1#20120003FF19F000
(1785878704.718085) can0 1CEBFFF1#0127100000000000
(1785878704.719068) can0 1CEBFFF1#0200000000000000
(1785878704.720042) can0 1CEBFFF1#03FF152975FFFFFF
(1785878704.734807) can0 18FF14D1#
(1785878704.746076) can0 18F015F1#000045644A5643E8
(1785878704.762976) can0 18FEF1F8#FF0000FFFFFFFFFF
(1785878704.764115) can0 18F005F8#7DFFFF7DFFFFFFFF
(1785878704.817130) can0 1CECFFF1#20120003FF19F000
(1785878704.818048) can0 1CEBFFF1#0127100000000000
(1785878704.819070) can0 1CEBFFF1#0200000000000000
(1785878704.820053) can0 1CEBFFF1#03FF152975FFFFFF
(1785878704.846148) can0 18F015F1#000045644A5743E8
(1785878704.863052) can0 18FEF1F8#FF0000FFFFFFFFFF
(1785878704.864171) can0 18F005F8#7DFFFF7DFFFFFFFF
(1785878704.917110) can0 1CECFFF1#20120003FF19F000
(1785878704.918046) can0 1CEBFFF1#0127100000000000
(1785878704.919051) can0 1CEBFFF1#0200000000000000
(1785878704.920029) can0 1CEBFFF1#03FF14E9B4FFFFFF
(1785878704.946055) can0 18F015F1#000045634A5643E8
(1785878704.956948) can0 18F017F1#E63CF519987D
