(1786395915.247418) can1 18F00503#7C00007C204E4E32
(1786395915.314883) can1 18F00503#7E00007E204E4E32
(1786395920.982052) can1 18FEF111#FF8000CCFFFF1FFF
(1786395921.074971) can1 18FEF111#FF2401CCFFFF1FFF
(1786395921.280055) can1 18FEF111#FF6C01CCFFFF1FFF
(1786395921.345812) can1 18FEF111#FF6401CCFFFF1FFF
(1786395921.461024) can1 18FEF111#FF5401CCFFFF1FFF
(1786395921.506636) can1 18FEF111#FF4401CCFFFF1FFF
(1786395921.553329) can1 18FEF111#FF3001CCFFFF1FFF
(1786395921.634813) can1 18FEF111#FF1C01CCFFFF1FFF
(1786395921.690912) can1 18FEF111#FF5001CCFFFF1FFF
(1786395921.735667) can1 18FEF111#FF5C01CCFFFF1FFF
(1786395921.870102) can1 18FEF111#FF6001CCFFFF1FFF
(1786395921.945643) can1 18FEF111#FF6801CCFFFF1FFF
(1786395921.989514) can1 18FEF111#FF6401CCFFFF1FFF
(1786395922.047772) can1 18FEF111#FF0001CCFFFF1FFF
(1786395922.093239) can1 18FEF111#FFF800CCFFFF1FFF
(1786395922.186549) can1 18FEF111#FFF000CCFFFF1FFF
(1786395922.347984) can1 18FEF111#FFDC00CCFFFF1FFF
(1786395922.411436) can1 18FEF111#FF0001CCFFFF1FFF
(1786395922.621527) can1 18FEF111#FF1801CCFFFF1FFF
(1786395922.668287) can1 18FEF111#FF2001CCFFFF1FFF
(1786395922.774094) can1 18FEF111#FFB401CCFFFF1FFF
(1786395922.820231) can1 18FEF111#FFCC01CCFFFF1FFF
(1786395922.936250) can1 18FEF111#FFE401CCFFFF1FFF
(1786395923.026577) can1 18FEF111#FFF001CCFFFF1FFF
(1786395923.057641) can1 18FEF111#FF1802CCFFFF1FFF
(1786395923.150514) can1 18FEF111#FF3803CCFFFF1FFF
(1786395923.193551) can1 18FEF111#FF3C03CCFFFF1FFF
(1786395923.238193) can1 18FEF111#FF4803CCFFFF1FFF
(1786395923.325793) can1 18FEF111#FF5403CCFFFF1FFF
(1786395923.374198) can1 18FEF111#FF5C03CCFFFF1FFF
(1786395923.425564) can1 18FEF111#FF6003CCFFFF1FFF
(1786395923.520197) can1 18FEF111#FF4405CCFFFF1FFF
(1786395923.607759) can1 18FEF111#FF4805CCFFFF1FFF
(1786395923.654999) can1 18FEF111#FF5405CCFFFF1FFF
(1786395923.699338) can1 18FEF111#FF6005CCFFFF1FFF
(1786395923.744290) can1 18FEF111#FF6805CCFFFF1FFF
(1786395923.852408) can1 18FEF111#FF0C07CCFFFF1FFF
(1786395923.926757) can1 18FEF111#FF2C07CCFFFF1FFF
(1786395923.973359) can1 18FEF111#FF3407CCFFFF1FFF
(1786395924.018727) can1 18FEF111#FF4807CCFFFF1FFF
(1786395924.062648) can1 18FEF111#FF3007CCFFFF1FFF
(1786395924.108215) can1 18FEF111#FF2807CCFFFF1FFF
(1786395924.198589) can1 18FEF111#FF6C09CCFFFF1FFF
(1786395924.290478) can1 18FEF111#FF9409CCFFFF1FFF
(1786395924.379987) can1 18FEF111#FFA809CCFFFF1FFF
(1786395924.469293) can1 18FEF111#FFD409CCFFFF1FFF
(1786395924.560687) can1 18FEF111#FFC80BCCFFFF1FFF
(1786395924.679879) can1 18FEF111#FFF00BCCFFFF1FFF
(1786395924.722878) can1 18FEF111#FFF80BCCFFFF1FFF
(1786395924.768025) can1 18FEF111#FF280CCCFFFF1FFF
(1786395924.862962) can1 18FEF111#FF580CCCFFFF1FFF
(1786395924.923016) can1 18FEF111#FF340ECCFFFF1FFF
(1786395924.966684) can1 18FEF111#FF400ECCFFFF1FFF
(1786395925.040209) can1 18FEF111#FF3C0ECCFFFF1FFF
(1786395925.084231) can1 18FEF111#FF400ECCFFFF1FFF
(1786395925.130051) can1 18FEF111#FF3C0ECCFFFF1FFF
(1786395925.177360) can1 18FEF111#FF440ECCFFFF1FFF
(1786395925.223069) can1 18FEF111#FF4C0ECCFFFF1FFF
(1786395925.285710) can1 18FEF111#FFBC10CCFFFF1FFF
(1786395925.329552) can1 18FEF111#FFDC10CCFFFF1FFF
(1786395925.400122) can1 18FEF111#FFF010CCFFFF1FFF
(1786395925.443829) can1 18FEF111#FF0C11CCFFFF1FFF
(1786395925.492091) can1 18FEF111#FF1411CCFFFF1FFF
(1786395925.538082) can1 18FEF111#FF2811CCFFFF1FFF
(1786395925.644195) can1 18FEF111#FF4413CCFFFF1FFF
(1786395925.717692) can1 18FEF111#FF5413CCFFFF1FFF
(1786395925.764666) can1 18FEF111#FF6813CCFFFF1FFF
(1786395925.809538) can1 18FEF111#FF8413CCFFFF1FFF
(1786395925.854983) can1 18FEF111#FFA813CCFFFF1FFF
(1786395925.902168) can1 18FEF111#FFD013CCFFFF1FFF
(1786395925.976288) can1 18FEF111#FF2C15CCFFFF1FFF
(1786395926.020414) can1 18FEF111#FF4015CCFFFF1FFF
(1786395926.065699) can1 18FEF111#FF5815CCFFFF1FFF
(1786395926.108115) can1 18FEF111#FF8815CCFFFF1FFF
(1786395926.153779) can1 18FEF111#FF6815CCFFFF1FFF
(1786395926.200670) can1 18FEF111#FF9015CCFFFF1FFF
(1786395926.245875) can1 18FEF111#FF8C15CCFFFF1FFF
(1786395926.343846) can1 18FEF111#FFA014CCFFFF1FFF
(1786395926.390702) can1 18FEF111#FF8C14CCFFFF1FFF
(1786395926.463904) can1 18FEF111#FFB414CCFFFF1FFF
(1786395926.509765) can1 18FEF111#FF8014CCFFFF1FFF
(1786395926.555313) can1 18FEF111#FFA014CCFFFF1FFF
(1786395926.602332) can1 18FEF111#FFC414CCFFFF1FFF
(1786395926.690303) can1 18FEF111#FF0C14CCFFFF1FFF
(1786395926.735038) can1 18FEF111#FF0814CCFFFF1FFF
(1786395926.823663) can1 18FEF111#FF0414CCFFFF1FFF
(1786395926.866258) can1 18FEF111#FF2C14CCFFFF1FFF
(1786395926.913461) can1 18FEF111#FF1414CCFFFF1FFF
(1786395927.050198) can1 18FEF111#FFA013CCFFFF1FFF
(1786395927.098135) can1 18FEF111#FFB413CCFFFF1FFF
(1786395927.144844) can1 18FEF111#FF9813CCFFFF1FFF
(1786395927.189578) can1 18FEF111#FFB013CCFFFF1FFF
(1786395927.227762) can1 18FEF111#FFBC13CCFFFF1FFF
(1786395927.272746) can1 18FEF111#FFE013CCFFFF1FFF
(1786395927.318530) can1 18FEF111#FFEC13CCFFFF1FFF
(1786395927.408728) can1 18FEF111#FF6415CCFFFF1FFF
(1786395927.455439) can1 18FEF111#FF9415CCFFFF1FFF
(1786395927.498973) can1 18FEF111#FFA415CCFFFF1FFF
(1786395927.544616) can1 18FEF111#FFA815CCFFFF1FFF
(1786395927.587498) can1 18FEF111#FFB415CCFFFF1FFF
(1786395927.633446) can1 18FEF111#FFC815CCFFFF1FFF
(1786395927.679590) can1 18FEF111#FF0016CCFFFF1FFF
(1786395927.836234) can1 18FEF111#FF8C17CCFFFF1FFF
(1786395927.881936) can1 18FEF111#FFA417CCFFFF1FFF
(1786395927.925222) can1 18FEF111#FF8C17CCFFFF1FFF
(1786395927.970092) can1 18FEF111#FFC017CCFFFF1FFF
(1786395928.059445) can1 18FEF111#FFDC17CCFFFF1FFF
(1786395928.152688) can1 18FEF111#FF7017CCFFFF1FFF
(1786395928.196162) can1 18FEF111#FF8017CCFFFF1FFF
(1786395928.241070) can1 18FEF111#FF6817CCFFFF1FFF
(1786395928.284510) can1 18FEF111#FF8C17CCFFFF1FFF
(1786395928.330681) can1 18FEF111#FF6417CCFFFF1FFF
(1786395928.376419) can1 18FEF111#FF6C17CCFFFF1FFF
(1786395928.476114) can1 18FEF111#FF6415CCFFFF1FFF
(1786395928.522959) can1 18FEF111#FF7C15CCFFFF1FFF
(1786395928.562825) can1 18FEF111#FF7815CCFFFF1FFF
(1786395928.607878) can1 18FEF111#FF6C15CCFFFF1FFF
(1786395928.649597) can1 18FEF111#FF6815CCFFFF1FFF
(1786395928.725484) can1 18FEF111#FF6415CCFFFF1FFF
(1786395928.768698) can1 18FEF111#FF7415CCFFFF1FFF
(1786395928.833002) can1 18FEF111#FFD014CCFFFF1FFF
(1786395928.966486) can1 18FEF111#FFC414CCFFFF1FFF
(1786395929.041645) can1 18FEF111#FFBC14CCFFFF1FFF
(1786395929.175539) can1 18FEF111#FF8814CCFFFF1FFF
(1786395929.219347) can1 18FEF111#FF7C14CCFFFF1FFF
(1786395929.352572) can1 18FEF111#FF8014CCFFFF1FFF
(1786395929.396024) can1 18FEF111#FF7414CCFFFF1FFF
(1786395929.441536) can1 18FEF111#FF9014CCFFFF1FFF
(1786395929.490298) can1 18FEF111#FF9C14CCFFFF1FFF
(1786395929.553953) can1 18FEF111#FF2815CCFFFF1FFF
(1786395929.599698) can1 18FEF111#FF3415CCFFFF1FFF
(1786395929.671561) can1 18FEF111#FF4415CCFFFF1FFF
(1786395929.716949) can1 18FEF111#FF4815CCFFFF1FFF
(1786395929.803845) can1 18FEF111#FF5C15CCFFFF1FFF
(1786395929.840428) can1 18FEF111#FF6415CCFFFF1FFF
(1786395929.901843) can1 18FEF111#FFE015CCFFFF1FFF
(1786395929.945959) can1 18FEF111#FFE815CCFFFF1FFF
(1786395930.034404) can1 18FEF111#FFE415CCFFFF1FFF
(1786395930.122882) can1 18FEF111#FFEC15CCFFFF1FFF
(1786395930.190777) can1 18FEF111#FFF815CCFFFF1FFF
(1786395930.246345) can1 18FEF111#FF9816CCFFFF1FFF
(1786395930.292237) can1 18FEF111#FF7816CCFFFF1FFF
(1786395930.337748) can1 18FEF111#FF9016CCFFFF1FFF
(1786395930.384659) can1 18FEF111#FF9416CCFFFF1FFF
(1786395930.428102) can1 18FEF111#FFB816CCFFFF1FFF
(1786395930.472883) can1 18FEF111#FF9816CCFFFF1FFF
(1786395930.597126) can1 18FEF111#FFF816CCFFFF1FFF
(1786395930.689299) can1 18FEF111#FF0417CCFFFF1FFF
(1786395930.732600) can1 18FEF111#FFDC16CCFFFF1FFF
(1786395930.775682) can1 18FEF111#FFF416CCFFFF1FFF
(1786395930.863595) can1 18FEF111#FFF816CCFFFF1FFF
(1786395930.948231) can1 18FEF111#FF3017CCFFFF1FFF
(1786395930.993657) can1 18FEF111#FF0C17CCFFFF1FFF
(1786395931.039515) can1 18FEF111#FF1017CCFFFF1FFF
(1786395931.084349) can1 18FEF111#FF2C17CCFFFF1FFF
(1786395931.200246) can1 18FEF111#FF1C17CCFFFF1FFF
(1786395931.304217) can1 18FEF111#FF1017CCFFFF1FFF
(1786395931.346495) can1 18FEF111#FF2417CCFFFF1FFF
(1786395931.393282) can1 18FEF111#FF0C17CCFFFF1FFF
(1786395931.436215) can1 18FEF111#FF0017CCFFFF1FFF
(1786395931.479171) can1 18FEF111#FF1017CCFFFF1FFF
(1786395931.523161) can1 18FEF111#FF2417CCFFFF1FFF
(1786395931.567419) can1 18FEF111#FF0417CCFFFF1FFF
(1786395931.653234) can1 18FEF111#FF2817CCFFFF1FFF
(1786395931.766630) can1 18FEF111#FF3017CCFFFF1FFF
(1786395931.811000) can1 18FEF111#FF2017CCFFFF1FFF
(1786395931.854183) can1 18FEF111#FF3417CCFFFF1FFF
(1786395931.898987) can1 18FEF111#FF2C17CCFFFF1FFF
(1786395931.947929) can1 18FEF111#FF3017CCFFFF1FFF
(1786395932.037266) can1 18FEF111#FF9017CCFFFF1FFF
(1786395932.082477) can1 18FEF111#FF8817CCFFFF1FFF
(1786395932.126294) can1 18FEF111#FF9C17CCFFFF1FFF
(1786395932.170587) can1 18FEF111#FF7C17CCFFFF1FFF
(1786395932.214422) can1 18FEF111#FF8417CCFFFF1FFF
(1786395932.259298) can1 18FEF111#FF8817CCFFFF1FFF
(1786395932.388403) can1 18FEF111#FF6817CCFFFF1FFF
(1786395932.478422) can1 18FEF111#FF5017CCFFFF1FFF
(1786395932.522212) can1 18FEF111#FF5817CCFFFF1FFF
(1786395932.567221) can1 18FEF111#FF5017CCFFFF1FFF
(1786395932.610537) can1 18FEF111#FF5417CCFFFF1FFF
(1786395932.705488) can1 18FEF111#FF4817CCFFFF1FFF
(1786395932.785329) can1 18FEF111#FF5C17CCFFFF1FFF
(1786395932.872434) can1 18FEF111#FF4817CCFFFF1FFF
(1786395932.960331) can1 18FEF111#FF4417CCFFFF1FFF
(1786395933.010514) can1 18FEF111#FF3C17CCFFFF1FFF
(1786395933.063989) can1 18FEF111#FF2C17CCFFFF1FFF
(1786395933.108929) can1 18FEF111#FF2817CCFFFF1FFF
(1786395933.152538) can1 18FEF111#FF0C17CCFFFF1FFF
(1786395933.230852) can1 18FEF111#FF1417CCFFFF1FFF
(1786395933.276012) can1 18FEF111#FF0017CCFFFF1FFF
(1786395933.320297) can1 18FEF111#FF2017CCFFFF1FFF
(1786395933.369346) can1 18FEF111#FFF416CCFFFF1FFF
(1786395933.424010) can1 18FEF111#FF2C17CCFFFF1FFF
(1786395933.503319) can1 18FEF111#FF3017CCFFFF1FFF
(1786395933.547736) can1 18FEF111#FF2817CCFFFF1FFF
(1786395933.592095) can1 18FEF111#FF3017CCFFFF1FFF
(1786395933.637340) can1 18FEF111#FF1017CCFFFF1FFF
(1786395933.681876) can1 18FEF111#FF2817CCFFFF1FFF
(1786395933.943444) can1 18FEF111#FF2C17CCFFFF1FFF
(1786395933.989188) can1 18FEF111#FF0817CCFFFF1FFF
(1786395934.032850) can1 18FEF111#FF2017CCFFFF1FFF
(1786395934.168614) can1 18FEF111#FFF016CCFFFF1FFF
(1786395934.212289) can1 18FEF111#FF0817CCFFFF1FFF
(1786395934.257478) can1 18FEF111#FF0017CCFFFF1FFF
(1786395934.337224) can1 18FEF111#FF2417CCFFFF1FFF
(1786395934.381987) can1 18FEF111#FFFC16CCFFFF1FFF
(1786395934.425042) can1 18FEF111#FF0017CCFFFF1FFF
(1786395934.475338) can1 18FEF111#FF2817CCFFFF1FFF
(1786395934.520318) can1 18FEF111#FF0817CCFFFF1FFF
(1786395934.562947) can1 18FEF111#FF2C17CCFFFF1FFF
(1786395934.606702) can1 18FEF111#FF0C17CCFFFF1FFF
(1786395934.696453) can1 18FEF111#FF1017CCFFFF1FFF
(1786395934.779799) can1 18FEF111#FF2C17CCFFFF1FFF
(1786395934.834437) can1 18FEF111#FFF416CCFFFF1FFF
(1786395934.878214) can1 18FEF111#FF0417CCFFFF1FFF
(1786395934.922902) can1 18FEF111#FF2417CCFFFF1FFF
(1786395934.967987) can1 18FEF111#FF0817CCFFFF1FFF
(1786395935.090266) can1 18FEF111#FF0C17CCFFFF1FFF
(1786395935.139354) can1 18FEF111#FF2C17CCFFFF1FFF
(1786395935.197194) can1 18FEF111#FFF816CCFFFF1FFF
(1786395935.241364) can1 18FEF111#FF1017CCFFFF1FFF
(1786395935.320447) can1 18FEF111#FFF416CCFFFF1FFF
(1786395935.363821) can1 18FEF111#FF1817CCFFFF1FFF
(1786395935.408312) can1 18FEF111#FFF816CCFFFF1FFF
(1786395935.451729) can1 18FEF111#FF1817CCFFFF1FFF
(1786395935.496266) can1 18FEF111#FFFC16CCFFFF1FFF
(1786395935.544861) can1 18FEF111#FFF016CCFFFF1FFF
(1786395935.590249) can1 18FEF111#FFF416CCFFFF1FFF
(1786395935.633830) can1 18FEF111#FFE416CCFFFF1FFF
(1786395935.678455) can1 18FEF111#FFFC16CCFFFF1FFF
(1786395935.766331) can1 18FEF111#FFF816CCFFFF1FFF
(1786395935.844742) can1 18FEF111#FFE016CCFFFF1FFF
(1786395935.903382) can1 18FEF111#FF0417CCFFFF1FFF
(1786395935.947530) can1 18FEF111#FF0817CCFFFF1FFF
(1786395935.990978) can1 18FEF111#FFFC16CCFFFF1FFF
(1786395936.113785) can1 18FEF111#FFF816CCFFFF1FFF
(1786395936.159724) can1 18FEF111#FF1017CCFFFF1FFF
(1786395936.208833) can1 18FEF111#FFEC16CCFFFF1FFF
(1786395936.262374) can1 18FEF111#FF0017CCFFFF1FFF
(1786395936.341811) can1 18FEF111#FF0417CCFFFF1FFF
(1786395936.385335) can1 18FEF111#FF2017CCFFFF1FFF
(1786395936.429815) can1 18FEF111#FFF416CCFFFF1FFF
(1786395936.474228) can1 18FEF111#FF1417CCFFFF1FFF
(1786395936.517718) can1 18FEF111#FF0417CCFFFF1FFF
(1786395936.560215) can1 18FEF111#FF2C17CCFFFF1FFF
(1786395936.614901) can1 18FEF111#FF5017CCFFFF1FFF
(1786395936.693145) can1 18FEF111#FF5817CCFFFF1FFF
(1786395936.738463) can1 18FEF111#FF4C17CCFFFF1FFF
(1786395936.783313) can1 18FEF111#FF6017CCFFFF1FFF
(1786395936.830953) can1 18FEF111#FF5017CCFFFF1FFF
(1786395936.872323) can1 18FEF111#FF6817CCFFFF1FFF
(1786395936.922535) can1 18FEF111#FF6017CCFFFF1FFF
(1786395936.984170) can1 18FEF111#FF0018CCFFFF1FFF
(1786395937.072668) can1 18FEF111#FFFC17CCFFFF1FFF
(1786395937.146547) can1 18FEF111#FF1818CCFFFF1FFF
(1786395937.192049) can1 18FEF111#FF0818CCFFFF1FFF
(1786395937.235870) can1 18FEF111#FF2018CCFFFF1FFF
(1786395937.280513) can1 18FEF111#FF1418CCFFFF1FFF
(1786395937.345599) can1 18FEF111#FF6018CCFFFF1FFF
(1786395937.387176) can1 18FEF111#FF5418CCFFFF1FFF
(1786395937.460894) can1 18FEF111#FF6418CCFFFF1FFF
(1786395937.506379) can1 18FEF111#FF4C18CCFFFF1FFF
(1786395937.552466) can1 18FEF111#FF5018CCFFFF1FFF
(1786395937.595746) can1 18FEF111#FF4018CCFFFF1FFF
(1786395937.640742) can1 18FEF111#FF5018CCFFFF1FFF
(1786395937.699905) can1 18FEF111#FF3C18CCFFFF1FFF
(1786395937.745948) can1 18FEF111#FF5818CCFFFF1FFF
(1786395937.793522) can1 18FEF111#FF3418CCFFFF1FFF
(1786395937.907360) can1 18FEF111#FF2018CCFFFF1FFF
(1786395937.993402) can1 18FEF111#FF2C18CCFFFF1FFF
(1786395938.047890) can1 18FEF111#FF5818CCFFFF1FFF
(1786395938.096405) can1 18FEF111#FF5018CCFFFF1FFF
(1786395938.143193) can1 18FEF111#FF3C18CCFFFF1FFF
(1786395938.186128) can1 18FEF111#FF4418CCFFFF1FFF
(1786395938.230546) can1 18FEF111#FF5418CCFFFF1FFF
(1786395938.305697) can1 18FEF111#FF4418CCFFFF1FFF
(1786395938.408763) can1 18FEF111#FF2018CCFFFF1FFF
(1786395938.482969) can1 18FEF111#FF0418CCFFFF1FFF
(1786395938.571750) can1 18FEF111#FF1418CCFFFF1FFF
(1786395938.616355) can1 18FEF111#FF1C18CCFFFF1FFF
(1786395938.666106) can1 18FEF111#FF2018CCFFFF1FFF
(1786395938.756790) can1 18FEF111#FF2418CCFFFF1FFF
(1786395938.802408) can1 18FEF111#FF1C18CCFFFF1FFF
(1786395938.850565) can1 18FEF111#FF2018CCFFFF1FFF
(1786395938.895177) can1 18FEF111#FF3C18CCFFFF1FFF
(1786395938.940060) can1 18FEF111#FF3418CCFFFF1FFF
(1786395939.052792) can1 18FEF111#FF2C18CCFFFF1FFF
(1786395939.123721) can1 18FEF111#FF3418CCFFFF1FFF
(1786395939.167070) can1 18FEF111#FF2418CCFFFF1FFF
(1786395939.212232) can1 18FEF111#FF3818CCFFFF1FFF
(1786395939.328354) can1 18FEF111#FF1C18CCFFFF1FFF
(1786395939.374965) can1 18FEF111#FF1418CCFFFF1FFF
(1786395939.428873) can1 18FEF111#FF3818CCFFFF1FFF
(1786395939.491201) can1 18FEF111#FF2018CCFFFF1FFF
(1786395939.565299) can1 18FEF111#FF0018CCFFFF1FFF
(1786395939.610875) can1 18FEF111#FF0818CCFFFF1FFF
(1786395939.656798) can1 18FEF111#FF0418CCFFFF1FFF
(1786395939.700727) can1 18FEF111#FF1C18CCFFFF1FFF
(1786395939.746352) can1 18FEF111#FFF417CCFFFF1FFF
(1786395939.852467) can1 18FEF111#FF7C17CCFFFF1FFF
(1786395939.929074) can1 18FEF111#FF6417CCFFFF1FFF
(1786395939.973632) can1 18FEF111#FF9017CCFFFF1FFF
(1786395940.021191) can1 18FEF111#FF6817CCFFFF1FFF
(1786395940.066435) can1 18FEF111#FF6C17CCFFFF1FFF
(1786395940.134108) can1 18FEF111#FF6017CCFFFF1FFF
(1786395940.204913) can1 18FEF111#FFF016CCFFFF1FFF
(1786395940.251930) can1 18FEF111#FFF816CCFFFF1FFF
(1786395940.323447) can1 18FEF111#FFE016CCFFFF1FFF
(1786395940.367819) can1 18FEF111#FFEC16CCFFFF1FFF
(1786395940.413371) can1 18FEF111#FFE016CCFFFF1FFF
(1786395940.548127) can1 18FEF111#FFB016CCFFFF1FFF
(1786395940.598713) can1 18FEF111#FFB816CCFFFF1FFF
(1786395940.669757) can1 18FEF111#FFA816CCFFFF1FFF
(1786395940.715427) can1 18FEF111#FFB416CCFFFF1FFF
(1786395940.759042) can1 18FEF111#FF8C16CCFFFF1FFF
(1786395940.805160) can1 18FEF111#FF9416CCFFFF1FFF
(1786395940.855372) can1 18FEF111#FFA816CCFFFF1FFF
(1786395940.908581) can1 18FEF111#FF9C16CCFFFF1FFF
(1786395940.954532) can1 18FEF111#FF8816CCFFFF1FFF
(1786395940.998081) can1 18FEF111#FF9416CCFFFF1FFF
(1786395941.043764) can1 18FEF111#FF9C16CCFFFF1FFF
(1786395941.088418) can1 18FEF111#FFA016CCFFFF1FFF
(1786395941.164733) can1 18FEF111#FF8C16CCFFFF1FFF
(1786395941.215134) can1 18FEF111#FFA016CCFFFF1FFF
(1786395941.280140) can1 18FEF111#FFA416CCFFFF1FFF
(1786395941.372036) can1 18FEF111#FFA016CCFFFF1FFF
(1786395941.445320) can1 18FEF111#FFB016CCFFFF1FFF
(1786395941.491841) can1 18FEF111#FFA016CCFFFF1FFF
(1786395941.536614) can1 18FEF111#FFC016CCFFFF1FFF
(1786395941.580474) can1 18FEF111#FF8C16CCFFFF1FFF
(1786395941.639804) can1 18FEF111#FFA416CCFFFF1FFF
(1786395941.684835) can1 18FEF111#FF9416CCFFFF1FFF
(1786395941.761015) can1 18FEF111#FF9C16CCFFFF1FFF
(1786395941.805595) can1 18FEF111#FF9416CCFFFF1FFF
(1786395941.851505) can1 18FEF111#FF9816CCFFFF1FFF
(1786395941.948239) can1 18FEF111#FFB416CCFFFF1FFF
(1786395942.007942) can1 18FEF111#FF9016CCFFFF1FFF
(1786395942.054474) can1 18FEF111#FF7816CCFFFF1FFF
(1786395942.098041) can1 18FEF111#FF8416CCFFFF1FFF
(1786395942.170903) can1 18FEF111#FF6416CCFFFF1FFF
(1786395942.214547) can1 18FEF111#FF7C16CCFFFF1FFF
(1786395942.262356) can1 18FEF111#FF7816CCFFFF1FFF
(1786395942.313064) can1 18FEF111#FF8016CCFFFF1FFF
(1786395942.366065) can1 18FEF111#FF4C16CCFFFF1FFF
(1786395942.412037) can1 18FEF111#FF2C16CCFFFF1FFF
(1786395942.456087) can1 18FEF111#FF3816CCFFFF1FFF
(1786395942.501568) can1 18FEF111#FF2C16CCFFFF1FFF
(1786395942.547766) can1 18FEF111#FF4016CCFFFF1FFF
(1786395942.621991) can1 18FEF111#FF1816CCFFFF1FFF
(1786395942.671009) can1 18FEF111#FF2416CCFFFF1FFF
(1786395942.742706) can1 18FEF111#FFC415CCFFFF1FFF
(1786395942.786677) can1 18FEF111#FFBC15CCFFFF1FFF
(1786395942.861690) can1 18FEF111#FFA415CCFFFF1FFF
(1786395942.906669) can1 18FEF111#FF9C15CCFFFF1FFF
(1786395942.952639) can1 18FEF111#FF8C15CCFFFF1FFF
(1786395942.996868) can1 18FEF111#FF9815CCFFFF1FFF
(1786395943.047619) can1 18FEF111#FFA015CCFFFF1FFF
(1786395943.097117) can1 18FEF111#FFB415CCFFFF1FFF
(1786395943.143665) can1 18FEF111#FFC415CCFFFF1FFF
(1786395943.232294) can1 18FEF111#FFE815CCFFFF1FFF
(1786395943.324582) can1 18FEF111#FFF015CCFFFF1FFF
(1786395943.398071) can1 18FEF111#FFF815CCFFFF1FFF
(1786395943.464521) can1 18FEF111#FFF415CCFFFF1FFF
(1786395943.558045) can1 18FEF111#FF0C16CCFFFF1FFF
(1786395943.717726) can1 18FEF111#FF1016CCFFFF1FFF
(1786395943.756506) can1 18FEF111#FF1C16CCFFFF1FFF
(1786395943.823729) can1 18FEF111#FF8C15CCFFFF1FFF
(1786395943.869245) can1 18FEF111#FF7C15CCFFFF1FFF
(1786395943.939783) can1 18FEF111#FF8415CCFFFF1FFF
(1786395943.983583) can1 18FEF111#FF7C15CCFFFF1FFF
(1786395944.030680) can1 18FEF111#FF7815CCFFFF1FFF
(1786395944.121763) can1 18FEF111#FF7015CCFFFF1FFF
(1786395944.181631) can1 18FEF111#FFB014CCFFFF1FFF
(1786395944.225807) can1 18FEF111#FF9014CCFFFF1FFF
(1786395944.269717) can1 18FEF111#FF7C14CCFFFF1FFF
(1786395944.314004) can1 18FEF111#FF7814CCFFFF1FFF
(1786395944.385702) can1 18FEF111#FF8014CCFFFF1FFF
(1786395944.430778) can1 18FEF111#FF6C14CCFFFF1FFF
(1786395944.480934) can1 18FEF111#FF5414CCFFFF1FFF
(1786395944.537351) can1 18FEF111#FFD413CCFFFF1FFF
(1786395944.581830) can1 18FEF111#FFC813CCFFFF1FFF
(1786395944.629188) can1 18FEF111#FFC413CCFFFF1FFF
(1786395944.674086) can1 18FEF111#FFCC13CCFFFF1FFF
(1786395944.720247) can1 18FEF111#FFB813CCFFFF1FFF
(1786395944.764272) can1 18FEF111#FFB413CCFFFF1FFF
(1786395944.836253) can1 18FEF111#FFA013CCFFFF1FFF
(1786395944.903813) can1 18FEF111#FF6013CCFFFF1FFF
(1786395944.951832) can1 18FEF111#FF5813CCFFFF1FFF
(1786395944.996834) can1 18FEF111#FF5013CCFFFF1FFF
(1786395945.039846) can1 18FEF111#FF5C13CCFFFF1FFF
(1786395945.113135) can1 18FEF111#FF6013CCFFFF1FFF
(1786395945.157319) can1 18FEF111#FF6813CCFFFF1FFF
(1786395945.199338) can1 18FEF111#FF4C13CCFFFF1FFF
(1786395945.288948) can1 18FEF111#FFB813CCFFFF1FFF
(1786395945.380861) can1 18FEF111#FFA813CCFFFF1FFF
(1786395945.470536) can1 18FEF111#FF8C13CCFFFF1FFF
(1786395945.517301) can1 18FEF111#FF8813CCFFFF1FFF
(1786395945.612669) can1 18FEF111#FF5414CCFFFF1FFF
(1786395945.702308) can1 18FEF111#FF5814CCFFFF1FFF
(1786395945.747151) can1 18FEF111#FF4C14CCFFFF1FFF
(1786395945.791405) can1 18FEF111#FF4814CCFFFF1FFF
(1786395945.869722) can1 18FEF111#FF4C14CCFFFF1FFF
(1786395945.914773) can1 18FEF111#FF6014CCFFFF1FFF
(1786395945.968082) can1 18FEF111#FF7C15CCFFFF1FFF
(1786395946.013468) can1 18FEF111#FF8415CCFFFF1FFF
(1786395946.103829) can1 18FEF111#FF9C15CCFFFF1FFF
(1786395946.150891) can1 18FEF111#FF8015CCFFFF1FFF
(1786395946.224076) can1 18FEF111#FFB015CCFFFF1FFF
(1786395946.267135) can1 18FEF111#FFAC15CCFFFF1FFF
(1786395946.330233) can1 18FEF111#FF9C16CCFFFF1FFF
(1786395946.375457) can1 18FEF111#FFB816CCFFFF1FFF
(1786395946.418430) can1 18FEF111#FFA416CCFFFF1FFF
(1786395946.464886) can1 18FEF111#FFCC16CCFFFF1FFF
(1786395946.508888) can1 18FEF111#FFBC16CCFFFF1FFF
(1786395946.585427) can1 18FEF111#FFF416CCFFFF1FFF
(1786395946.622993) can1 18FEF111#FFF816CCFFFF1FFF
(1786395946.693331) can1 18FEF111#FF0017CCFFFF1FFF
(1786395946.737815) can1 18FEF111#FF0817CCFFFF1FFF
(1786395946.812448) can1 18FEF111#FF3C17CCFFFF1FFF
(1786395946.856231) can1 18FEF111#FF0C17CCFFFF1FFF
(1786395946.900310) can1 18FEF111#FF0817CCFFFF1FFF
(1786395946.947549) can1 18FEF111#FF2817CCFFFF1FFF
(1786395947.093901) can1 18FEF111#FFBC16CCFFFF1FFF
(1786395947.138425) can1 18FEF111#FFD416CCFFFF1FFF
(1786395947.184586) can1 18FEF111#FFA816CCFFFF1FFF
(1786395947.271339) can1 18FEF111#FF9C16CCFFFF1FFF
(1786395947.343025) can1 18FEF111#FFB416CCFFFF1FFF
(1786395947.414133) can1 18FEF111#FFC416CCFFFF1FFF
(1786395947.486770) can1 18FEF111#FFF816CCFFFF1FFF
(1786395947.531716) can1 18FEF111#FFE816CCFFFF1FFF
(1786395947.575710) can1 18FEF111#FF0C17CCFFFF1FFF
(1786395947.617926) can1 18FEF111#FFD816CCFFFF1FFF
(1786395947.668316) can1 18FEF111#FF0017CCFFFF1FFF
(1786395947.775796) can1 18FEF111#FF1017CCFFFF1FFF
(1786395947.847629) can1 18FEF111#FFE816CCFFFF1FFF
(1786395947.891828) can1 18FEF111#FF0817CCFFFF1FFF
(1786395947.937359) can1 18FEF111#FFF016CCFFFF1FFF
(1786395947.983063) can1 18FEF111#FF2017CCFFFF1FFF
(1786395948.027870) can1 18FEF111#FFE416CCFFFF1FFF
(1786395948.070709) can1 18FEF111#FF1C17CCFFFF1FFF
(1786395948.133076) can1 18FEF111#FF2017CCFFFF1FFF
(1786395948.206256) can1 18FEF111#FF1017CCFFFF1FFF
(1786395948.298211) can1 18FEF111#FF2017CCFFFF1FFF
(1786395948.344642) can1 18FEF111#FF0C17CCFFFF1FFF
(1786395948.388720) can1 18FEF111#FF4017CCFFFF1FFF
(1786395948.487921) can1 18FEF111#FF4C17CCFFFF1FFF
(1786395948.531141) can1 18FEF111#FF3C17CCFFFF1FFF
(1786395948.574268) can1 18FEF111#FF4817CCFFFF1FFF
(1786395948.647765) can1 18FEF111#FF1817CCFFFF1FFF
(1786395948.693057) can1 18FEF111#FF3017CCFFFF1FFF
(1786395948.737147) can1 18FEF111#FF4017CCFFFF1FFF
(1786395948.781277) can1 18FEF111#FF4417CCFFFF1FFF
(1786395948.839583) can1 18FEF111#FF4C17CCFFFF1FFF
(1786395948.884736) can1 18FEF111#FF4417CCFFFF1FFF
(1786395948.933025) can1 18FEF111#FF6C17CCFFFF1FFF
(1786395948.977050) can1 18FEF111#FF4017CCFFFF1FFF
(1786395949.052498) can1 18FEF111#FF4417CCFFFF1FFF
(1786395949.096418) can1 18FEF111#FF3C17CCFFFF1FFF
(1786395949.135102) can1 18FEF111#FF6017CCFFFF1FFF
(1786395949.185371) can1 18FEF111#FF8417CCFFFF1FFF
(1786395949.230782) can1 18FEF111#FF9817CCFFFF1FFF
(1786395949.278216) can1 18FEF111#FF8017CCFFFF1FFF
(1786395949.323779) can1 18FEF111#FFA017CCFFFF1FFF
(1786395949.366945) can1 18FEF111#FF9417CCFFFF1FFF
(1786395949.412203) can1 18FEF111#FF9817CCFFFF1FFF
(1786395949.552669) can1 18FEF111#FFA417CCFFFF1FFF
(1786395949.603400) can1 18FEF111#FFB417CCFFFF1FFF
(1786395949.673626) can1 18FEF111#FF9417CCFFFF1FFF
(1786395949.719828) can1 18FEF111#FF9C17CCFFFF1FFF
(1786395949.767133) can1 18FEF111#FF8C17CCFFFF1FFF
(1786395949.813547) can1 18FEF111#FF9C17CCFFFF1FFF
(1786395949.899029) can1 18FEF111#FFD817CCFFFF1FFF
(1786395949.943353) can1 18FEF111#FFB817CCFFFF1FFF
(1786395949.989850) can1 18FEF111#FFD817CCFFFF1FFF
(1786395950.034635) can1 18FEF111#FFD417CCFFFF1FFF
(1786395950.125435) can1 18FEF111#FFC017CCFFFF1FFF
(1786395950.171061) can1 18FEF111#FFC417CCFFFF1FFF
(1786395950.264432) can1 18FEF111#FFB817CCFFFF1FFF
(1786395950.308115) can1 18FEF111#FFD017CCFFFF1FFF
(1786395950.355071) can1 18FEF111#FFC417CCFFFF1FFF
(1786395950.425368) can1 18FEF111#FFDC17CCFFFF1FFF
(1786395950.472689) can1 18FEF111#FFD417CCFFFF1FFF
(1786395950.564524) can1 18FEF111#FFD817CCFFFF1FFF
(1786395950.618383) can1 18FEF111#FF0418CCFFFF1FFF
(1786395950.662935) can1 18FEF111#FFFC17CCFFFF1FFF
(1786395950.710098) can1 18FEF111#FFF817CCFFFF1FFF
(1786395950.753501) can1 18FEF111#FF0418CCFFFF1FFF
(1786395950.797147) can1 18FEF111#FF0818CCFFFF1FFF
(1786395950.841416) can1 18FEF111#FF0C18CCFFFF1FFF
(1786395950.915933) can1 18FEF111#FFFC17CCFFFF1FFF
(1786395951.073536) can1 18FEF111#FF0018CCFFFF1FFF
(1786395951.146940) can1 18FEF111#FF1018CCFFFF1FFF
(1786395951.236421) can1 18FEF111#FF1C18CCFFFF1FFF
(1786395951.287479) can1 18FEF111#FF2418CCFFFF1FFF
(1786395951.350639) can1 18FEF111#FF4418CCFFFF1FFF
(1786395951.399374) can1 18FEF111#FF3418CCFFFF1FFF
(1786395951.469947) can1 18FEF111#FF3018CCFFFF1FFF
(1786395951.519279) can1 18FEF111#FF5818CCFFFF1FFF
(1786395951.562257) can1 18FEF111#FF3418CCFFFF1FFF
(1786395951.607306) can1 18FEF111#FF4418CCFFFF1FFF
(1786395951.696035) can1 18FEF111#FF3C18CCFFFF1FFF
(1786395951.831084) can1 18FEF111#FF4018CCFFFF1FFF
(1786395951.876421) can1 18FEF111#FF3C18CCFFFF1FFF
(1786395951.921053) can1 18FEF111#FF3418CCFFFF1FFF
(1786395951.994312) can1 18FEF111#FF2018CCFFFF1FFF
(1786395952.062927) can1 18FEF111#FF2418CCFFFF1FFF
(1786395952.108076) can1 18FEF111#FF2018CCFFFF1FFF
(1786395952.153771) can1 18FEF111#FF3818CCFFFF1FFF
(1786395952.197237) can1 18FEF111#FF1818CCFFFF1FFF
(1786395952.273227) can1 18FEF111#FF1C18CCFFFF1FFF
(1786395952.317738) can1 18FEF111#FF1818CCFFFF1FFF
(1786395952.363764) can1 18FEF111#FF3418CCFFFF1FFF
(1786395952.425096) can1 18FEF111#FF1C18CCFFFF1FFF
(1786395952.468974) can1 18FEF111#FF3818CCFFFF1FFF
(1786395952.514651) can1 18FEF111#FF2818CCFFFF1FFF
(1786395952.588402) can1 18FEF111#FF1418CCFFFF1FFF
(1786395952.631291) can1 18FEF111#FF1C18CCFFFF1FFF
(1786395952.675981) can1 18FEF111#FF4018CCFFFF1FFF
(1786395952.726368) can1 18FEF111#FF0C18CCFFFF1FFF
(1786395952.792512) can1 18FEF111#FF3018CCFFFF1FFF
(1786395952.869862) can1 18FEF111#FF2C18CCFFFF1FFF
(1786395952.914312) can1 18FEF111#FF1018CCFFFF1FFF
(1786395952.962167) can1 18FEF111#FF3018CCFFFF1FFF
(1786395953.009421) can1 18FEF111#FF2418CCFFFF1FFF
(1786395953.074974) can1 18FEF111#FF3418CCFFFF1FFF
(1786395953.141067) can1 18FEF111#FF2818CCFFFF1FFF
(1786395953.186664) can1 18FEF111#FF3818CCFFFF1FFF
(1786395953.234694) can1 18FEF111#FF1C18CCFFFF1FFF
(1786395953.351287) can1 18FEF111#FFF817CCFFFF1FFF
(1786395953.395553) can1 18FEF111#FF1C18CCFFFF1FFF
(1786395953.437896) can1 18FEF111#FF0418CCFFFF1FFF
(1786395953.534083) can1 18FEF111#FF0817CCFFFF1FFF
(1786395953.578647) can1 18FEF111#FF1417CCFFFF1FFF
(1786395953.624647) can1 18FEF111#FF2417CCFFFF1FFF
(1786395953.669287) can1 18FEF111#FF3417CCFFFF1FFF
(1786395953.763253) can1 18FEF111#FF3817CCFFFF1FFF
(1786395953.882187) can1 18FEF111#FFD416CCFFFF1FFF
(1786395953.971462) can1 18FEF111#FFC016CCFFFF1FFF
(1786395954.017305) can1 18FEF111#FFD016CCFFFF1FFF
(1786395954.062738) can1 18FEF111#FFB416CCFFFF1FFF
(1786395954.109752) can1 18FEF111#FFD016CCFFFF1FFF
(1786395954.241935) can1 18FEF111#FF9416CCFFFF1FFF
(1786395954.287368) can1 18FEF111#FF8416CCFFFF1FFF
(1786395954.332571) can1 18FEF111#FF8816CCFFFF1FFF
(1786395954.379046) can1 18FEF111#FF7816CCFFFF1FFF
(1786395954.426647) can1 18FEF111#FF8816CCFFFF1FFF
(1786395954.471182) can1 18FEF111#FF8016CCFFFF1FFF
(1786395954.565432) can1 18FEF111#FF4416CCFFFF1FFF
(1786395954.683292) can1 18FEF111#FF3816CCFFFF1FFF
(1786395954.726883) can1 18FEF111#FF4016CCFFFF1FFF
(1786395954.771751) can1 18FEF111#FF3016CCFFFF1FFF
(1786395954.816433) can1 18FEF111#FF2416CCFFFF1FFF
(1786395954.861257) can1 18FEF111#FF1C16CCFFFF1FFF
(1786395954.921379) can1 18FEF111#FF4016CCFFFF1FFF
(1786395954.965411) can1 18FEF111#FF3416CCFFFF1FFF
(1786395955.012021) can1 18FEF111#FF3816CCFFFF1FFF
(1786395955.055740) can1 18FEF111#FF4816CCFFFF1FFF
(1786395955.129027) can1 18FEF111#FF3016CCFFFF1FFF
(1786395955.267455) can1 18FEF111#FF0816CCFFFF1FFF
(1786395955.401684) can1 18FEF111#FF0416CCFFFF1FFF
(1786395955.441456) can1 18FEF111#FFF815CCFFFF1FFF
(1786395955.485801) can1 18FEF111#FFFC15CCFFFF1FFF
(1786395955.533205) can1 18FEF111#FFE815CCFFFF1FFF
(1786395955.631953) can1 18FEF111#FF4815CCFFFF1FFF
(1786395955.679321) can1 18FEF111#FF3815CCFFFF1FFF
(1786395955.753243) can1 18FEF111#FF3C15CCFFFF1FFF
(1786395955.841467) can1 18FEF111#FF4015CCFFFF1FFF
(1786395955.887111) can1 18FEF111#FF3415CCFFFF1FFF
(1786395955.929966) can1 18FEF111#FF2C15CCFFFF1FFF
(1786395955.994869) can1 18FEF111#FF7815CCFFFF1FFF
(1786395956.068274) can1 18FEF111#FF6815CCFFFF1FFF
(1786395956.156500) can1 18FEF111#FF7815CCFFFF1FFF
(1786395956.199910) can1 18FEF111#FF7015CCFFFF1FFF
(1786395956.244667) can1 18FEF111#FF6415CCFFFF1FFF
(1786395956.339894) can1 18FEF111#FF4415CCFFFF1FFF
(1786395956.459769) can1 18FEF111#FF3415CCFFFF1FFF
(1786395956.548231) can1 18FEF111#FF1015CCFFFF1FFF
(1786395956.592062) can1 18FEF111#FF1815CCFFFF1FFF
(1786395956.639336) can1 18FEF111#FF0815CCFFFF1FFF
(1786395956.704085) can1 18FEF111#FF4C15CCFFFF1FFF
(1786395956.746536) can1 18FEF111#FF2C15CCFFFF1FFF
(1786395956.818911) can1 18FEF111#FF3415CCFFFF1FFF
(1786395956.862079) can1 18FEF111#FF2415CCFFFF1FFF
(1786395956.906335) can1 18FEF111#FF3415CCFFFF1FFF
(1786395956.952088) can1 18FEF111#FF1C15CCFFFF1FFF
(1786395956.990892) can1 18FEF111#FF0815CCFFFF1FFF
(1786395957.083956) can1 18FEF111#FF0415CCFFFF1FFF
(1786395957.129539) can1 18FEF111#FF0815CCFFFF1FFF
(1786395957.171128) can1 18FEF111#FF0015CCFFFF1FFF
(1786395957.215490) can1 18FEF111#FF0415CCFFFF1FFF
(1786395957.304659) can1 18FEF111#FF0015CCFFFF1FFF
(1786395957.406294) can1 18FEF111#FFA014CCFFFF1FFF
(1786395957.449026) can1 18FEF111#FFA414CCFFFF1FFF
(1786395957.496730) can1 18FEF111#FF9C14CCFFFF1FFF
(1786395957.536383) can1 18FEF111#FFA414CCFFFF1FFF
(1786395957.652239) can1 18FEF111#FFA814CCFFFF1FFF
(1786395957.685520) can1 18FEF111#FFB414CCFFFF1FFF
(1786395957.781631) can1 18FEF111#FFD014CCFFFF1FFF
(1786395957.827170) can1 18FEF111#FFDC14CCFFFF1FFF
(1786395957.870690) can1 18FEF111#FFE414CCFFFF1FFF
(1786395957.915080) can1 18FEF111#FFD014CCFFFF1FFF
(1786395958.001988) can1 18FEF111#FFD414CCFFFF1FFF
(1786395958.056218) can1 18FEF111#FFD014CCFFFF1FFF
(1786395958.149517) can1 18FEF111#FFB813CCFFFF1FFF
(1786395958.192151) can1 18FEF111#FFA813CCFFFF1FFF
(1786395958.236426) can1 18FEF111#FFA013CCFFFF1FFF
(1786395958.281362) can1 18FEF111#FF9013CCFFFF1FFF
(1786395958.326851) can1 18FEF111#FF8013CCFFFF1FFF
(1786395958.370849) can1 18FEF111#FF9013CCFFFF1FFF
(1786395958.415095) can1 18FEF111#FF8013CCFFFF1FFF
(1786395958.474099) can1 18FEF111#FFA813CCFFFF1FFF
(1786395958.520292) can1 18FEF111#FFA413CCFFFF1FFF
(1786395958.563386) can1 18FEF111#FFAC13CCFFFF1FFF
(1786395958.608953) can1 18FEF111#FFC013CCFFFF1FFF
(1786395958.695422) can1 18FEF111#FFE013CCFFFF1FFF
(1786395958.828130) can1 18FEF111#FFA413CCFFFF1FFF
(1786395958.903749) can1 18FEF111#FF9C13CCFFFF1FFF
(1786395958.947014) can1 18FEF111#FF9813CCFFFF1FFF
(1786395958.991040) can1 18FEF111#FFAC13CCFFFF1FFF
(1786395959.036945) can1 18FEF111#FF9C13CCFFFF1FFF
(1786395959.081317) can1 18FEF111#FFAC13CCFFFF1FFF
(1786395959.186442) can1 18FEF111#FF7C15CCFFFF1FFF
(1786395959.231584) can1 18FEF111#FF9C15CCFFFF1FFF
(1786395959.304637) can1 18FEF111#FFA815CCFFFF1FFF
(1786395959.348503) can1 18FEF111#FF9815CCFFFF1FFF
(1786395959.393745) can1 18FEF111#FF7815CCFFFF1FFF
(1786395959.437826) can1 18FEF111#FF4C15CCFFFF1FFF
(1786395959.476170) can1 18FEF111#FFF814CCFFFF1FFF
(1786395959.525697) can1 18FEF111#FFB014CCFFFF1FFF
(1786395959.573197) can1 18FEF111#FF7814CCFFFF1FFF
(1786395959.617026) can1 18FEF111#FF6C14CCFFFF1FFF
(1786395959.661501) can1 18FEF111#FF4C14CCFFFF1FFF
(1786395959.705586) can1 18FEF111#FF4014CCFFFF1FFF
(1786395959.820478) can1 18FEF111#FF5014CCFFFF1FFF
(1786395959.878430) can1 18FEF111#FF7017CCFFFF1FFF
(1786395959.923207) can1 18FEF111#FF8017CCFFFF1FFF
(1786395959.970472) can1 18FEF111#FFA017CCFFFF1FFF
(1786395960.015974) can1 18FEF111#FFAC17CCFFFF1FFF
(1786395960.089127) can1 18FEF111#FFC817CCFFFF1FFF
(1786395960.172174) can1 18FEF111#FF0018CCFFFF1FFF
(1786395960.228013) can1 18FEF111#FFE418CCFFFF1FFF
(1786395960.276406) can1 18FEF111#FFF818CCFFFF1FFF
(1786395960.320492) can1 18FEF111#FF0019CCFFFF1FFF
(1786395960.365218) can1 18FEF111#FFFC18CCFFFF1FFF
(1786395960.454365) can1 18FEF111#FF0419CCFFFF1FFF
(1786395960.523434) can1 18FEF111#FF2019CCFFFF1FFF
(1786395960.623429) can1 18FEF111#FFD418CCFFFF1FFF
(1786395960.667138) can1 18FEF111#FF9018CCFFFF1FFF
(1786395960.712110) can1 18FEF111#FFAC18CCFFFF1FFF
(1786395960.757937) can1 18FEF111#FF9C18CCFFFF1FFF
(1786395960.798741) can1 18FEF111#FFC018CCFFFF1FFF
(1786395960.844804) can1 18FEF111#FF9818CCFFFF1FFF
(1786395960.938544) can1 18FEF111#FFFC17CCFFFF1FFF
(1786395960.983599) can1 18FEF111#FFF417CCFFFF1FFF
(1786395961.028527) can1 18FEF111#FF0018CCFFFF1FFF
(1786395961.072709) can1 18FEF111#FFE417CCFFFF1FFF
(1786395961.118459) can1 18FEF111#FF1818CCFFFF1FFF
(1786395961.164418) can1 18FEF111#FFFC17CCFFFF1FFF
(1786395961.233916) can1 18FEF111#FF0418CCFFFF1FFF
(1786395961.331748) can1 18FEF111#FF7417CCFFFF1FFF
(1786395961.376998) can1 18FEF111#FF9817CCFFFF1FFF
(1786395961.422150) can1 18FEF111#FF7417CCFFFF1FFF
(1786395961.466024) can1 18FEF111#FFA017CCFFFF1FFF
(1786395961.510174) can1 18FEF111#FF6817CCFFFF1FFF
(1786395961.555464) can1 18FEF111#FF7C17CCFFFF1FFF
(1786395961.652840) can1 18FEF111#FF4417CCFFFF1FFF
(1786395961.698520) can1 18FEF111#FF4817CCFFFF1FFF
(1786395961.742017) can1 18FEF111#FF4417CCFFFF1FFF
(1786395961.786130) can1 18FEF111#FF5017CCFFFF1FFF
(1786395961.903840) can1 18FEF111#FF3C17CCFFFF1FFF
(1786395961.942899) can1 18FEF111#FF4817CCFFFF1FFF
(1786395962.039349) can1 18FEF111#FFC816CCFFFF1FFF
(1786395962.084627) can1 18FEF111#FFD416CCFFFF1FFF
(1786395962.128282) can1 18FEF111#FFCC16CCFFFF1FFF
(1786395962.173020) can1 18FEF111#FFD816CCFFFF1FFF
(1786395962.217719) can1 18FEF111#FFC816CCFFFF1FFF
(1786395962.262611) can1 18FEF111#FFD416CCFFFF1FFF
(1786395962.311558) can1 18FEF111#FFC016CCFFFF1FFF
(1786395962.373026) can1 18FEF111#FF1C16CCFFFF1FFF
(1786395962.418895) can1 18FEF111#FF0816CCFFFF1FFF
(1786395962.462180) can1 18FEF111#FFE415CCFFFF1FFF
(1786395962.534783) can1 18FEF111#FF0C16CCFFFF1FFF
(1786395962.579786) can1 18FEF111#FFF815CCFFFF1FFF
(1786395962.625111) can1 18FEF111#FF0016CCFFFF1FFF
(1786395962.662760) can1 18FEF111#FFD415CCFFFF1FFF
(1786395962.725595) can1 18FEF111#FF3415CCFFFF1FFF
(1786395962.811499) can1 18FEF111#FF5815CCFFFF1FFF
(1786395962.857073) can1 18FEF111#FF6815CCFFFF1FFF
(1786395962.929723) can1 18FEF111#FF7815CCFFFF1FFF
(1786395962.972603) can1 18FEF111#FF9415CCFFFF1FFF
(1786395963.069459) can1 18FEF111#FF5C15CCFFFF1FFF
(1786395963.143711) can1 18FEF111#FF5815CCFFFF1FFF
(1786395963.187718) can1 18FEF111#FF5C15CCFFFF1FFF
(1786395963.234332) can1 18FEF111#FF7815CCFFFF1FFF
(1786395963.279947) can1 18FEF111#FF8815CCFFFF1FFF
(1786395963.324447) can1 18FEF111#FF9C15CCFFFF1FFF
(1786395963.423569) can1 18FEF111#FF4415CCFFFF1FFF
(1786395963.466918) can1 18FEF111#FF3C15CCFFFF1FFF
(1786395963.511831) can1 18FEF111#FF6415CCFFFF1FFF
(1786395963.627170) can1 18FEF111#FF5815CCFFFF1FFF
(1786395963.670912) can1 18FEF111#FF4815CCFFFF1FFF
(1786395963.716584) can1 18FEF111#FF4C15CCFFFF1FFF
(1786395963.785315) can1 18FEF111#FF6015CCFFFF1FFF
(1786395963.857189) can1 18FEF111#FF3C15CCFFFF1FFF
(1786395963.905160) can1 18FEF111#FF4C15CCFFFF1FFF
(1786395963.949973) can1 18FEF111#FF2815CCFFFF1FFF
(1786395963.996133) can1 18FEF111#FF3815CCFFFF1FFF
(1786395964.133069) can1 18FEF111#FF0415CCFFFF1FFF
(1786395964.178338) can1 18FEF111#FF0015CCFFFF1FFF
(1786395964.249741) can1 18FEF111#FF1815CCFFFF1FFF
(1786395964.295349) can1 18FEF111#FF1015CCFFFF1FFF
(1786395964.339332) can1 18FEF111#FF0415CCFFFF1FFF
(1786395964.426961) can1 18FEF111#FFF814CCFFFF1FFF
(1786395964.522220) can1 18FEF111#FF8C14CCFFFF1FFF
(1786395964.569481) can1 18FEF111#FFAC14CCFFFF1FFF
(1786395964.613627) can1 18FEF111#FFBC14CCFFFF1FFF
(1786395964.705093) can1 18FEF111#FFB414CCFFFF1FFF
(1786395964.835751) can1 18FEF111#FF5814CCFFFF1FFF
(1786395964.882068) can1 18FEF111#FF3814CCFFFF1FFF
(1786395964.927964) can1 18FEF111#FF3014CCFFFF1FFF
(1786395965.019115) can1 18FEF111#FF3414CCFFFF1FFF
(1786395965.205038) can1 18FEF111#FFCC13CCFFFF1FFF
(1786395965.280351) can1 18FEF111#FFD413CCFFFF1FFF
(1786395965.324014) can1 18FEF111#FFC413CCFFFF1FFF
(1786395965.413530) can1 18FEF111#FFC813CCFFFF1FFF
(1786395965.460125) can1 18FEF111#FFC013CCFFFF1FFF
(1786395965.563352) can1 18FEF111#FF5C13CCFFFF1FFF
(1786395965.607898) can1 18FEF111#FF7013CCFFFF1FFF
(1786395965.682443) can1 18FEF111#FF6C13CCFFFF1FFF
(1786395965.727166) can1 18FEF111#FF6013CCFFFF1FFF
(1786395965.776049) can1 18FEF111#FF5413CCFFFF1FFF
(1786395965.821538) can1 18FEF111#FF3813CCFFFF1FFF
(1786395965.925197) can1 18FEF111#FF8013CCFFFF1FFF
(1786395965.969850) can1 18FEF111#FF8C13CCFFFF1FFF
(1786395966.043112) can1 18FEF111#FF8013CCFFFF1FFF
(1786395966.087986) can1 18FEF111#FF9C13CCFFFF1FFF
(1786395966.135460) can1 18FEF111#FF9013CCFFFF1FFF
(1786395966.179127) can1 18FEF111#FF8813CCFFFF1FFF
(1786395966.223268) can1 18FEF111#FF9013CCFFFF1FFF
(1786395966.283585) can1 18FEF111#FF6813CCFFFF1FFF
(1786395966.448271) can1 18FEF111#FF7813CCFFFF1FFF
(1786395966.493181) can1 18FEF111#FF6813CCFFFF1FFF
(1786395966.540602) can1 18FEF111#FF3813CCFFFF1FFF
(1786395966.633264) can1 18FEF111#FF9813CCFFFF1FFF
(1786395966.680682) can1 18FEF111#FFA013CCFFFF1FFF
(1786395966.768763) can1 18FEF111#FF9813CCFFFF1FFF
(1786395966.812676) can1 18FEF111#FF8813CCFFFF1FFF
(1786395966.887483) can1 18FEF111#FF8C13CCFFFF1FFF
(1786395966.983075) can1 18FEF111#FFC413CCFFFF1FFF
(1786395967.056349) can1 18FEF111#FFCC13CCFFFF1FFF
(1786395967.103026) can1 18FEF111#FFDC13CCFFFF1FFF
(1786395967.147837) can1 18FEF111#FFCC13CCFFFF1FFF
(1786395967.193348) can1 18FEF111#FFDC13CCFFFF1FFF
(1786395967.238284) can1 18FEF111#FFC813CCFFFF1FFF
(1786395967.372757) can1 18FEF111#FFCC13CCFFFF1FFF
(1786395967.553781) can1 18FEF111#FFD813CCFFFF1FFF
(1786395967.733375) can1 18FEF111#FF0814CCFFFF1FFF
(1786395967.821302) can1 18FEF111#FF0014CCFFFF1FFF
(1786395967.864148) can1 18FEF111#FF1014CCFFFF1FFF
(1786395967.909349) can1 18FEF111#FFFC13CCFFFF1FFF
(1786395967.999303) can1 18FEF111#FFF413CCFFFF1FFF
(1786395968.065560) can1 18FEF111#FFFC13CCFFFF1FFF
(1786395968.108039) can1 18FEF111#FFF413CCFFFF1FFF
(1786395968.179790) can1 18FEF111#FFEC13CCFFFF1FFF
(1786395968.224662) can1 18FEF111#FFE413CCFFFF1FFF
(1786395968.313662) can1 18FEF111#FFE813CCFFFF1FFF
(1786395968.353415) can1 18FEF111#FFE413CCFFFF1FFF
(1786395968.413251) can1 18FEF111#FF3813CCFFFF1FFF
(1786395968.455957) can1 18FEF111#FF3013CCFFFF1FFF
(1786395968.544737) can1 18FEF111#FF2C13CCFFFF1FFF
(1786395968.585734) can1 18FEF111#FF1813CCFFFF1FFF
(1786395968.631202) can1 18FEF111#FF1013CCFFFF1FFF
(1786395968.675788) can1 18FEF111#FF1813CCFFFF1FFF
(1786395968.773705) can1 18FEF111#FFB411CCFFFF1FFF
(1786395968.819187) can1 18FEF111#FFA011CCFFFF1FFF
(1786395968.863108) can1 18FEF111#FF9C11CCFFFF1FFF
(1786395968.907998) can1 18FEF111#FF9411CCFFFF1FFF
(1786395968.979728) can1 18FEF111#FF8011CCFFFF1FFF
(1786395969.024222) can1 18FEF111#FF7011CCFFFF1FFF
(1786395969.063116) can1 18FEF111#FF6811CCFFFF1FFF
(1786395969.119028) can1 18FEF111#FF2C10CCFFFF1FFF
(1786395969.163374) can1 18FEF111#FF2010CCFFFF1FFF
(1786395969.252149) can1 18FEF111#FF1410CCFFFF1FFF
(1786395969.297728) can1 18FEF111#FF1010CCFFFF1FFF
(1786395969.340550) can1 18FEF111#FF0010CCFFFF1FFF
(1786395969.384563) can1 18FEF111#FF0410CCFFFF1FFF
(1786395969.485461) can1 18FEF111#FFC00ECCFFFF1FFF
(1786395969.573534) can1 18FEF111#FFC40ECCFFFF1FFF
(1786395969.617689) can1 18FEF111#FFC00ECCFFFF1FFF
(1786395969.732457) can1 18FEF111#FFB40ECCFFFF1FFF
(1786395969.765732) can1 18FEF111#FFA80ECCFFFF1FFF
(1786395969.828797) can1 18FEF111#FF000ECCFFFF1FFF
(1786395969.875700) can1 18FEF111#FFF80DCCFFFF1FFF
(1786395969.918404) can1 18FEF111#FFF00DCCFFFF1FFF
(1786395969.988764) can1 18FEF111#FFE40DCCFFFF1FFF
(1786395970.033387) can1 18FEF111#FFE80DCCFFFF1FFF
(1786395970.078632) can1 18FEF111#FFE00DCCFFFF1FFF
(1786395970.123471) can1 18FEF111#FFD00DCCFFFF1FFF
(1786395970.221420) can1 18FEF111#FFF00BCCFFFF1FFF
(1786395970.267015) can1 18FEF111#FFF80BCCFFFF1FFF
(1786395970.311920) can1 18FEF111#FFF00BCCFFFF1FFF
(1786395970.356790) can1 18FEF111#FFEC0BCCFFFF1FFF
(1786395970.400847) can1 18FEF111#FFE80BCCFFFF1FFF
(1786395970.445740) can1 18FEF111#FFDC0BCCFFFF1FFF
(1786395970.540758) can1 18FEF111#FF640ACCFFFF1FFF
(1786395970.584365) can1 18FEF111#FF680ACCFFFF1FFF
(1786395970.629006) can1 18FEF111#FF600ACCFFFF1FFF
(1786395970.672319) can1 18FEF111#FF540ACCFFFF1FFF
(1786395970.719067) can1 18FEF111#FF480ACCFFFF1FFF
(1786395970.764013) can1 18FEF111#FF440ACCFFFF1FFF
(1786395970.808682) can1 18FEF111#FF380ACCFFFF1FFF
(1786395970.902386) can1 18FEF111#FFA808CCFFFF1FFF
(1786395970.947085) can1 18FEF111#FF9408CCFFFF1FFF
(1786395970.991197) can1 18FEF111#FF8808CCFFFF1FFF
(1786395971.036026) can1 18FEF111#FF7808CCFFFF1FFF
(1786395971.080278) can1 18FEF111#FF6008CCFFFF1FFF
(1786395971.125921) can1 18FEF111#FF5808CCFFFF1FFF
(1786395971.168582) can1 18FEF111#FF3808CCFFFF1FFF
(1786395971.259806) can1 18FEF111#FFB006CCFFFF1FFF
(1786395971.304294) can1 18FEF111#FFA406CCFFFF1FFF
(1786395971.351019) can1 18FEF111#FF9C06CCFFFF1FFF
(1786395971.393256) can1 18FEF111#FF9006CCFFFF1FFF
(1786395971.485631) can1 18FEF111#FF8006CCFFFF1FFF
(1786395971.661505) can1 18FEF111#FFF804CCFFFF1FFF
(1786395971.707859) can1 18FEF111#FFEC04CCFFFF1FFF
(1786395971.752771) can1 18FEF111#FFE404CCFFFF1FFF
(1786395971.797958) can1 18FEF111#FFBC04CCFFFF1FFF
(1786395971.843795) can1 18FEF111#FFB804CCFFFF1FFF
(1786395971.924547) can1 18FEF111#FFA804CCFFFF1FFF
(1786395971.990955) can1 18FEF111#FF9403CCFFFF1FFF
(1786395972.125106) can1 18FEF111#FF9003CCFFFF1FFF
(1786395972.246534) can1 18FEF111#FF9C03CCFFFF1FFF
(1786395972.352175) can1 18FEF111#FF2403CCFFFF1FFF
(1786395972.518123) can1 18FEF111#FF2003CCFFFF1FFF
(1786395972.562639) can1 18FEF111#FF1803CCFFFF1FFF
(1786395972.608446) can1 18FEF111#FF1403CCFFFF1FFF
(1786395972.685597) can1 18FEF111#FFB402CCFFFF1FFF
(1786395972.821257) can1 18FEF111#FFA402CCFFFF1FFF
(1786395972.912995) can1 18FEF111#FF9C02CCFFFF1FFF
(1786395973.049062) can1 18FEF111#FF8C02CCFFFF1FFF
(1786395973.138119) can1 18FEF111#FF9002CCFFFF1FFF
(1786395973.185898) can1 18FEF111#FF9802CCFFFF1FFF
(1786395973.305217) can1 18FEF111#FF9402CCFFFF1FFF
(1786395973.409496) can1 18FEF111#FFC002CCFFFF1FFF
(1786395973.455050) can1 18FEF111#FFC402CCFFFF1FFF
(1786395973.705758) can1 18FEF111#FFC002CCFFFF1FFF
(1786395973.772486) can1 18FEF111#FFAC02CCFFFF1FFF
(1786395973.820446) can1 18FEF111#FFA402CCFFFF1FFF
(1786395974.029429) can1 18FEF111#FF9002CCFFFF1FFF
(1786395974.122421) can1 18FEF111#FF3C01CCFFFF1FFF
(1786395974.168922) can1 18FEF111#FF3001CCFFFF1FFF
(1786395974.330433) can1 18FEF111#FFA800CCFFFF1FFF
(1786395974.470732) can1 18FEF111#FF0000CCFFFF1FFF
(1786395977.139812) can1 18F00503#7C00007C204E4E32
(1786395978.019848) can1 18FEF111#FF4002CCFFFF1FFF
(1786395978.063819) can1 18FEF111#FF9C02CCFFFF1FFF
(1786395978.108338) can1 18FEF111#FFE002CCFFFF1FFF
(1786395978.152757) can1 18FEF111#FFFC02CCFFFF1FFF
(1786395978.241923) can1 18FEF111#FF5003CCFFFF1FFF
(1786395978.322261) can1 18FEF111#FF4403CCFFFF1FFF
(1786395978.393156) can1 18FEF111#FFCC02CCFFFF1FFF
(1786395978.467035) can1 18FEF111#FF7002CCFFFF1FFF
(1786395978.604049) can1 18FEF111#FF4802CCFFFF1FFF
(1786395978.648754) can1 18FEF111#FFA401CCFFFF1FFF
(1786395978.741939) can1 18FEF111#FFAC03CCFFFF1FFF
(1786395978.815203) can1 18FEF111#FFE003CCFFFF1FFF
(1786395978.860437) can1 18FEF111#FFF003CCFFFF1FFF
(1786395978.904467) can1 18FEF111#FF7004CCFFFF1FFF
(1786395978.951763) can1 18FEF111#FFA404CCFFFF1FFF
(1786395978.995221) can1 18FEF111#FFD004CCFFFF1FFF
(1786395979.096964) can1 18FEF111#FFA406CCFFFF1FFF
(1786395979.215534) can1 18FEF111#FFA806CCFFFF1FFF
(1786395979.261085) can1 18FEF111#FF9806CCFFFF1FFF
(1786395979.305357) can1 18FEF111#FF9006CCFFFF1FFF
(1786395979.350563) can1 18FEF111#FF8006CCFFFF1FFF
(1786395979.436621) can1 18FEF111#FFE407CCFFFF1FFF
(1786395979.482738) can1 18FEF111#FFE807CCFFFF1FFF
(1786395979.526838) can1 18FEF111#FFF807CCFFFF1FFF
(1786395979.570308) can1 18FEF111#FF0C08CCFFFF1FFF
(1786395979.690078) can1 18FEF111#FF3808CCFFFF1FFF
(1786395979.746724) can1 18FEF111#FF6408CCFFFF1FFF
(1786395979.809520) can1 18FEF111#FF900ACCFFFF1FFF
(1786395979.855156) can1 18FEF111#FFA00ACCFFFF1FFF
(1786395979.901236) can1 18FEF111#FFB00ACCFFFF1FFF
(1786395980.108973) can1 18FEF111#FFB80ACCFFFF1FFF
(1786395980.173868) can1 18FEF111#FFE80BCCFFFF1FFF
(1786395980.247805) can1 18FEF111#FFEC0BCCFFFF1FFF
(1786395980.293018) can1 18FEF111#FFFC0BCCFFFF1FFF
(1786395980.339391) can1 18FEF111#FF140CCCFFFF1FFF
(1786395980.388550) can1 18FEF111#FF200CCCFFFF1FFF
(1786395980.435007) can1 18FEF111#FF580CCCFFFF1FFF
(1786395980.564911) can1 18FEF111#FF480DCCFFFF1FFF
(1786395980.611696) can1 18FEF111#FF680DCCFFFF1FFF
(1786395980.657034) can1 18FEF111#FF780DCCFFFF1FFF
(1786395980.700770) can1 18FEF111#FF640DCCFFFF1FFF
(1786395980.744916) can1 18FEF111#FF800DCCFFFF1FFF
(1786395980.794523) can1 18FEF111#FFA80DCCFFFF1FFF
(1786395980.882873) can1 18FEF111#FFDC0DCCFFFF1FFF
(1786395980.928075) can1 18FEF111#FFE40DCCFFFF1FFF
(1786395980.973706) can1 18FEF111#FFC00DCCFFFF1FFF
(1786395981.091900) can1 18FEF111#FFE40DCCFFFF1FFF
(1786395981.138196) can1 18FEF111#FFCC0DCCFFFF1FFF
(1786395981.178279) can1 18FEF111#FFC80DCCFFFF1FFF
(1786395981.245921) can1 18FEF111#FFA80ECCFFFF1FFF
(1786395981.363872) can1 18FEF111#FF9C0ECCFFFF1FFF
(1786395981.406936) can1 18FEF111#FFAC0ECCFFFF1FFF
(1786395981.453027) can1 18FEF111#FF9C0ECCFFFF1FFF
(1786395981.498367) can1 18FEF111#FFA00ECCFFFF1FFF
(1786395981.605381) can1 18FEF111#FF640ECCFFFF1FFF
(1786395981.677291) can1 18FEF111#FF580ECCFFFF1FFF
(1786395981.724430) can1 18FEF111#FF4C0ECCFFFF1FFF
(1786395981.769936) can1 18FEF111#FF500ECCFFFF1FFF
(1786395981.813878) can1 18FEF111#FF640ECCFFFF1FFF
(1786395981.967965) can1 18FEF111#FF940ECCFFFF1FFF
(1786395982.038669) can1 18FEF111#FF7C0ECCFFFF1FFF
(1786395982.085146) can1 18FEF111#FF780ECCFFFF1FFF
(1786395982.130062) can1 18FEF111#FF800ECCFFFF1FFF
(1786395982.219648) can1 18FEF111#FF700ECCFFFF1FFF
(1786395982.341964) can1 18FEF111#FF500ECCFFFF1FFF
(1786395982.390405) can1 18FEF111#FF4C0ECCFFFF1FFF
(1786395982.434226) can1 18FEF111#FF540ECCFFFF1FFF
(1786395982.479193) can1 18FEF111#FF3C0ECCFFFF1FFF
(1786395982.521047) can1 18FEF111#FF640ECCFFFF1FFF
(1786395982.566251) can1 18FEF111#FF680ECCFFFF1FFF
(1786395982.667459) can1 18FEF111#FF380ECCFFFF1FFF
(1786395982.740276) can1 18FEF111#FF340ECCFFFF1FFF
(1786395982.785286) can1 18FEF111#FF3C0ECCFFFF1FFF
(1786395982.828941) can1 18FEF111#FF380ECCFFFF1FFF
(1786395982.874609) can1 18FEF111#FF340ECCFFFF1FFF
(1786395983.011282) can1 18FEF111#FF480ECCFFFF1FFF
(1786395983.058557) can1 18FEF111#FF440ECCFFFF1FFF
(1786395983.130244) can1 18FEF111#FF340ECCFFFF1FFF
(1786395983.175853) can1 18FEF111#FF240ECCFFFF1FFF
(1786395983.219759) can1 18FEF111#FF200ECCFFFF1FFF
(1786395983.265213) can1 18FEF111#FF340ECCFFFF1FFF
(1786395983.312636) can1 18FEF111#FF4C0ECCFFFF1FFF
(1786395983.371319) can1 18FEF111#FF040ECCFFFF1FFF
(1786395983.415802) can1 18FEF111#FF0C0ECCFFFF1FFF
(1786395983.460019) can1 18FEF111#FF100ECCFFFF1FFF
(1786395983.536569) can1 18FEF111#FF1C0ECCFFFF1FFF
(1786395983.578898) can1 18FEF111#FF0C0ECCFFFF1FFF
(1786395983.624726) can1 18FEF111#FF1C0ECCFFFF1FFF
(1786395983.669274) can1 18FEF111#FF280ECCFFFF1FFF
(1786395983.736747) can1 18FEF111#FF1C0ECCFFFF1FFF
(1786395983.898464) can1 18FEF111#FF180ECCFFFF1FFF
(1786395983.943557) can1 18FEF111#FF040ECCFFFF1FFF
(1786395983.988664) can1 18FEF111#FF180ECCFFFF1FFF
(1786395984.093679) can1 18FEF111#FFF40DCCFFFF1FFF
(1786395984.168146) can1 18FEF111#FFD80DCCFFFF1FFF
(1786395984.212833) can1 18FEF111#FFD40DCCFFFF1FFF
(1786395984.259761) can1 18FEF111#FFBC0DCCFFFF1FFF
(1786395984.304741) can1 18FEF111#FFC00DCCFFFF1FFF
(1786395984.347726) can1 18FEF111#FFCC0DCCFFFF1FFF
(1786395984.427368) can1 18FEF111#FF080ECCFFFF1FFF
(1786395984.472428) can1 18FEF111#FFDC0DCCFFFF1FFF
(1786395984.514975) can1 18FEF111#FFF00DCCFFFF1FFF
(1786395984.559869) can1 18FEF111#FFE40DCCFFFF1FFF
(1786395984.605760) can1 18FEF111#FF040ECCFFFF1FFF
(1786395984.832595) can1 18FEF111#FFDC0DCCFFFF1FFF
(1786395984.878724) can1 18FEF111#FFD40DCCFFFF1FFF
(1786395985.014992) can1 18FEF111#FFD80DCCFFFF1FFF
(1786395985.058402) can1 18FEF111#FFC40DCCFFFF1FFF
(1786395985.193618) can1 18FEF111#FFA80DCCFFFF1FFF
(1786395985.240043) can1 18FEF111#FF980DCCFFFF1FFF
(1786395985.285709) can1 18FEF111#FF9C0DCCFFFF1FFF
(1786395985.331067) can1 18FEF111#FF940DCCFFFF1FFF
(1786395985.404841) can1 18FEF111#FF880DCCFFFF1FFF
(1786395985.443899) can1 18FEF111#FF800DCCFFFF1FFF
(1786395985.515660) can1 18FEF111#FFA00DCCFFFF1FFF
(1786395985.635125) can1 18FEF111#FF900DCCFFFF1FFF
(1786395985.682105) can1 18FEF111#FF800DCCFFFF1FFF
(1786395985.861148) can1 18FEF111#FF780DCCFFFF1FFF
(1786395985.955127) can1 18FEF111#FF700DCCFFFF1FFF
(1786395986.000177) can1 18FEF111#FF800DCCFFFF1FFF
(1786395986.072449) can1 18FEF111#FF700DCCFFFF1FFF
(1786395986.117360) can1 18FEF111#FF600DCCFFFF1FFF
(1786395986.152916) can1 18FEF111#FF740DCCFFFF1FFF
(1786395986.241575) can1 18FEF111#FF9C0DCCFFFF1FFF
(1786395986.287419) can1 18FEF111#FF880DCCFFFF1FFF
(1786395986.331426) can1 18FEF111#FF900DCCFFFF1FFF
(1786395986.376786) can1 18FEF111#FFA00DCCFFFF1FFF
(1786395986.422747) can1 18FEF111#FF880DCCFFFF1FFF
(1786395986.467346) can1 18FEF111#FF9C0DCCFFFF1FFF
(1786395986.562665) can1 18FEF111#FF800DCCFFFF1FFF
(1786395986.608874) can1 18FEF111#FF900DCCFFFF1FFF
(1786395986.682516) can1 18FEF111#FF9C0DCCFFFF1FFF
(1786395986.728168) can1 18FEF111#FF7C0DCCFFFF1FFF
(1786395986.774674) can1 18FEF111#FF640DCCFFFF1FFF
(1786395986.820280) can1 18FEF111#FF740DCCFFFF1FFF
(1786395986.908557) can1 18FEF111#FF880DCCFFFF1FFF
(1786395987.000593) can1 18FEF111#FF900DCCFFFF1FFF
(1786395987.046506) can1 18FEF111#FF780DCCFFFF1FFF
(1786395987.138473) can1 18FEF111#FF940DCCFFFF1FFF
(1786395987.206354) can1 18FEF111#FF800DCCFFFF1FFF
(1786395987.365209) can1 18FEF111#FF680DCCFFFF1FFF
(1786395987.437203) can1 18FEF111#FF6C0DCCFFFF1FFF
(1786395987.481742) can1 18FEF111#FF640DCCFFFF1FFF
(1786395987.533053) can1 18FEF111#FF540DCCFFFF1FFF
(1786395987.572251) can1 18FEF111#FF800DCCFFFF1FFF
(1786395987.630161) can1 18FEF111#FF740DCCFFFF1FFF
(1786395987.678297) can1 18FEF111#FF800DCCFFFF1FFF
(1786395987.724436) can1 18FEF111#FF840DCCFFFF1FFF
(1786395987.795314) can1 18FEF111#FF6C0DCCFFFF1FFF
(1786395987.841774) can1 18FEF111#FF500DCCFFFF1FFF
(1786395987.887210) can1 18FEF111#FF580DCCFFFF1FFF
(1786395987.933264) can1 18FEF111#FF500DCCFFFF1FFF
(1786395987.986747) can1 18FEF111#FF5C0DCCFFFF1FFF
(1786395988.032306) can1 18FEF111#FF780DCCFFFF1FFF
(1786395988.079340) can1 18FEF111#FF600DCCFFFF1FFF
(1786395988.126938) can1 18FEF111#FF780DCCFFFF1FFF
(1786395988.243112) can1 18FEF111#FF5C0DCCFFFF1FFF
(1786395988.288330) can1 18FEF111#FF580DCCFFFF1FFF
(1786395988.347161) can1 18FEF111#FF3C0DCCFFFF1FFF
(1786395988.392665) can1 18FEF111#FF440DCCFFFF1FFF
(1786395988.438993) can1 18FEF111#FF5C0DCCFFFF1FFF
(1786395988.483304) can1 18FEF111#FF580DCCFFFF1FFF
(1786395988.557492) can1 18FEF111#FF600DCCFFFF1FFF
(1786395988.603542) can1 18FEF111#FF700DCCFFFF1FFF
(1786395988.647290) can1 18FEF111#FF680DCCFFFF1FFF
(1786395988.714864) can1 18FEF111#FF700DCCFFFF1FFF
(1786395988.790188) can1 18FEF111#FF400DCCFFFF1FFF
(1786395988.834007) can1 18FEF111#FF380DCCFFFF1FFF
(1786395988.878012) can1 18FEF111#FF300DCCFFFF1FFF
(1786395988.922516) can1 18FEF111#FF580DCCFFFF1FFF
(1786395988.968446) can1 18FEF111#FF7C0DCCFFFF1FFF
(1786395989.058953) can1 18FEF111#FF880DCCFFFF1FFF
(1786395989.104765) can1 18FEF111#FF600DCCFFFF1FFF
(1786395989.149748) can1 18FEF111#FF300DCCFFFF1FFF
(1786395989.311565) can1 18FEF111#FF480DCCFFFF1FFF
(1786395989.351774) can1 18FEF111#FF500DCCFFFF1FFF
(1786395989.412007) can1 18FEF111#FF780DCCFFFF1FFF
(1786395989.458852) can1 18FEF111#FF940DCCFFFF1FFF
(1786395989.549184) can1 18FEF111#FF900DCCFFFF1FFF
(1786395989.588102) can1 18FEF111#FF700DCCFFFF1FFF
(1786395989.663644) can1 18FEF111#FF3C0DCCFFFF1FFF
(1786395989.708348) can1 18FEF111#FF480DCCFFFF1FFF
(1786395989.772413) can1 18FEF111#FF3C0DCCFFFF1FFF
(1786395989.818075) can1 18FEF111#FF4C0DCCFFFF1FFF
(1786395989.863298) can1 18FEF111#FF600DCCFFFF1FFF
(1786395989.937827) can1 18FEF111#FF800DCCFFFF1FFF
(1786395989.981701) can1 18FEF111#FF840DCCFFFF1FFF
(1786395990.028563) can1 18FEF111#FF800DCCFFFF1FFF
(1786395990.063926) can1 18FEF111#FF780DCCFFFF1FFF
(1786395990.159144) can1 18FEF111#FF240DCCFFFF1FFF
(1786395990.205118) can1 18FEF111#FF2C0DCCFFFF1FFF
(1786395990.293611) can1 18FEF111#FF400DCCFFFF1FFF
(1786395990.338793) can1 18FEF111#FF580DCCFFFF1FFF
(1786395990.480356) can1 18FEF111#FF4C0DCCFFFF1FFF
(1786395990.525119) can1 18FEF111#FF6C0DCCFFFF1FFF
(1786395990.570142) can1 18FEF111#FF600DCCFFFF1FFF
(1786395990.614579) can1 18FEF111#FF580DCCFFFF1FFF
(1786395990.733268) can1 18FEF111#FF500DCCFFFF1FFF
(1786395990.772968) can1 18FEF111#FF300DCCFFFF1FFF
(1786395990.843794) can1 18FEF111#FF440DCCFFFF1FFF
(1786395990.914189) can1 18FEF111#FF400DCCFFFF1FFF
(1786395990.960807) can1 18FEF111#FF140DCCFFFF1FFF
(1786395991.004735) can1 18FEF111#FF1C0DCCFFFF1FFF
(1786395991.049534) can1 18FEF111#FF140DCCFFFF1FFF
(1786395991.196149) can1 18FEF111#FF440DCCFFFF1FFF
(1786395991.242028) can1 18FEF111#FF3C0DCCFFFF1FFF
(1786395991.312308) can1 18FEF111#FF200DCCFFFF1FFF
(1786395991.358809) can1 18FEF111#FF300DCCFFFF1FFF
(1786395991.401313) can1 18FEF111#FF340DCCFFFF1FFF
(1786395991.446362) can1 18FEF111#FF140DCCFFFF1FFF
(1786395991.485508) can1 18FEF111#FF300DCCFFFF1FFF
(1786395991.581708) can1 18FEF111#FF3C0DCCFFFF1FFF
(1786395991.628538) can1 18FEF111#FF300DCCFFFF1FFF
(1786395991.674142) can1 18FEF111#FF180DCCFFFF1FFF
(1786395991.718665) can1 18FEF111#FF3C0DCCFFFF1FFF
(1786395991.763918) can1 18FEF111#FF340DCCFFFF1FFF
(1786395991.896236) can1 18FEF111#FF140DCCFFFF1FFF
(1786395991.988150) can1 18FEF111#FF3C0DCCFFFF1FFF
(1786395992.032185) can1 18FEF111#FF440DCCFFFF1FFF
(1786395992.120629) can1 18FEF111#FF300DCCFFFF1FFF
(1786395992.203529) can1 18FEF111#FF280DCCFFFF1FFF
(1786395992.270957) can1 18FEF111#FF240DCCFFFF1FFF
(1786395992.318202) can1 18FEF111#FF400DCCFFFF1FFF
(1786395992.360039) can1 18FEF111#FF3C0DCCFFFF1FFF
(1786395992.434827) can1 18FEF111#FF400DCCFFFF1FFF
(1786395992.449186) can1 18FEF111#FF5C0DCCFFFF1FFF
(1786395992.526504) can1 18FEF111#FF4C0DCCFFFF1FFF
(1786395992.569771) can1 18FEF111#FF380DCCFFFF1FFF
(1786395992.627748) can1 18FEF111#FF480DCCFFFF1FFF
(1786395992.669869) can1 18FEF111#FF280DCCFFFF1FFF
(1786395992.760106) can1 18FEF111#FF580DCCFFFF1FFF
(1786395992.806660) can1 18FEF111#FF500DCCFFFF1FFF
(1786395992.852280) can1 18FEF111#FF4C0DCCFFFF1FFF
(1786395992.925318) can1 18FEF111#FF480DCCFFFF1FFF
(1786395992.986642) can1 18FEF111#FF3C0DCCFFFF1FFF
(1786395993.079372) can1 18FEF111#FF480DCCFFFF1FFF
(1786395993.123015) can1 18FEF111#FF4C0DCCFFFF1FFF
(1786395993.197674) can1 18FEF111#FF440DCCFFFF1FFF
(1786395993.243853) can1 18FEF111#FF3C0DCCFFFF1FFF
(1786395993.292516) can1 18FEF111#FF440DCCFFFF1FFF
(1786395993.361832) can1 18FEF111#FF180DCCFFFF1FFF
(1786395993.438404) can1 18FEF111#FF440DCCFFFF1FFF
(1786395993.484297) can1 18FEF111#FF2C0DCCFFFF1FFF
(1786395993.527439) can1 18FEF111#FF480DCCFFFF1FFF
(1786395993.573200) can1 18FEF111#FF4C0DCCFFFF1FFF
(1786395993.619566) can1 18FEF111#FF3C0DCCFFFF1FFF
(1786395993.753016) can1 18FEF111#FF400DCCFFFF1FFF
(1786395993.797013) can1 18FEF111#FF280DCCFFFF1FFF
(1786395993.842398) can1 18FEF111#FF140DCCFFFF1FFF
(1786395993.886253) can1 18FEF111#FF280DCCFFFF1FFF
(1786395993.930555) can1 18FEF111#FF180DCCFFFF1FFF
(1786395994.069379) can1 18FEF111#FF1C0DCCFFFF1FFF
(1786395994.206736) can1 18FEF111#FF380DCCFFFF1FFF
(1786395994.250921) can1 18FEF111#FF2C0DCCFFFF1FFF
(1786395994.327097) can1 18FEF111#FF040DCCFFFF1FFF
(1786395994.365777) can1 18FEF111#FF140DCCFFFF1FFF
(1786395994.478303) can1 18FEF111#FF000DCCFFFF1FFF
(1786395994.595210) can1 18FEF111#FF340DCCFFFF1FFF
(1786395994.641830) can1 18FEF111#FF1C0DCCFFFF1FFF
(1786395994.688940) can1 18FEF111#FF0C0DCCFFFF1FFF
(1786395994.778048) can1 18FEF111#FF080DCCFFFF1FFF
(1786395994.823818) can1 18FEF111#FFEC0CCCFFFF1FFF
(1786395994.871079) can1 18FEF111#FFF00CCCFFFF1FFF
(1786395994.915468) can1 18FEF111#FF040DCCFFFF1FFF
(1786395994.963222) can1 18FEF111#FFFC0CCCFFFF1FFF
(1786395995.007340) can1 18FEF111#FFD00CCCFFFF1FFF
(1786395995.080090) can1 18FEF111#FFE40CCCFFFF1FFF
(1786395995.150157) can1 18FEF111#FF200DCCFFFF1FFF
(1786395995.224845) can1 18FEF111#FF0C0DCCFFFF1FFF
(1786395995.271725) can1 18FEF111#FF400DCCFFFF1FFF
(1786395995.316508) can1 18FEF111#FF200DCCFFFF1FFF
(1786395995.409957) can1 18FEF111#FF440DCCFFFF1FFF
(1786395995.542638) can1 18FEF111#FF000DCCFFFF1FFF
(1786395995.589694) can1 18FEF111#FF400DCCFFFF1FFF
(1786395995.632883) can1 18FEF111#FF300DCCFFFF1FFF
(1786395995.677083) can1 18FEF111#FF080DCCFFFF1FFF
(1786395995.767205) can1 18FEF111#FF180DCCFFFF1FFF
(1786395995.861703) can1 18FEF111#FF040DCCFFFF1FFF
(1786395995.906633) can1 18FEF111#FF200DCCFFFF1FFF
(1786395995.954335) can1 18FEF111#FF340DCCFFFF1FFF
(1786395996.026543) can1 18FEF111#FF280DCCFFFF1FFF
(1786395996.072987) can1 18FEF111#FF3C0DCCFFFF1FFF
(1786395996.119346) can1 18FEF111#FF500DCCFFFF1FFF
(1786395996.208491) can1 18FEF111#FF440DCCFFFF1FFF
(1786395996.256447) can1 18FEF111#FF680DCCFFFF1FFF
(1786395996.300953) can1 18FEF111#FF5C0DCCFFFF1FFF
(1786395996.344309) can1 18FEF111#FF4C0DCCFFFF1FFF
(1786395996.388136) can1 18FEF111#FF3C0DCCFFFF1FFF
(1786395996.435103) can1 18FEF111#FF2C0DCCFFFF1FFF
(1786395996.480941) can1 18FEF111#FF200DCCFFFF1FFF
(1786395996.575987) can1 18FEF111#FF540DCCFFFF1FFF
(1786395996.738427) can1 18FEF111#FF340DCCFFFF1FFF
(1786395996.782871) can1 18FEF111#FF240DCCFFFF1FFF
(1786395996.950462) can1 18FEF111#FF200DCCFFFF1FFF
(1786395996.994996) can1 18FEF111#FF140DCCFFFF1FFF
(1786395997.039773) can1 18FEF111#FF240DCCFFFF1FFF
(1786395997.084023) can1 18FEF111#FF300DCCFFFF1FFF
(1786395997.132106) can1 18FEF111#FF5C0DCCFFFF1FFF
(1786395997.178303) can1 18FEF111#FF480DCCFFFF1FFF
(1786395997.266772) can1 18FEF111#FF280DCCFFFF1FFF
(1786395997.312279) can1 18FEF111#FF400DCCFFFF1FFF
(1786395997.359557) can1 18FEF111#FF300DCCFFFF1FFF
(1786395997.405681) can1 18FEF111#FF500DCCFFFF1FFF
(1786395997.449304) can1 18FEF111#FF600DCCFFFF1FFF
(1786395997.524291) can1 18FEF111#FF340DCCFFFF1FFF
(1786395997.568050) can1 18FEF111#FF280DCCFFFF1FFF
(1786395997.669349) can1 18FEF111#FF1C0DCCFFFF1FFF
(1786395997.761135) can1 18FEF111#FF280DCCFFFF1FFF
(1786395997.805624) can1 18FEF111#FF180DCCFFFF1FFF
(1786395997.852204) can1 18FEF111#FF140DCCFFFF1FFF
(1786395997.897270) can1 18FEF111#FF3C0DCCFFFF1FFF
(1786395997.986667) can1 18FEF111#FF340DCCFFFF1FFF
(1786395998.035506) can1 18FEF111#FF1C0DCCFFFF1FFF
(1786395998.082314) can1 18FEF111#FF2C0DCCFFFF1FFF
(1786395998.129184) can1 18FEF111#FF280DCCFFFF1FFF
(1786395998.169294) can1 18FEF111#FF180DCCFFFF1FFF
(1786395998.244772) can1 18FEF111#FF4C0DCCFFFF1FFF
(1786395998.283426) can1 18FEF111#FF3C0DCCFFFF1FFF
(1786395998.351170) can1 18FEF111#FF080DCCFFFF1FFF
(1786395998.399045) can1 18FEF111#FF300DCCFFFF1FFF
(1786395998.559005) can1 18FEF111#FF200DCCFFFF1FFF
(1786395998.606176) can1 18FEF111#FF180DCCFFFF1FFF
(1786395998.698953) can1 18FEF111#FFF00CCCFFFF1FFF
(1786395998.746123) can1 18FEF111#FF140DCCFFFF1FFF
(1786395998.792273) can1 18FEF111#FF240DCCFFFF1FFF
(1786395998.836192) can1 18FEF111#FF100DCCFFFF1FFF
(1786395998.879851) can1 18FEF111#FF000DCCFFFF1FFF
(1786395998.923636) can1 18FEF111#FF240DCCFFFF1FFF
(1786395998.994224) can1 18FEF111#FF040DCCFFFF1FFF
(1786395999.066567) can1 18FEF111#FF1C0DCCFFFF1FFF
(1786395999.135795) can1 18FEF111#FF340DCCFFFF1FFF
(1786395999.181245) can1 18FEF111#FF300DCCFFFF1FFF
(1786395999.226509) can1 18FEF111#FF140DCCFFFF1FFF
(1786395999.273391) can1 18FEF111#FF4C0DCCFFFF1FFF
(1786395999.320426) can1 18FEF111#FF440DCCFFFF1FFF
(1786395999.423127) can1 18FEF111#FF400DCCFFFF1FFF
(1786395999.541332) can1 18FEF111#FF2C0DCCFFFF1FFF
(1786395999.675045) can1 18FEF111#FF100DCCFFFF1FFF
(1786395999.718995) can1 18FEF111#FF440DCCFFFF1FFF
(1786395999.784242) can1 18FEF111#FF2C0DCCFFFF1FFF
(1786395999.829249) can1 18FEF111#FF300DCCFFFF1FFF
(1786395999.902673) can1 18FEF111#FFF00CCCFFFF1FFF
(1786395999.949487) can1 18FEF111#FFE80CCCFFFF1FFF
(1786395999.994287) can1 18FEF111#FFDC0CCCFFFF1FFF
(1786396000.038462) can1 18FEF111#FFD00CCCFFFF1FFF
(1786396000.125124) can1 18FEF111#FF240DCCFFFF1FFF
(1786396000.170871) can1 18FEF111#FF1C0DCCFFFF1FFF
(1786396000.262208) can1 18FEF111#FF3C0DCCFFFF1FFF
(1786396000.306342) can1 18FEF111#FF400DCCFFFF1FFF
(1786396000.350802) can1 18FEF111#FF280DCCFFFF1FFF
(1786396000.394715) can1 18FEF111#FF100DCCFFFF1FFF
(1786396000.493225) can1 18FEF111#FF300DCCFFFF1FFF
(1786396000.541347) can1 18FEF111#FF280DCCFFFF1FFF
(1786396000.615689) can1 18FEF111#FF440DCCFFFF1FFF
(1786396000.704945) can1 18FEF111#FF140DCCFFFF1FFF
(1786396000.750894) can1 18FEF111#FF200DCCFFFF1FFF
(1786396000.837584) can1 18FEF111#FFE80CCCFFFF1FFF
(1786396000.927331) can1 18FEF111#FFB00CCCFFFF1FFF
(1786396000.971473) can1 18FEF111#FFF00CCCFFFF1FFF
(1786396001.015281) can1 18FEF111#FFD80CCCFFFF1FFF
(1786396001.058865) can1 18FEF111#FFB00CCCFFFF1FFF
(1786396001.104793) can1 18FEF111#FFF00CCCFFFF1FFF
(1786396001.200254) can1 18FEF111#FFA80CCCFFFF1FFF
(1786396001.248269) can1 18FEF111#FFA40CCCFFFF1FFF
(1786396001.322609) can1 18FEF111#FF800CCCFFFF1FFF
(1786396001.337737) can1 18FEF111#FF900CCCFFFF1FFF
(1786396001.412140) can1 18FEF111#FFA40CCCFFFF1FFF
(1786396001.456894) can1 18FEF111#FF980CCCFFFF1FFF
(1786396001.548237) can1 18FEF111#FF240CCCFFFF1FFF
(1786396001.596008) can1 18FEF111#FF080CCCFFFF1FFF
(1786396001.685587) can1 18FEF111#FFF00BCCFFFF1FFF
(1786396001.730497) can1 18FEF111#FFE00BCCFFFF1FFF
(1786396001.778443) can1 18FEF111#FFC00BCCFFFF1FFF
(1786396001.840950) can1 18FEF111#FFB80BCCFFFF1FFF
(1786396001.894820) can1 18FEF111#FF8C09CCFFFF1FFF
(1786396001.943020) can1 18FEF111#FF7409CCFFFF1FFF
(1786396001.991943) can1 18FEF111#FF6C09CCFFFF1FFF
(1786396002.063295) can1 18FEF111#FF6809CCFFFF1FFF
(1786396002.108876) can1 18FEF111#FF5009CCFFFF1FFF
(1786396002.153576) can1 18FEF111#FF4C09CCFFFF1FFF
(1786396002.199710) can1 18FEF111#FF3809CCFFFF1FFF
(1786396002.294116) can1 18FEF111#FF8C06CCFFFF1FFF
(1786396002.338879) can1 18FEF111#FF7806CCFFFF1FFF
(1786396002.383934) can1 18FEF111#FF5C06CCFFFF1FFF
(1786396002.428749) can1 18FEF111#FF4806CCFFFF1FFF
(1786396002.476656) can1 18FEF111#FF3806CCFFFF1FFF
(1786396002.525319) can1 18FEF111#FF1006CCFFFF1FFF
(1786396002.622273) can1 18FEF111#FFE004CCFFFF1FFF
(1786396002.666613) can1 18FEF111#FFD804CCFFFF1FFF
(1786396002.785017) can1 18FEF111#FFD404CCFFFF1FFF
(1786396002.832429) can1 18FEF111#FFD004CCFFFF1FFF
(1786396002.876716) can1 18FEF111#FFC804CCFFFF1FFF
(1786396002.984960) can1 18FEF111#FF7404CCFFFF1FFF
(1786396003.056300) can1 18FEF111#FF7C04CCFFFF1FFF
(1786396003.149843) can1 18FEF111#FF7404CCFFFF1FFF
(1786396003.197288) can1 18FEF111#FF6804CCFFFF1FFF
(1786396003.241794) can1 18FEF111#FF6004CCFFFF1FFF
(1786396003.343729) can1 18FEF111#FF9403CCFFFF1FFF
(1786396003.416236) can1 18FEF111#FF8C03CCFFFF1FFF
(1786396003.464385) can1 18FEF111#FF8803CCFFFF1FFF
(1786396003.506903) can1 18FEF111#FF7003CCFFFF1FFF
(1786396003.551911) can1 18FEF111#FF6403CCFFFF1FFF
(1786396003.599847) can1 18FEF111#FF5803CCFFFF1FFF
(1786396003.688275) can1 18FEF111#FF4C02CCFFFF1FFF
(1786396003.735165) can1 18FEF111#FF4802CCFFFF1FFF
(1786396003.826104) can1 18FEF111#FF4402CCFFFF1FFF
(1786396003.870193) can1 18FEF111#FF3802CCFFFF1FFF
(1786396003.986645) can1 18FEF111#FF2C02CCFFFF1FFF
(1786396004.046172) can1 18FEF111#FFD801CCFFFF1FFF
(1786396004.138569) can1 18FEF111#FFD401CCFFFF1FFF
(1786396004.184087) can1 18FEF111#FFB801CCFFFF1FFF
(1786396004.227866) can1 18FEF111#FFB001CCFFFF1FFF
(1786396004.273684) can1 18FEF111#FFAC01CCFFFF1FFF
(1786396004.395636) can1 18FEF111#FFE801CCFFFF1FFF
(1786396004.530876) can1 18FEF111#FF0002CCFFFF1FFF
(1786396004.575571) can1 18FEF111#FF0802CCFFFF1FFF
(1786396004.619379) can1 18FEF111#FF2002CCFFFF1FFF
(1786396004.773013) can1 18FEF111#FFA802CCFFFF1FFF
(1786396004.844741) can1 18FEF111#FFB002CCFFFF1FFF
(1786396005.118712) can1 18FEF111#FF5C03CCFFFF1FFF
(1786396005.164549) can1 18FEF111#FF6003CCFFFF1FFF
(1786396005.208933) can1 18FEF111#FF7003CCFFFF1FFF
(1786396005.300846) can1 18FEF111#FF7803CCFFFF1FFF
(1786396005.344343) can1 18FEF111#FF9403CCFFFF1FFF
(1786396005.388972) can1 18FEF111#FFA003CCFFFF1FFF
(1786396005.482563) can1 18FEF111#FFAC04CCFFFF1FFF
(1786396005.649652) can1 18FEF111#FFB004CCFFFF1FFF
(1786396005.739777) can1 18FEF111#FFB404CCFFFF1FFF
(1786396005.782926) can1 18FEF111#FFB804CCFFFF1FFF
(1786396005.838158) can1 18FEF111#FFB405CCFFFF1FFF
(1786396005.881604) can1 18FEF111#FFC005CCFFFF1FFF
(1786396005.929381) can1 18FEF111#FFC805CCFFFF1FFF
(1786396005.972720) can1 18FEF111#FFE005CCFFFF1FFF
(1786396006.016397) can1 18FEF111#FFEC05CCFFFF1FFF
(1786396006.061156) can1 18FEF111#FFF005CCFFFF1FFF
(1786396006.106213) can1 18FEF111#FFF405CCFFFF1FFF
(1786396006.200691) can1 18FEF111#FFEC06CCFFFF1FFF
(1786396006.247245) can1 18FEF111#FFF806CCFFFF1FFF
(1786396006.292039) can1 18FEF111#FFEC06CCFFFF1FFF
(1786396006.335724) can1 18FEF111#FFF006CCFFFF1FFF
(1786396006.494008) can1 18FEF111#FFFC06CCFFFF1FFF
(1786396006.548041) can1 18FEF111#FFA007CCFFFF1FFF
(1786396006.594677) can1 18FEF111#FFA407CCFFFF1FFF
(1786396006.684641) can1 18FEF111#FFB807CCFFFF1FFF
(1786396006.773008) can1 18FEF111#FFC407CCFFFF1FFF
(1786396006.821577) can1 18FEF111#FFE407CCFFFF1FFF
(1786396006.894529) can1 18FEF111#FFD808CCFFFF1FFF
(1786396006.939681) can1 18FEF111#FFE408CCFFFF1FFF
(1786396006.984088) can1 18FEF111#FFF408CCFFFF1FFF
(1786396007.029332) can1 18FEF111#FFF008CCFFFF1FFF
(1786396007.074035) can1 18FEF111#FFF408CCFFFF1FFF
(1786396007.117582) can1 18FEF111#FFF808CCFFFF1FFF
(1786396007.196301) can1 18FEF111#FFF408CCFFFF1FFF
(1786396007.256589) can1 18FEF111#FF8409CCFFFF1FFF
(1786396007.388978) can1 18FEF111#FF8009CCFFFF1FFF
(1786396007.477460) can1 18FEF111#FF8C09CCFFFF1FFF
(1786396007.575164) can1 18FEF111#FF8409CCFFFF1FFF
(1786396007.625125) can1 18FEF111#FF600ACCFFFF1FFF
(1786396007.670496) can1 18FEF111#FF700ACCFFFF1FFF
(1786396007.714616) can1 18FEF111#FF800ACCFFFF1FFF
(1786396007.761695) can1 18FEF111#FFA00ACCFFFF1FFF
(1786396007.849554) can1 18FEF111#FFBC0ACCFFFF1FFF
(1786396007.990642) can1 18FEF111#FF240BCCFFFF1FFF
(1786396008.036109) can1 18FEF111#FF180BCCFFFF1FFF
(1786396008.156147) can1 18FEF111#FF240BCCFFFF1FFF
(1786396008.199706) can1 18FEF111#FF200BCCFFFF1FFF
(1786396008.246146) can1 18FEF111#FF0C0BCCFFFF1FFF
(1786396008.354876) can1 18FEF111#FF1C0BCCFFFF1FFF
(1786396008.428543) can1 18FEF111#FF280BCCFFFF1FFF
(1786396008.472934) can1 18FEF111#FF240BCCFFFF1FFF
(1786396008.518015) can1 18FEF111#FF280BCCFFFF1FFF
(1786396008.559570) can1 18FEF111#FF340BCCFFFF1FFF
(1786396008.605850) can1 18FEF111#FF400BCCFFFF1FFF
(1786396008.685119) can1 18FEF111#FF200BCCFFFF1FFF
(1786396008.733675) can1 18FEF111#FF100BCCFFFF1FFF
(1786396008.780729) can1 18FEF111#FFF00ACCFFFF1FFF
(1786396008.865512) can1 18FEF111#FF200BCCFFFF1FFF
(1786396008.942061) can1 18FEF111#FF380BCCFFFF1FFF
(1786396009.045939) can1 18FEF111#FF280BCCFFFF1FFF
(1786396009.093163) can1 18FEF111#FF440BCCFFFF1FFF
(1786396009.136359) can1 18FEF111#FF580BCCFFFF1FFF
(1786396009.181758) can1 18FEF111#FF2C0BCCFFFF1FFF
(1786396009.271633) can1 18FEF111#FF540BCCFFFF1FFF
(1786396009.347024) can1 18FEF111#FF640BCCFFFF1FFF
(1786396009.409094) can1 18FEF111#FF540BCCFFFF1FFF
(1786396009.455436) can1 18FEF111#FF200BCCFFFF1FFF
(1786396009.500245) can1 18FEF111#FF400BCCFFFF1FFF
(1786396009.545619) can1 18FEF111#FF6C0BCCFFFF1FFF
(1786396009.589568) can1 18FEF111#FF280BCCFFFF1FFF
(1786396009.664140) can1 18FEF111#FF240BCCFFFF1FFF
(1786396009.707692) can1 18FEF111#FF480BCCFFFF1FFF
(1786396009.766281) can1 18FEF111#FF240BCCFFFF1FFF
(1786396009.812104) can1 18FEF111#FF180BCCFFFF1FFF
(1786396009.856885) can1 18FEF111#FFE40ACCFFFF1FFF
(1786396009.903908) can1 18FEF111#FF1C0BCCFFFF1FFF
(1786396009.978607) can1 18FEF111#FF240BCCFFFF1FFF
(1786396010.024104) can1 18FEF111#FFEC0ACCFFFF1FFF
(1786396010.067366) can1 18FEF111#FFF00ACCFFFF1FFF
(1786396010.126682) can1 18FEF111#FFC40ACCFFFF1FFF
(1786396010.174698) can1 18FEF111#FFF00ACCFFFF1FFF
(1786396010.218425) can1 18FEF111#FFF40ACCFFFF1FFF
(1786396010.263069) can1 18FEF111#FFDC0ACCFFFF1FFF
(1786396010.306349) can1 18FEF111#FFBC0ACCFFFF1FFF
(1786396010.354387) can1 18FEF111#FFF00ACCFFFF1FFF
(1786396010.430103) can1 18FEF111#FF000BCCFFFF1FFF
(1786396010.502205) can1 18FEF111#FFC00ACCFFFF1FFF
(1786396010.578375) can1 18FEF111#FFBC0ACCFFFF1FFF
(1786396010.624577) can1 18FEF111#FFCC0ACCFFFF1FFF
(1786396010.713331) can1 18FEF111#FFBC0ACCFFFF1FFF
(1786396010.850621) can1 18FEF111#FF900ACCFFFF1FFF
(1786396010.899120) can1 18FEF111#FFA80ACCFFFF1FFF
(1786396010.943094) can1 18FEF111#FFB00ACCFFFF1FFF
(1786396010.985878) can1 18FEF111#FFA00ACCFFFF1FFF
(1786396011.059786) can1 18FEF111#FF840ACCFFFF1FFF
(1786396011.105593) can1 18FEF111#FFA40ACCFFFF1FFF
(1786396011.146310) can1 18FEF111#FFAC0ACCFFFF1FFF
(1786396011.195300) can1 18FEF111#FF600ACCFFFF1FFF
(1786396011.241759) can1 18FEF111#FF700ACCFFFF1FFF
(1786396011.287671) can1 18FEF111#FF7C0ACCFFFF1FFF
(1786396011.330700) can1 18FEF111#FF5C0ACCFFFF1FFF
(1786396011.374412) can1 18FEF111#FF600ACCFFFF1FFF
(1786396011.501226) can1 18FEF111#FF700ACCFFFF1FFF
(1786396011.567941) can1 18FEF111#FF1C0ACCFFFF1FFF
(1786396011.612946) can1 18FEF111#FF080ACCFFFF1FFF
(1786396011.658276) can1 18FEF111#FFF009CCFFFF1FFF
(1786396011.731410) can1 18FEF111#FF080ACCFFFF1FFF
(1786396011.777265) can1 18FEF111#FF100ACCFFFF1FFF
(1786396011.821903) can1 18FEF111#FF140ACCFFFF1FFF
(1786396011.866787) can1 18FEF111#FFE409CCFFFF1FFF
(1786396011.930272) can1 18FEF111#FFE809CCFFFF1FFF
(1786396011.972049) can1 18FEF111#FFEC09CCFFFF1FFF
(1786396012.091367) can1 18FEF111#FFD809CCFFFF1FFF
(1786396012.135253) can1 18FEF111#FFE409CCFFFF1FFF
(1786396012.180207) can1 18FEF111#FFF009CCFFFF1FFF
(1786396012.223693) can1 18FEF111#FFCC09CCFFFF1FFF
(1786396012.278626) can1 18FEF111#FF9009CCFFFF1FFF
(1786396012.323688) can1 18FEF111#FFB809CCFFFF1FFF
(1786396012.369231) can1 18FEF111#FFD409CCFFFF1FFF
(1786396012.414749) can1 18FEF111#FFDC09CCFFFF1FFF
(1786396012.459661) can1 18FEF111#FF8409CCFFFF1FFF
(1786396012.502896) can1 18FEF111#FF9409CCFFFF1FFF
(1786396012.547690) can1 18FEF111#FFB809CCFFFF1FFF
(1786396012.637369) can1 18FEF111#FFC009CCFFFF1FFF
(1786396012.686040) can1 18FEF111#FFC409CCFFFF1FFF
(1786396012.756954) can1 18FEF111#FFA409CCFFFF1FFF
(1786396012.800419) can1 18FEF111#FFAC09CCFFFF1FFF
(1786396012.844024) can1 18FEF111#FFC009CCFFFF1FFF
(1786396012.934301) can1 18FEF111#FFA009CCFFFF1FFF
(1786396012.988102) can1 18FEF111#FFD809CCFFFF1FFF
(1786396013.034697) can1 18FEF111#FFD409CCFFFF1FFF
(1786396013.079724) can1 18FEF111#FFC809CCFFFF1FFF
(1786396013.124889) can1 18FEF111#FFCC09CCFFFF1FFF
(1786396013.168680) can1 18FEF111#FFE009CCFFFF1FFF
(1786396013.213246) can1 18FEF111#FFD409CCFFFF1FFF
(1786396013.259529) can1 18FEF111#FFD809CCFFFF1FFF
(1786396013.379101) can1 18FEF111#FF140ACCFFFF1FFF
(1786396013.423654) can1 18FEF111#FF200ACCFFFF1FFF
(1786396013.466997) can1 18FEF111#FF240ACCFFFF1FFF
(1786396013.511841) can1 18FEF111#FF300ACCFFFF1FFF
(1786396013.602546) can1 18FEF111#FF480ACCFFFF1FFF
(1786396013.774835) can1 18FEF111#FF7C0ACCFFFF1FFF
(1786396013.864362) can1 18FEF111#FF780ACCFFFF1FFF
(1786396013.908482) can1 18FEF111#FF740ACCFFFF1FFF
(1786396014.050033) can1 18FEF111#FF540BCCFFFF1FFF
(1786396014.094720) can1 18FEF111#FF580BCCFFFF1FFF
(1786396014.138969) can1 18FEF111#FF640BCCFFFF1FFF
(1786396014.182257) can1 18FEF111#FF6C0BCCFFFF1FFF
(1786396014.226131) can1 18FEF111#FF740BCCFFFF1FFF
(1786396014.272758) can1 18FEF111#FF880BCCFFFF1FFF
(1786396014.344274) can1 18FEF111#FF9C0BCCFFFF1FFF
(1786396014.411143) can1 18FEF111#FF180ECCFFFF1FFF
(1786396014.456412) can1 18FEF111#FF100ECCFFFF1FFF
(1786396014.499164) can1 18FEF111#FFDC0DCCFFFF1FFF
(1786396014.542527) can1 18FEF111#FF7C0DCCFFFF1FFF
(1786396014.589693) can1 18FEF111#FF240DCCFFFF1FFF
(1786396014.662185) can1 18FEF111#FF880CCCFFFF1FFF
(1786396014.705166) can1 18FEF111#FF200CCCFFFF1FFF
(1786396014.771460) can1 18FEF111#FF5C0CCCFFFF1FFF
(1786396014.820276) can1 18FEF111#FF3C0CCCFFFF1FFF
(1786396014.892583) can1 18FEF111#FF280CCCFFFF1FFF
(1786396014.940870) can1 18FEF111#FF2C0CCCFFFF1FFF
(1786396014.986044) can1 18FEF111#FF340CCCFFFF1FFF
(1786396015.031373) can1 18FEF111#FF500CCCFFFF1FFF
(1786396015.114442) can1 18FEF111#FFC40CCCFFFF1FFF
(1786396015.158588) can1 18FEF111#FFE40CCCFFFF1FFF
(1786396015.205616) can1 18FEF111#FF000DCCFFFF1FFF
(1786396015.252251) can1 18FEF111#FF200DCCFFFF1FFF
(1786396015.298589) can1 18FEF111#FF500DCCFFFF1FFF
(1786396015.421916) can1 18FEF111#FF480DCCFFFF1FFF
(1786396015.490800) can1 18FEF111#FF080CCCFFFF1FFF
(1786396015.567386) can1 18FEF111#FFD80BCCFFFF1FFF
(1786396015.611235) can1 18FEF111#FFB80BCCFFFF1FFF
(1786396015.656705) can1 18FEF111#FFA40BCCFFFF1FFF
(1786396015.704461) can1 18FEF111#FF800BCCFFFF1FFF
(1786396015.750944) can1 18FEF111#FF780BCCFFFF1FFF
(1786396015.845325) can1 18FEF111#FF380BCCFFFF1FFF
(1786396015.893514) can1 18FEF111#FF580BCCFFFF1FFF
(1786396015.938642) can1 18FEF111#FF600BCCFFFF1FFF
(1786396015.984832) can1 18FEF111#FF840BCCFFFF1FFF
(1786396016.027067) can1 18FEF111#FF940BCCFFFF1FFF
(1786396016.106331) can1 18FEF111#FFAC0BCCFFFF1FFF
(1786396016.145981) can1 18FEF111#FFB00BCCFFFF1FFF
(1786396016.214116) can1 18FEF111#FF240BCCFFFF1FFF
(1786396016.286098) can1 18FEF111#FFFC0ACCFFFF1FFF
(1786396016.330557) can1 18FEF111#FFEC0ACCFFFF1FFF
(1786396016.376123) can1 18FEF111#FFC40ACCFFFF1FFF
(1786396016.421139) can1 18FEF111#FFB80ACCFFFF1FFF
(1786396016.467863) can1 18FEF111#FFAC0ACCFFFF1FFF
(1786396016.571906) can1 18FEF111#FF280ACCFFFF1FFF
(1786396016.643716) can1 18FEF111#FF3C0ACCFFFF1FFF
(1786396016.781429) can1 18FEF111#FF6C0ACCFFFF1FFF
(1786396016.826648) can1 18FEF111#FF840ACCFFFF1FFF
(1786396016.918063) can1 18FEF111#FF240ACCFFFF1FFF
(1786396017.008491) can1 18FEF111#FF040ACCFFFF1FFF
(1786396017.102095) can1 18FEF111#FFF009CCFFFF1FFF
(1786396017.146291) can1 18FEF111#FFE409CCFFFF1FFF
(1786396017.218587) can1 18FEF111#FFCC09CCFFFF1FFF
(1786396017.277903) can1 18FEF111#FF5C09CCFFFF1FFF
(1786396017.323863) can1 18FEF111#FF6009CCFFFF1FFF
(1786396017.371779) can1 18FEF111#FF6809CCFFFF1FFF
(1786396017.416421) can1 18FEF111#FF7409CCFFFF1FFF
(1786396017.535973) can1 18FEF111#FF7809CCFFFF1FFF
(1786396017.580848) can1 18FEF111#FF8409CCFFFF1FFF
(1786396017.683043) can1 18FEF111#FFE009CCFFFF1FFF
(1786396017.730299) can1 18FEF111#FFF809CCFFFF1FFF
(1786396017.774882) can1 18FEF111#FF040ACCFFFF1FFF
(1786396017.821010) can1 18FEF111#FF0C0ACCFFFF1FFF
(1786396017.865202) can1 18FEF111#FF080ACCFFFF1FFF
(1786396017.934771) can1 18FEF111#FF100ACCFFFF1FFF
(1786396018.034595) can1 18FEF111#FF9C0ACCFFFF1FFF
(1786396018.079197) can1 18FEF111#FF980ACCFFFF1FFF
(1786396018.123117) can1 18FEF111#FF940ACCFFFF1FFF
(1786396018.165892) can1 18FEF111#FF980ACCFFFF1FFF
(1786396018.210975) can1 18FEF111#FFA00ACCFFFF1FFF
(1786396018.259181) can1 18FEF111#FFAC0ACCFFFF1FFF
(1786396018.294949) can1 18FEF111#FFD40ACCFFFF1FFF
(1786396018.347337) can1 18FEF111#FF3C0CCCFFFF1FFF
(1786396018.392101) can1 18FEF111#FF700CCCFFFF1FFF
(1786396018.438769) can1 18FEF111#FF780CCCFFFF1FFF
(1786396018.484785) can1 18FEF111#FF900CCCFFFF1FFF
(1786396018.528148) can1 18FEF111#FFB00CCCFFFF1FFF
(1786396018.576256) can1 18FEF111#FFB80CCCFFFF1FFF
(1786396018.642982) can1 18FEF111#FFBC0CCCFFFF1FFF
(1786396018.715239) can1 18FEF111#FF340ECCFFFF1FFF
(1786396018.787871) can1 18FEF111#FF580ECCFFFF1FFF
(1786396018.875916) can1 18FEF111#FF640ECCFFFF1FFF
(1786396018.921942) can1 18FEF111#FF740ECCFFFF1FFF
(1786396018.967252) can1 18FEF111#FF7C0ECCFFFF1FFF
(1786396019.012212) can1 18FEF111#FF880ECCFFFF1FFF
(1786396019.067263) can1 18FEF111#FFD80FCCFFFF1FFF
(1786396019.113413) can1 18FEF111#FFF80FCCFFFF1FFF
(1786396019.160914) can1 18FEF111#FFD00FCCFFFF1FFF
(1786396019.235317) can1 18FEF111#FFDC0FCCFFFF1FFF
(1786396019.327100) can1 18FEF111#FFCC0FCCFFFF1FFF
(1786396019.365362) can1 18FEF111#FFFC0FCCFFFF1FFF
(1786396019.417464) can1 18FEF111#FFF00FCCFFFF1FFF
(1786396019.461892) can1 18FEF111#FF2010CCFFFF1FFF
(1786396019.507870) can1 18FEF111#FF0410CCFFFF1FFF
(1786396019.552382) can1 18FEF111#FF1C10CCFFFF1FFF
(1786396019.596548) can1 18FEF111#FF2410CCFFFF1FFF
(1786396019.642247) can1 18FEF111#FFFC0FCCFFFF1FFF
(1786396019.688393) can1 18FEF111#FF3410CCFFFF1FFF
(1786396019.777241) can1 18FEF111#FF900FCCFFFF1FFF
(1786396019.821036) can1 18FEF111#FF940FCCFFFF1FFF
(1786396020.000483) can1 18FEF111#FF900FCCFFFF1FFF
(1786396020.049519) can1 18FEF111#FFA80FCCFFFF1FFF
(1786396020.136830) can1 18FEF111#FF140FCCFFFF1FFF
(1786396020.182507) can1 18FEF111#FF100FCCFFFF1FFF
(1786396020.228100) can1 18FEF111#FF0C0FCCFFFF1FFF
(1786396020.318988) can1 18FEF111#FFFC0ECCFFFF1FFF
(1786396020.362915) can1 18FEF111#FFF40ECCFFFF1FFF
(1786396020.434516) can1 18FEF111#FFF00ECCFFFF1FFF
(1786396020.534757) can1 18FEF111#FFB80FCCFFFF1FFF
(1786396020.579853) can1 18FEF111#FFC00FCCFFFF1FFF
(1786396020.625819) can1 18FEF111#FFD00FCCFFFF1FFF
(1786396020.668913) can1 18FEF111#FFE00FCCFFFF1FFF
(1786396020.714266) can1 18FEF111#FFF00FCCFFFF1FFF
(1786396020.760199) can1 18FEF111#FFEC0FCCFFFF1FFF
(1786396020.849643) can1 18FEF111#FFE810CCFFFF1FFF
(1786396020.895292) can1 18FEF111#FFE410CCFFFF1FFF
(1786396020.937770) can1 18FEF111#FFF410CCFFFF1FFF
(1786396021.011993) can1 18FEF111#FF1C11CCFFFF1FFF
(1786396021.059713) can1 18FEF111#FF0011CCFFFF1FFF
(1786396021.103591) can1 18FEF111#FF3811CCFFFF1FFF
(1786396021.142874) can1 18FEF111#FF0811CCFFFF1FFF
(1786396021.201514) can1 18FEF111#FF1011CCFFFF1FFF
(1786396021.246666) can1 18FEF111#FFFC10CCFFFF1FFF
(1786396021.291779) can1 18FEF111#FF2411CCFFFF1FFF
(1786396021.334663) can1 18FEF111#FF1411CCFFFF1FFF
(1786396021.375729) can1 18FEF111#FF0C11CCFFFF1FFF
(1786396021.421078) can1 18FEF111#FF1411CCFFFF1FFF
(1786396021.501886) can1 18FEF111#FF0011CCFFFF1FFF
(1786396021.570173) can1 18FEF111#FF1011CCFFFF1FFF
(1786396021.614726) can1 18FEF111#FFF010CCFFFF1FFF
(1786396021.734712) can1 18FEF111#FFF410CCFFFF1FFF
(1786396021.779583) can1 18FEF111#FFE410CCFFFF1FFF
(1786396021.825065) can1 18FEF111#FFE010CCFFFF1FFF
(1786396021.867615) can1 18FEF111#FFDC10CCFFFF1FFF
(1786396021.931447) can1 18FEF111#FF0C10CCFFFF1FFF
(1786396022.005573) can1 18FEF111#FFFC0FCCFFFF1FFF
(1786396022.051306) can1 18FEF111#FF0010CCFFFF1FFF
(1786396022.096851) can1 18FEF111#FFE80FCCFFFF1FFF
(1786396022.140924) can1 18FEF111#FFE40FCCFFFF1FFF
(1786396022.185309) can1 18FEF111#FFF00FCCFFFF1FFF
(1786396022.275333) can1 18FEF111#FF400FCCFFFF1FFF
(1786396022.321105) can1 18FEF111#FF4C0FCCFFFF1FFF
(1786396022.369107) can1 18FEF111#FF500FCCFFFF1FFF
(1786396022.413540) can1 18FEF111#FF380FCCFFFF1FFF
(1786396022.458550) can1 18FEF111#FF440FCCFFFF1FFF
(1786396022.502050) can1 18FEF111#FF280FCCFFFF1FFF
(1786396022.573474) can1 18FEF111#FF2C0FCCFFFF1FFF
(1786396022.640287) can1 18FEF111#FFC80ECCFFFF1FFF
(1786396022.688247) can1 18FEF111#FFB80ECCFFFF1FFF
(1786396022.733742) can1 18FEF111#FFE00ECCFFFF1FFF
(1786396022.776047) can1 18FEF111#FFCC0ECCFFFF1FFF
(1786396022.891442) can1 18FEF111#FFD00ECCFFFF1FFF
(1786396022.933986) can1 18FEF111#FFA80ECCFFFF1FFF
(1786396022.990917) can1 18FEF111#FF140ECCFFFF1FFF
(1786396023.039913) can1 18FEF111#FF100ECCFFFF1FFF
(1786396023.087421) can1 18FEF111#FF240ECCFFFF1FFF
(1786396023.133148) can1 18FEF111#FFF80DCCFFFF1FFF
(1786396023.250410) can1 18FEF111#FF280ECCFFFF1FFF
(1786396023.290940) can1 18FEF111#FF080ECCFFFF1FFF
(1786396023.352283) can1 18FEF111#FF640DCCFFFF1FFF
(1786396023.397985) can1 18FEF111#FF740DCCFFFF1FFF
(1786396023.442100) can1 18FEF111#FF6C0DCCFFFF1FFF
(1786396023.516502) can1 18FEF111#FF600DCCFFFF1FFF
(1786396023.611954) can1 18FEF111#FF540DCCFFFF1FFF
(1786396023.697557) can1 18FEF111#FFD80CCCFFFF1FFF
(1786396023.742596) can1 18FEF111#FFD00CCCFFFF1FFF
(1786396023.789306) can1 18FEF111#FFBC0CCCFFFF1FFF
(1786396023.833669) can1 18FEF111#FFB80CCCFFFF1FFF
(1786396023.878944) can1 18FEF111#FFB00CCCFFFF1FFF
(1786396023.998088) can1 18FEF111#FFA80CCCFFFF1FFF
(1786396024.058070) can1 18FEF111#FF300CCCFFFF1FFF
(1786396024.102862) can1 18FEF111#FF2C0CCCFFFF1FFF
(1786396024.192487) can1 18FEF111#FF340CCCFFFF1FFF
(1786396024.240768) can1 18FEF111#FF380CCCFFFF1FFF
(1786396024.360949) can1 18FEF111#FF440CCCFFFF1FFF
(1786396024.460917) can1 18FEF111#FFB80BCCFFFF1FFF
(1786396024.553103) can1 18FEF111#FFAC0BCCFFFF1FFF
(1786396024.596428) can1 18FEF111#FFA40BCCFFFF1FFF
(1786396024.640475) can1 18FEF111#FFAC0BCCFFFF1FFF
(1786396024.688804) can1 18FEF111#FF9C0BCCFFFF1FFF
(1786396024.777296) can1 18FEF111#FF200BCCFFFF1FFF
(1786396024.822261) can1 18FEF111#FF1C0BCCFFFF1FFF
(1786396024.871531) can1 18FEF111#FF240BCCFFFF1FFF
(1786396024.916703) can1 18FEF111#FF280BCCFFFF1FFF
(1786396024.962524) can1 18FEF111#FF140BCCFFFF1FFF
(1786396025.084786) can1 18FEF111#FF100BCCFFFF1FFF
(1786396025.145192) can1 18FEF111#FFC80ACCFFFF1FFF
(1786396025.190492) can1 18FEF111#FFB40ACCFFFF1FFF
(1786396025.234580) can1 18FEF111#FFAC0ACCFFFF1FFF
(1786396025.279681) can1 18FEF111#FF980ACCFFFF1FFF
(1786396025.324966) can1 18FEF111#FF880ACCFFFF1FFF
(1786396025.440498) can1 18FEF111#FF800ACCFFFF1FFF
(1786396025.498563) can1 18FEF111#FF300ACCFFFF1FFF
(1786396025.545539) can1 18FEF111#FF340ACCFFFF1FFF
(1786396025.590835) can1 18FEF111#FF300ACCFFFF1FFF
(1786396025.680786) can1 18FEF111#FF380ACCFFFF1FFF
(1786396025.857832) can1 18FEF111#FFE409CCFFFF1FFF
(1786396025.902644) can1 18FEF111#FFE809CCFFFF1FFF
(1786396025.993867) can1 18FEF111#FFEC09CCFFFF1FFF
(1786396026.041940) can1 18FEF111#FFE409CCFFFF1FFF
(1786396026.116194) can1 18FEF111#FFE009CCFFFF1FFF
(1786396026.154824) can1 18FEF111#FFD009CCFFFF1FFF
(1786396026.223154) can1 18FEF111#FF8009CCFFFF1FFF
(1786396026.267541) can1 18FEF111#FF8409CCFFFF1FFF
(1786396026.342050) can1 18FEF111#FF8C09CCFFFF1FFF
(1786396026.478355) can1 18FEF111#FF9009CCFFFF1FFF
(1786396026.564180) can1 18FEF111#FFA009CCFFFF1FFF
(1786396026.609960) can1 18FEF111#FF9C09CCFFFF1FFF
(1786396026.654583) can1 18FEF111#FF9409CCFFFF1FFF
(1786396026.700835) can1 18FEF111#FF8809CCFFFF1FFF
(1786396026.819441) can1 18FEF111#FF7C09CCFFFF1FFF
(1786396026.861514) can1 18FEF111#FF7409CCFFFF1FFF
(1786396026.932403) can1 18FEF111#FF6C09CCFFFF1FFF
(1786396027.005552) can1 18FEF111#FF7409CCFFFF1FFF
(1786396027.052017) can1 18FEF111#FF6C09CCFFFF1FFF
(1786396027.097967) can1 18FEF111#FF6809CCFFFF1FFF
(1786396027.142467) can1 18FEF111#FF6009CCFFFF1FFF
(1786396027.187857) can1 18FEF111#FF4009CCFFFF1FFF
(1786396027.278865) can1 18FEF111#FF5808CCFFFF1FFF
(1786396027.373254) can1 18FEF111#FF4008CCFFFF1FFF
(1786396027.416770) can1 18FEF111#FF3408CCFFFF1FFF
(1786396027.491424) can1 18FEF111#FF3008CCFFFF1FFF
(1786396027.534785) can1 18FEF111#FF2808CCFFFF1FFF
(1786396027.574732) can1 18FEF111#FF3408CCFFFF1FFF
(1786396027.628029) can1 18FEF111#FF0808CCFFFF1FFF
(1786396027.673394) can1 18FEF111#FF0C08CCFFFF1FFF
(1786396027.721090) can1 18FEF111#FF1C08CCFFFF1FFF
(1786396027.809941) can1 18FEF111#FF2808CCFFFF1FFF
(1786396027.854928) can1 18FEF111#FF2008CCFFFF1FFF
(1786396027.900262) can1 18FEF111#FF1C08CCFFFF1FFF
(1786396027.988370) can1 18FEF111#FF6407CCFFFF1FFF
(1786396028.036749) can1 18FEF111#FF6007CCFFFF1FFF
(1786396028.082153) can1 18FEF111#FF3C07CCFFFF1FFF
(1786396028.125660) can1 18FEF111#FF3007CCFFFF1FFF
(1786396028.170632) can1 18FEF111#FF2407CCFFFF1FFF
(1786396028.246188) can1 18FEF111#FF1C07CCFFFF1FFF
(1786396028.291818) can1 18FEF111#FF1807CCFFFF1FFF
(1786396028.347482) can1 18FEF111#FFE406CCFFFF1FFF
(1786396028.392780) can1 18FEF111#FFEC06CCFFFF1FFF
(1786396028.434230) can1 18FEF111#FFFC06CCFFFF1FFF
(1786396028.526712) can1 18FEF111#FF0407CCFFFF1FFF
(1786396028.620195) can1 18FEF111#FF0807CCFFFF1FFF
(1786396028.709999) can1 18FEF111#FFB006CCFFFF1FFF
(1786396028.754607) can1 18FEF111#FFA406CCFFFF1FFF
(1786396028.800498) can1 18FEF111#FFA006CCFFFF1FFF
(1786396028.874261) can1 18FEF111#FF9406CCFFFF1FFF
(1786396028.964642) can1 18FEF111#FF8006CCFFFF1FFF
(1786396029.082562) can1 18FEF111#FF4C06CCFFFF1FFF
(1786396029.157022) can1 18FEF111#FF5006CCFFFF1FFF
(1786396029.203521) can1 18FEF111#FF5406CCFFFF1FFF
(1786396029.291181) can1 18FEF111#FF5806CCFFFF1FFF
(1786396029.427668) can1 18FEF111#FF4406CCFFFF1FFF
(1786396029.589925) can1 18FEF111#FF3806CCFFFF1FFF
(1786396029.679275) can1 18FEF111#FF2806CCFFFF1FFF
(1786396029.822382) can1 18FEF111#FF2C06CCFFFF1FFF
(1786396029.913894) can1 18FEF111#FF2806CCFFFF1FFF
(1786396030.003474) can1 18FEF111#FF2C06CCFFFF1FFF
(1786396030.078566) can1 18FEF111#FF2006CCFFFF1FFF
(1786396030.134881) can1 18FEF111#FF3C06CCFFFF1FFF
(1786396030.179426) can1 18FEF111#FF3806CCFFFF1FFF
(1786396030.314665) can1 18FEF111#FF3C06CCFFFF1FFF
(1786396030.539598) can1 18FEF111#FF6006CCFFFF1FFF
(1786396030.628763) can1 18FEF111#FF5C06CCFFFF1FFF
(1786396030.675893) can1 18FEF111#FF5806CCFFFF1FFF
(1786396030.767019) can1 18FEF111#FF5006CCFFFF1FFF
(1786396030.860427) can1 18FEF111#FF7C06CCFFFF1FFF
(1786396030.905954) can1 18FEF111#FF8006CCFFFF1FFF
(1786396030.994426) can1 18FEF111#FF8406CCFFFF1FFF
(1786396031.040622) can1 18FEF111#FF8806CCFFFF1FFF
(1786396031.085201) can1 18FEF111#FF8006CCFFFF1FFF
(1786396031.152212) can1 18FEF111#FF8406CCFFFF1FFF
(1786396031.219801) can1 18FEF111#FFC006CCFFFF1FFF
(1786396031.265117) can1 18FEF111#FFC406CCFFFF1FFF
(1786396031.311936) can1 18FEF111#FFD006CCFFFF1FFF
(1786396031.426724) can1 18FEF111#FFCC06CCFFFF1FFF
(1786396031.470633) can1 18FEF111#FFD406CCFFFF1FFF
(1786396031.516379) can1 18FEF111#FFCC06CCFFFF1FFF
(1786396031.574553) can1 18FEF111#FFF006CCFFFF1FFF
(1786396031.620173) can1 18FEF111#FFE806CCFFFF1FFF
(1786396031.668699) can1 18FEF111#FFF406CCFFFF1FFF
(1786396031.756991) can1 18FEF111#FFFC06CCFFFF1FFF
(1786396031.937165) can1 18FEF111#FF3C07CCFFFF1FFF
(1786396031.982023) can1 18FEF111#FF4807CCFFFF1FFF
(1786396032.027200) can1 18FEF111#FF4407CCFFFF1FFF
(1786396032.161172) can1 18FEF111#FF4C07CCFFFF1FFF
(1786396032.234235) can1 18FEF111#FF4407CCFFFF1FFF
(1786396032.295027) can1 18FEF111#FFA807CCFFFF1FFF
(1786396032.385517) can1 18FEF111#FFBC07CCFFFF1FFF
(1786396032.430005) can1 18FEF111#FFB407CCFFFF1FFF
(1786396032.474922) can1 18FEF111#FFBC07CCFFFF1FFF
(1786396032.658775) can1 18FEF111#FFFC07CCFFFF1FFF
(1786396032.746301) can1 18FEF111#FFF807CCFFFF1FFF
(1786396032.792977) can1 18FEF111#FF0808CCFFFF1FFF
(1786396032.912441) can1 18FEF111#FF1808CCFFFF1FFF
(1786396032.957308) can1 18FEF111#FF2008CCFFFF1FFF
(1786396033.014830) can1 18FEF111#FFA408CCFFFF1FFF
(1786396033.059332) can1 18FEF111#FF9C08CCFFFF1FFF
(1786396033.150348) can1 18FEF111#FFA808CCFFFF1FFF
(1786396033.196436) can1 18FEF111#FFA408CCFFFF1FFF
(1786396033.283628) can1 18FEF111#FF9C08CCFFFF1FFF
(1786396033.378112) can1 18FEF111#FFF008CCFFFF1FFF
(1786396033.424323) can1 18FEF111#FFEC08CCFFFF1FFF
(1786396033.469600) can1 18FEF111#FFE808CCFFFF1FFF
(1786396033.514915) can1 18FEF111#FFF408CCFFFF1FFF
(1786396033.560640) can1 18FEF111#FFFC08CCFFFF1FFF
(1786396033.632590) can1 18FEF111#FF0009CCFFFF1FFF
(1786396033.678614) can1 18FEF111#FF1409CCFFFF1FFF
(1786396033.739417) can1 18FEF111#FF8409CCFFFF1FFF
(1786396033.785353) can1 18FEF111#FF7C09CCFFFF1FFF
(1786396033.832331) can1 18FEF111#FF7409CCFFFF1FFF
(1786396033.875320) can1 18FEF111#FF7809CCFFFF1FFF
(1786396033.948389) can1 18FEF111#FF8409CCFFFF1FFF
(1786396033.993946) can1 18FEF111#FF7409CCFFFF1FFF
(1786396034.034385) can1 18FEF111#FF7009CCFFFF1FFF
(1786396034.088403) can1 18FEF111#FFC009CCFFFF1FFF
(1786396034.133491) can1 18FEF111#FFD409CCFFFF1FFF
(1786396034.221297) can1 18FEF111#FFD009CCFFFF1FFF
(1786396034.311020) can1 18FEF111#FFE009CCFFFF1FFF
(1786396034.355598) can1 18FEF111#FFE409CCFFFF1FFF
(1786396034.492602) can1 18FEF111#FFEC09CCFFFF1FFF
(1786396034.537102) can1 18FEF111#FF2C0ACCFFFF1FFF
(1786396034.581335) can1 18FEF111#FF4C0ACCFFFF1FFF
(1786396034.627716) can1 18FEF111#FF340ACCFFFF1FFF
(1786396034.678545) can1 18FEF111#FF080ACCFFFF1FFF
(1786396034.723823) can1 18FEF111#FF240ACCFFFF1FFF
(1786396034.806546) can1 18FEF111#FF540ACCFFFF1FFF
(1786396034.851622) can1 18FEF111#FF5C0ACCFFFF1FFF
(1786396034.897024) can1 18FEF111#FF640ACCFFFF1FFF
(1786396034.985390) can1 18FEF111#FF600ACCFFFF1FFF
(1786396035.061968) can1 18FEF111#FF700ACCFFFF1FFF
(1786396035.104132) can1 18FEF111#FF800ACCFFFF1FFF
(1786396035.165191) can1 18FEF111#FFCC0ACCFFFF1FFF
(1786396035.211334) can1 18FEF111#FFBC0ACCFFFF1FFF
(1786396035.256470) can1 18FEF111#FFC00ACCFFFF1FFF
(1786396035.302533) can1 18FEF111#FFCC0ACCFFFF1FFF
(1786396035.345330) can1 18FEF111#FFD80ACCFFFF1FFF
(1786396035.392539) can1 18FEF111#FFC40ACCFFFF1FFF
(1786396035.518646) can1 18FEF111#FFF80ACCFFFF1FFF
(1786396035.561612) can1 18FEF111#FFDC0ACCFFFF1FFF
(1786396035.612024) can1 18FEF111#FFF40ACCFFFF1FFF
(1786396035.653788) can1 18FEF111#FF100BCCFFFF1FFF
(1786396035.698067) can1 18FEF111#FFD40ACCFFFF1FFF
(1786396035.740870) can1 18FEF111#FFDC0ACCFFFF1FFF
(1786396035.791311) can1 18FEF111#FF080BCCFFFF1FFF
(1786396035.881328) can1 18FEF111#FF4C0BCCFFFF1FFF
(1786396035.928373) can1 18FEF111#FF500BCCFFFF1FFF
(1786396036.002166) can1 18FEF111#FF1C0BCCFFFF1FFF
(1786396036.046655) can1 18FEF111#FF2C0BCCFFFF1FFF
(1786396036.093809) can1 18FEF111#FF580BCCFFFF1FFF
(1786396036.227727) can1 18FEF111#FF4C09CCFFFF1FFF
(1786396036.277531) can1 18FEF111#FF5C09CCFFFF1FFF
(1786396036.322548) can1 18FEF111#FF6009CCFFFF1FFF
(1786396036.368607) can1 18FEF111#FF7809CCFFFF1FFF
(1786396036.410565) can1 18FEF111#FF7C09CCFFFF1FFF
(1786396036.486985) can1 18FEF111#FF7809CCFFFF1FFF
(1786396036.529134) can1 18FEF111#FF7009CCFFFF1FFF
(1786396036.590505) can1 18FEF111#FF0806CCFFFF1FFF
(1786396036.638234) can1 18FEF111#FFFC05CCFFFF1FFF
(1786396036.683379) can1 18FEF111#FFA405CCFFFF1FFF
(1786396036.756165) can1 18FEF111#FF8005CCFFFF1FFF
(1786396036.801471) can1 18FEF111#FF6405CCFFFF1FFF
(1786396036.849519) can1 18FEF111#FF3405CCFFFF1FFF
(1786396036.949419) can1 18FEF111#FF7004CCFFFF1FFF
(1786396036.997794) can1 18FEF111#FF8004CCFFFF1FFF
(1786396037.043506) can1 18FEF111#FF8404CCFFFF1FFF
(1786396037.116423) can1 18FEF111#FF9404CCFFFF1FFF
(1786396037.163251) can1 18FEF111#FF9C04CCFFFF1FFF
(1786396037.298614) can1 18FEF111#FFB403CCFFFF1FFF
(1786396037.343850) can1 18FEF111#FF9C03CCFFFF1FFF
(1786396037.389997) can1 18FEF111#FF9003CCFFFF1FFF
(1786396037.433799) can1 18FEF111#FF8403CCFFFF1FFF
(1786396037.482381) can1 18FEF111#FF6403CCFFFF1FFF
(1786396037.525480) can1 18FEF111#FF5C03CCFFFF1FFF
(1786396037.600289) can1 18FEF111#FF5003CCFFFF1FFF
(1786396037.657856) can1 18FEF111#FFA801CCFFFF1FFF
(1786396037.701949) can1 18FEF111#FF9C01CCFFFF1FFF
(1786396037.750640) can1 18FEF111#FF8401CCFFFF1FFF
(1786396037.795575) can1 18FEF111#FF7401CCFFFF1FFF
(1786396037.842716) can1 18FEF111#FF7001CCFFFF1FFF
(1786396037.915019) can1 18FEF111#FF6801CCFFFF1FFF
(1786396038.019846) can1 18FEF111#FF0000CCFFFF1FFF
(1786396039.087486) can1 18F00503#7E00007E204E4E32
(1786396039.706293) can1 18FEF111#FFD000CCFFFF1FFF
(1786396039.812397) can1 18FEF111#FF0000CCFFFF1FFF
(1786396041.591997) can1 18FEF111#FFC001CCFFFF1FFF
(1786396041.755946) can1 18FEF111#FFC401CCFFFF1FFF
(1786396041.847204) can1 18FEF111#FFC801CCFFFF1FFF
(1786396041.885330) can1 18FEF111#FFCC01CCFFFF1FFF
(1786396041.939347) can1 18FEF111#FF4803CCFFFF1FFF
(1786396041.983688) can1 18FEF111#FF5403CCFFFF1FFF
(1786396042.028724) can1 18FEF111#FF5C03CCFFFF1FFF
(1786396042.073023) can1 18FEF111#FF7403CCFFFF1FFF
(1786396042.117956) can1 18FEF111#FF9003CCFFFF1FFF
(1786396042.164429) can1 18FEF111#FF9C03CCFFFF1FFF
(1786396042.209345) can1 18FEF111#FFA403CCFFFF1FFF
(1786396042.288350) can1 18FEF111#FF1805CCFFFF1FFF
(1786396042.380568) can1 18FEF111#FF1C05CCFFFF1FFF
(1786396042.424189) can1 18FEF111#FF2405CCFFFF1FFF
(1786396042.463059) can1 18FEF111#FF3005CCFFFF1FFF
(1786396042.540285) can1 18FEF111#FF3405CCFFFF1FFF
(1786396042.589411) can1 18FEF111#FF3805CCFFFF1FFF
(1786396042.689530) can1 18FEF111#FFE006CCFFFF1FFF
(1786396042.733078) can1 18FEF111#FFEC06CCFFFF1FFF
(1786396042.778383) can1 18FEF111#FF1007CCFFFF1FFF
(1786396042.870815) can1 18FEF111#FF2C07CCFFFF1FFF
(1786396042.916285) can1 18FEF111#FF4007CCFFFF1FFF
(1786396043.009492) can1 18FEF111#FF9C08CCFFFF1FFF
(1786396043.056447) can1 18FEF111#FFA008CCFFFF1FFF
(1786396043.101156) can1 18FEF111#FFAC08CCFFFF1FFF
(1786396043.147512) can1 18FEF111#FFB408CCFFFF1FFF
(1786396043.219874) can1 18FEF111#FFB808CCFFFF1FFF
(1786396043.265481) can1 18FEF111#FFD008CCFFFF1FFF
(1786396043.308749) can1 18FEF111#FFE008CCFFFF1FFF
(1786396043.370743) can1 18FEF111#FF480ACCFFFF1FFF
(1786396043.415725) can1 18FEF111#FF580ACCFFFF1FFF
(1786396043.461830) can1 18FEF111#FF600ACCFFFF1FFF
(1786396043.537902) can1 18FEF111#FF740ACCFFFF1FFF
(1786396043.579216) can1 18FEF111#FF7C0ACCFFFF1FFF
(1786396043.624031) can1 18FEF111#FF940ACCFFFF1FFF
(1786396043.661610) can1 18FEF111#FFA40ACCFFFF1FFF
(1786396043.715751) can1 18FEF111#FFEC0BCCFFFF1FFF
(1786396043.762781) can1 18FEF111#FF000CCCFFFF1FFF
(1786396043.810322) can1 18FEF111#FF0C0CCCFFFF1FFF
(1786396043.852819) can1 18FEF111#FF180CCCFFFF1FFF
(1786396043.898489) can1 18FEF111#FF200CCCFFFF1FFF
(1786396043.942281) can1 18FEF111#FF340CCCFFFF1FFF
(1786396044.015684) can1 18FEF111#FF380CCCFFFF1FFF
(1786396044.077343) can1 18FEF111#FF680DCCFFFF1FFF
(1786396044.121868) can1 18FEF111#FF6C0DCCFFFF1FFF
(1786396044.168510) can1 18FEF111#FF600DCCFFFF1FFF
(1786396044.212476) can1 18FEF111#FF680DCCFFFF1FFF
(1786396044.257408) can1 18FEF111#FF780DCCFFFF1FFF
(1786396044.370042) can1 18FEF111#FF800DCCFFFF1FFF
(1786396044.428807) can1 18FEF111#FFC40ECCFFFF1FFF
(1786396044.474534) can1 18FEF111#FFDC0ECCFFFF1FFF
(1786396044.518552) can1 18FEF111#FFF00ECCFFFF1FFF
(1786396044.605453) can1 18FEF111#FF0C0FCCFFFF1FFF
(1786396044.652527) can1 18FEF111#FF1C0FCCFFFF1FFF
(1786396044.697577) can1 18FEF111#FF200FCCFFFF1FFF
(1786396044.865331) can1 18FEF111#FF2C10CCFFFF1FFF
(1786396044.910670) can1 18FEF111#FF3410CCFFFF1FFF
(1786396044.955978) can1 18FEF111#FF3C10CCFFFF1FFF
(1786396045.002048) can1 18FEF111#FF4410CCFFFF1FFF
(1786396045.048412) can1 18FEF111#FF5810CCFFFF1FFF
(1786396045.137142) can1 18FEF111#FF5812CCFFFF1FFF
(1786396045.228122) can1 18FEF111#FF4C12CCFFFF1FFF
(1786396045.270952) can1 18FEF111#FF7012CCFFFF1FFF
(1786396045.317893) can1 18FEF111#FF7412CCFFFF1FFF
(1786396045.361783) can1 18FEF111#FF7812CCFFFF1FFF
(1786396045.428356) can1 18FEF111#FF8412CCFFFF1FFF
(1786396045.491217) can1 18FEF111#FF4C14CCFFFF1FFF
(1786396045.537890) can1 18FEF111#FF6014CCFFFF1FFF
(1786396045.582820) can1 18FEF111#FF7814CCFFFF1FFF
(1786396045.625283) can1 18FEF111#FF7C14CCFFFF1FFF
(1786396045.668591) can1 18FEF111#FF9814CCFFFF1FFF
(1786396045.714598) can1 18FEF111#FF9014CCFFFF1FFF
(1786396045.758786) can1 18FEF111#FFA014CCFFFF1FFF
(1786396045.853145) can1 18FEF111#FFF415CCFFFF1FFF
(1786396045.927159) can1 18FEF111#FF1416CCFFFF1FFF
(1786396046.017533) can1 18FEF111#FF3416CCFFFF1FFF
(1786396046.062495) can1 18FEF111#FF1816CCFFFF1FFF
(1786396046.108538) can1 18FEF111#FF3C16CCFFFF1FFF
(1786396046.195822) can1 18FEF111#FFB416CCFFFF1FFF
(1786396046.241917) can1 18FEF111#FFD416CCFFFF1FFF
(1786396046.289585) can1 18FEF111#FFC016CCFFFF1FFF
(1786396046.335645) can1 18FEF111#FFC416CCFFFF1FFF
(1786396046.406670) can1 18FEF111#FFD016CCFFFF1FFF
(1786396046.493589) can1 18FEF111#FFD416CCFFFF1FFF
(1786396046.562667) can1 18FEF111#FF2C17CCFFFF1FFF
(1786396046.635947) can1 18FEF111#FF2417CCFFFF1FFF
(1786396046.682213) can1 18FEF111#FF3417CCFFFF1FFF
(1786396046.728581) can1 18FEF111#FF3017CCFFFF1FFF
(1786396046.771327) can1 18FEF111#FF2817CCFFFF1FFF
(1786396046.816513) can1 18FEF111#FF2C17CCFFFF1FFF
(1786396046.952466) can1 18FEF111#FF3017CCFFFF1FFF
(1786396046.999903) can1 18FEF111#FF2417CCFFFF1FFF
(1786396047.045689) can1 18FEF111#FF4017CCFFFF1FFF
(1786396047.088661) can1 18FEF111#FF2417CCFFFF1FFF
(1786396047.133975) can1 18FEF111#FF2017CCFFFF1FFF
(1786396047.178856) can1 18FEF111#FF1417CCFFFF1FFF
(1786396047.255958) can1 18FEF111#FF3017CCFFFF1FFF
(1786396047.299870) can1 18FEF111#FF2C17CCFFFF1FFF
(1786396047.347081) can1 18FEF111#FF2417CCFFFF1FFF
(1786396047.391349) can1 18FEF111#FF2017CCFFFF1FFF
(1786396047.436993) can1 18FEF111#FF2817CCFFFF1FFF
(1786396047.525551) can1 18FEF111#FF1817CCFFFF1FFF
(1786396047.617236) can1 18FEF111#FF0C17CCFFFF1FFF
(1786396047.663413) can1 18FEF111#FF1017CCFFFF1FFF
(1786396047.709377) can1 18FEF111#FF1417CCFFFF1FFF
(1786396047.797674) can1 18FEF111#FF0C17CCFFFF1FFF
(1786396047.842136) can1 18FEF111#FF1017CCFFFF1FFF
(1786396047.916788) can1 18FEF111#FFFC16CCFFFF1FFF
(1786396047.979045) can1 18FEF111#FFF416CCFFFF1FFF
(1786396048.025136) can1 18FEF111#FF1017CCFFFF1FFF
(1786396048.072420) can1 18FEF111#FFF416CCFFFF1FFF
(1786396048.113590) can1 18FEF111#FF1017CCFFFF1FFF
(1786396048.189357) can1 18FEF111#FFF416CCFFFF1FFF
(1786396048.235475) can1 18FEF111#FF0C17CCFFFF1FFF
(1786396048.282115) can1 18FEF111#FF0817CCFFFF1FFF
(1786396048.336665) can1 18FEF111#FFD816CCFFFF1FFF
(1786396048.382364) can1 18FEF111#FFC416CCFFFF1FFF
(1786396048.424569) can1 18FEF111#FFE816CCFFFF1FFF
(1786396048.470049) can1 18FEF111#FFD816CCFFFF1FFF
(1786396048.513449) can1 18FEF111#FFE416CCFFFF1FFF
(1786396048.558238) can1 18FEF111#FFD416CCFFFF1FFF
(1786396048.712334) can1 18FEF111#FFC016CCFFFF1FFF
(1786396048.785779) can1 18FEF111#FFB416CCFFFF1FFF
(1786396048.831611) can1 18FEF111#FFD016CCFFFF1FFF
(1786396048.878462) can1 18FEF111#FFAC16CCFFFF1FFF
(1786396048.921502) can1 18FEF111#FFA816CCFFFF1FFF
(1786396048.966761) can1 18FEF111#FFAC16CCFFFF1FFF
(1786396049.056623) can1 18FEF111#FFB416CCFFFF1FFF
(1786396049.100978) can1 18FEF111#FF9416CCFFFF1FFF
(1786396049.148623) can1 18FEF111#FF9816CCFFFF1FFF
(1786396049.193144) can1 18FEF111#FF8C16CCFFFF1FFF
(1786396049.266370) can1 18FEF111#FFB016CCFFFF1FFF
(1786396049.312466) can1 18FEF111#FF9C16CCFFFF1FFF
(1786396049.465899) can1 18FEF111#FFB416CCFFFF1FFF
(1786396049.510097) can1 18FEF111#FF9C16CCFFFF1FFF
(1786396049.555159) can1 18FEF111#FFA816CCFFFF1FFF
(1786396049.600131) can1 18FEF111#FF9416CCFFFF1FFF
(1786396049.643845) can1 18FEF111#FFBC16CCFFFF1FFF
(1786396049.716673) can1 18FEF111#FFA416CCFFFF1FFF
(1786396049.823233) can1 18FEF111#FFA016CCFFFF1FFF
(1786396049.912319) can1 18FEF111#FF9C16CCFFFF1FFF
(1786396050.001701) can1 18FEF111#FFA816CCFFFF1FFF
(1786396050.080609) can1 18FEF111#FFBC16CCFFFF1FFF
(1786396050.152477) can1 18FEF111#FF9C16CCFFFF1FFF
(1786396050.225709) can1 18FEF111#FFA416CCFFFF1FFF
(1786396050.316489) can1 18FEF111#FFA016CCFFFF1FFF
(1786396050.359530) can1 18FEF111#FFA416CCFFFF1FFF
(1786396050.407042) can1 18FEF111#FFB416CCFFFF1FFF
(1786396050.500238) can1 18FEF111#FFCC16CCFFFF1FFF
(1786396050.543655) can1 18FEF111#FFD816CCFFFF1FFF
(1786396050.588549) can1 18FEF111#FFD416CCFFFF1FFF
(1786396050.633378) can1 18FEF111#FFDC16CCFFFF1FFF
(1786396050.724730) can1 18FEF111#FFFC16CCFFFF1FFF
(1786396050.797002) can1 18FEF111#FFD016CCFFFF1FFF
(1786396050.900670) can1 18FEF111#FFF416CCFFFF1FFF
(1786396050.948599) can1 18FEF111#FFE816CCFFFF1FFF
