(1787076608.644300) can0 1CECFFF1#20120003FF19F000
(1787076608.644974) can0 1CEBFFF1#01000BFFFDDB75FF
(1787076608.647995) can0 1CEBFFF1#02FE55F2000089B3
(1787076608.649258) can0 1CEBFFF1#03F842CDB6FFFFFF
(1787076608.662903) can0 18FEF1F8#FF0000FFFFFFFFFF
(1787076608.664194) can0 18F005F8#7DFFFF7DFFFFFFFF
(1787076608.672900) can0 18F015F1#00003E914BA0461D
(1787076608.743949) can0 1CECFFF1#20120003FF19F000
(1787076608.744876) can0 1CEBFFF1#01000BFFFDDB75FF
(1787076608.745890) can0 1CEBFFF1#02FE55F2000089B3
(1787076608.746863) can0 1CEBFFF1#03F8430D77FFFFFF
(1787076608.762561) can0 18FEF1F8#FF0000FFFFFFFFFF
(1787076608.763686) can0 18F005F8#7DFFFF7DFFFFFFFF
(1787076608.772882) can0 18F015F1#00003E924BA0461D
(1787076608.843921) can0 1CECFFF1#20120003FF19F000
(1787076608.845080) can0 1CEBFFF1#01000BFFFDDB75FF
(1787076608.845878) can0 1CEBFFF1#02FE55F2000089B3
(1787076608.846868) can0 1CEBFFF1#03F842CDB6FFFFFF
(1787076608.862613) can0 18FEF1F8#FF0000FFFFFFFFFF
(1787076608.863760) can0 18F005F8#7DFFFF7DFFFFFFFF
(1787076608.874581) can0 18F015F1#00003E914BA0461D
(1787076608.944136) can0 1CECFFF1#20120003FF19F000
(1787076608.945065) can0 1CEBFFF1#01000BFFFDDB75FF
(1787076608.946459) can0 1CEBFFF1#02FE55F2000089B3
(1787076608.946986) can0 1CEBFFF1#03F842CDB6FFFFFF
(1787076608.963719) can0 18FEF1F8#FF0000FFFFFFFFFF
(1787076608.965107) can0 18F005F8#7DFFFF7DFFFFFFFF
(1787076608.973049) can0 18F015F1#00003E914BA0461D
(1787076609.043992) can0 1CECFFF1#20120003FF19F000
(1787076609.045239) can0 1CEBFFF1#01000BFFFDDB75FF
(1787076609.045921) can0 1CEBFFF1#02FE55F2000089B3
(1787076609.046871) can0 1CEBFFF1#03F842CDB6FFFFFF
(1787076609.062559) can0 18FEF1F8#FF0000FFFFFFFFFF
(1787076609.063718) can0 18F005F8#7DFFFF7DFFFFFFFF
(1787076609.072873) can0 18F015F1#00003E914BA0461D
(1787076609.124018) can0 18FF14D1#
(1787076609.144888) can0 1CECFFF1#20120003FF19F000
(1787076609.145894) can0 1CEBFFF1#01000BFFFDDB75FF
(1787076609.146863) can0 1CEBFFF1#02FE55F2000089B3
(1787076609.147879) can0 1CEBFFF1#03F842CDB6FFFFFF
(1787076609.162582) can0 18FEF1F8#FF0000FFFFFFFFFF
(1787076609.163790) can0 18F005F8#7DFFFF7DFFFFFFFF
(1787076609.173897) can0 18F015F1#00003E914BA0461D
(1787076609.245440) can0 1CECFFF1#20120003FF19F000
(1787076609.246419) can0 1CEBFFF1#01000BFFFDDB75FF
(1787076609.246891) can0 1CEBFFF1#02FE55F2000089B3
(1787076609.247936) can0 1CEBFFF1#03F842CDB6FFFFFF
(1787076609.263249) can0 18FEF1F8#FF0000FFFFFFFFFF
(1787076609.264639) can0 18F005F8#7DFFFF7DFFFFFFFF
(1787076609.274140) can0 18F015F1#00003E914BA0461D
(1787076609.345489) can0 1CECFFF1#20120003FF19F000
(1787076609.346089) can0 1CEBFFF1#01000BFFFDDB75FF
(1787076609.346927) can0 1CEBFFF1#02FE55F2000089B3
(1787076609.347906) can0 1CEBFFF1#03F842CDB6FFFFFF
(1787076609.362831) can0 18FEF1F8#FF0000FFFFFFFFFF
(1787076609.364117) can0 18F005F8#7DFFFF7DFFFFFFFF
(1787076609.373867) can0 18F015F1#00003E914BA0461D
(1787076609.444901) can0 1CECFFF1#20120003FF19F000
(1787076609.445928) can0 1CEBFFF1#01000BFFFDDB75FF
(1787076609.446874) can0 1CEBFFF1#02FE55F2000089B3
(1787076609.447870) can0 1CEBFFF1#03F842CDB6FFFFFF
(1787076609.462714) can0 18FEF1F8#FF0000FFFFFFFFFF
(1787076609.463909) can0 18F005F8#7DFFFF7DFFFFFFFF
(1787076609.473877) can0 18F015F1#00003E914BA1461D
(1787076609.544907) can0 1CECFFF1#20120003FF19F000
(1787076609.545923) can0 1CEBFFF1#01000BFFFDDB75FF
(1787076609.546887) can0 1CEBFFF1#02FE55F2000089B3
(1787076609.547888) can0 1CEBFFF1#03F842CDB6FFFFFF
(1787076609.562848) can0 18FEF1F8#FF0000FFFFFFFFFF
(1787076609.564183) can0 18F005F8#7DFFFF7DFFFFFFFF
(1787076609.573955) can0 18F015F1#00003E914BA0461D
(1787076609.584966) can0 18F017F1#DD71001F943D
(1787076609.585449) can0 18F018F1#DB55FD57923C
(1787076609.624021) can0 18FF14D1#
(1787076609.644995) can0 1CECFFF1#20120003FF19F000
(1787076609.646237) can0 1CEBFFF1#01000BFFFDDB75FF
(1787076609.647034) can0 1CEBFFF1#02FE55F2000089B3
(1787076609.647953) can0 1CEBFFF1#03F842CDB6FFFFFF
(1787076609.664158) can0 18FEF1F8#FF0000FFFFFFFFFF
(1787076609.665639) can0 18F005F8#7DFFFF7DFFFFFFFF
(1787076609.673890) can0 18F015F1#00003E914BA0461D
(1787076609.744899) can0 1CECFFF1#20120003FF19F000
(1787076609.745967) can0 1CEBFFF1#01000BFFFDDB75FF
(1787076609.746884) can0 1CEBFFF1#02FE55F2000089B3
(1787076609.747868) can0 1CEBFFF1#03F842CDB6FFFFFF
(1787076609.762559) can0 18FEF1F8#FF0000FFFFFFFFFF
(1787076609.763743) can0 18F005F8#7DFFFF7DFFFFFFFF
(1787076609.773870) can0 18F015F1#00003E914BA1461D
(1787076609.845925) can0 1CECFFF1#20120003FF19F000
(1787076609.846893) can0 1CEBFFF1#01000BFFFDDB75FF
(1787076609.847867) can0 1CEBFFF1#02FE55F2000089B3
(1787076609.848866) can0 1CEBFFF1#03F842CDB6FFFFFF
(1787076609.862781) can0 18FEF1F8#FF0000FFFFFFFFFF
(1787076609.864095) can0 18F005F8#7DFFFF7DFFFFFFFF
(1787076609.874965) can0 18F015F1#00003E914BA1461D
(1787076609.946022) can0 1CECFFF1#20120003FF19F000
(1787076609.947328) can0 1CEBFFF1#01000BFFFDDB75FF
(1787076609.947956) can0 1CEBFFF1#02FE55F2000089B3
(1787076609.949019) can0 1CEBFFF1#03F842CDB6FFFFFF
(1787076609.962935) can0 18FEF1F8#FF0000FFFFFFFFFF
(1787076609.964626) can0 18F005F8#7DFFFF7DFFFFFFFF
(1787076609.975128) can0 18F015F1#00003E914BA0461D
(1787076610.045952) can0 1CECFFF1#20120003FF19F000
(1787076610.046915) can0 1CEBFFF1#01000BFFFDDB75FF
(1787076610.047904) can0 1CEBFFF1#02FE55F2000089B3
(1787076610.048890) can0 1CEBFFF1#03F842CDB6FFFFFF
(1787076610.062596) can0 18FEF1F8#FF0000FFFFFFFFFF
(1787076610.063755) can0 18F005F8#7DFFFF7DFFFFFFFF
(1787076610.074882) can0 18F015F1#00003E914BA1461D
(1787076610.123941) can0 18FF14D1#
(1787076610.145917) can0 1CECFFF1#20120003FF19F000
(1787076610.146896) can0 1CEBFFF1#01000BFFFDDB75FF
(1787076610.147880) can0 1CEBFFF1#02FE55F2000089B3
(1787076610.148885) can0 1CEBFFF1#03F842CDB6FFFFFF
(1787076610.162576) can0 18FEF1F8#FF0000FFFFFFFFFF
(1787076610.163779) can0 18F005F8#7DFFFF7DFFFFFFFF
(1787076610.174897) can0 18F015F1#00003E914BA0461D
(1787076610.245982) can0 1CECFFF1#20120003FF19F000
(1787076610.246901) can0 1CEBFFF1#01000BFFFDDB75FF
(1787076610.247891) can0 1CEBFFF1#02FE55F2000089B3
(1787076610.248899) can0 1CEBFFF1#03F842CDB6FFFFFF
(1787076610.263058) can0 18FEF1F8#FF0000FFFFFFFFFF
(1787076610.264333) can0 18F005F8#7DFFFF7DFFFFFFFF
(1787076610.275128) can0 18F015F1#00003E914BA0461D
(1787076610.346188) can0 1CECFFF1#20120003FF19F000
(1787076610.347006) can0 1CEBFFF1#01000BFFFDDB75FF
(1787076610.348017) can0 1CEBFFF1#02FE55F2000089B3
(1787076610.348990) can0 1CEBFFF1#03F842CDB6FFFFFF
(1787076610.363058) can0 18FEF1F8#FF0000FFFFFFFFFF
(1787076610.364339) can0 18F005F8#7DFFFF7DFFFFFFFF
(1787076610.375244) can0 18F015F1#00003E914BA1461D
(1787076610.446917) can0 1CECFFF1#20120003FF19F000
(1787076610.447904) can0 1CEBFFF1#01000BFFFDDB75FF
(1787076610.448874) can0 1CEBFFF1#02FE55F2000089B3
(1787076610.449876) can0 1CEBFFF1#03F842CDB6FFFFFF
(1787076610.462913) can0 18FEF1F8#FF0000FFFFFFFFFF
(1787076610.464070) can0 18F005F8#7DFFFF7DFFFFFFFF
(1787076610.475959) can0 18F015F1#00003E914BA1461D
(1787076610.546922) can0 1CECFFF1#20120003FF19F000
(1787076610.547896) can0 1CEBFFF1#01000BFFFDDB75FF
(1787076610.548885) can0 1CEBFFF1#02FE55F2000089B3
(1787076610.549884) can0 1CEBFFF1#03F842CDB6FFFFFF
(1787076610.562646) can0 18FEF1F8#FF0000FFFFFFFFFF
(1787076610.563847) can0 18F005F8#7DFFFF7DFFFFFFFF
(1787076610.575958) can0 18F015F1#00003E914BA0461D
(1787076610.586025) can0 18F017F1#DDCDFFEF9514
(1787076610.586488) can0 18F018F1#DA56FD919148
(1787076610.624527) can0 18FF14D1#
(1787076610.646938) can0 1CECFFF1#20120003FF19F000
(1787076610.647921) can0 1CEBFFF1#01000BFFFDDB75FF
(1787076610.648898) can0 1CEBFFF1#02FE55F2000089B3
(1787076610.649943) can0 1CEBFFF1#03F842CDB6FFFFFF
(1787076610.662955) can0 18FEF1F8#FF0000FFFFFFFFFF
(1787076610.664077) can0 18F005F8#7DFFFF7DFFFFFFFF
(1787076610.676180) can0 18F015F1#00003E914BA0461D
(1787076610.746923) can0 1CECFFF1#20120003FF19F000
(1787076610.747904) can0 1CEBFFF1#01000BFFFDDB75FF
(1787076610.748888) can0 1CEBFFF1#02FE55F2000089B3
(1787076610.749890) can0 1CEBFFF1#03F842CDB6FFFFFF
(1787076610.762570) can0 18FEF1F8#FF0000FFFFFFFFFF
(1787076610.763775) can0 18F005F8#7DFFFF7DFFFFFFFF
(1787076610.775899) can0 18F015F1#00003E914BA1461D
(1787076610.846920) can0 1CECFFF1#20120003FF19F000
(1787076610.847915) can0 1CEBFFF1#01000BFFFDDB75FF
(1787076610.848890) can0 1CEBFFF1#02FE55F2000089B3
(1787076610.849888) can0 1CEBFFF1#03F842CDB6FFFFFF
(1787076610.862557) can0 18FEF1F8#FF0000FFFFFFFFFF
(1787076610.863753) can0 18F005F8#7DFFFF7DFFFFFFFF
(1787076610.876297) can0 18F015F1#00003E914BA0461D
(1787076610.947285) can0 1CECFFF1#20120003FF19F000
(1787076610.948028) can0 1CEBFFF1#01000BFFFDDB75FF
(1787076610.949085) can0 1CEBFFF1#02FE55F2000089B3
(1787076610.950089) can0 1CEBFFF1#03F842CDB6FFFFFF
(1787076610.964837) can0 18FEF1F8#FF0000FFFFFFFFFF
(1787076610.966091) can0 18F005F8#7DFFFF7DFFFFFFFF
(1787076610.976574) can0 18F015F1#00003E914BA0461D
(1787076611.046911) can0 1CECFFF1#20120003FF19F000
(1787076611.047897) can0 1CEBFFF1#01000BFFFDDB75FF
(1787076611.048872) can0 1CEBFFF1#02FE55F2000089B3
(1787076611.049871) can0 1CEBFFF1#03F842CDB6FFFFFF
(1787076611.062546) can0 18FEF1F8#FF0000FFFFFFFFFF
(1787076611.063743) can0 18F005F8#7DFFFF7DFFFFFFFF
(1787076611.075914) can0 18F015F1#00003E914BA1461D
(1787076611.123935) can0 18FF14D1#
(1787076611.147921) can0 1CECFFF1#20120003FF19F000
(1787076611.148904) can0 1CEBFFF1#01000BFFFDDB75FF
(1787076611.149911) can0 1CEBFFF1#02FE55F2000089B3
(1787076611.150891) can0 1CEBFFF1#03F842CDB6FFFFFF
(1787076611.162565) can0 18FEF1F8#FF0000FFFFFFFFFF
(1787076611.163753) can0 18F005F8#7DFFFF7DFFFFFFFF
(1787076611.175917) can0 18F015F1#00003E914BA0461D
(1787076611.248037) can0 1CECFFF1#20120003FF19F000
(1787076611.248934) can0 1CEBFFF1#01000BFFFDDB75FF
(1787076611.249930) can0 1CEBFFF1#02FE55F2000089B3
(1787076611.250964) can0 1CEBFFF1#03F842CDB6FFFFFF
(1787076611.263198) can0 18FEF1F8#FF0000FFFFFFFFFF
(1787076611.264437) can0 18F005F8#7DFFFF7DFFFFFFFF
(1787076611.277201) can0 18F015F1#00003E914BA0461D
(1787076611.347961) can0 1CECFFF1#20120003FF19F000
(1787076611.348924) can0 1CEBFFF1#01000BFFFDDB75FF
(1787076611.349897) can0 1CEBFFF1#02FE55F2000089B3
(1787076611.350882) can0 1CEBFFF1#03F842CDB6FFFFFF
(1787076611.362821) can0 18FEF1F8#FF0000FFFFFFFFFF
(1787076611.364031) can0 18F005F8#7DFFFF7DFFFFFFFF
(1787076611.377013) can0 18F015F1#00003E914BA1461D
(1787076611.447931) can0 1CECFFF1#20120003FF19F000
(1787076611.448907) can0 1CEBFFF1#01000BFFFDDB75FF
(1787076611.449892) can0 1CEBFFF1#02FE55F2000089B3
(1787076611.450893) can0 1CEBFFF1#03F842CDB6FFFFFF
(1787076611.462609) can0 18FEF1F8#FF0000FFFFFFFFFF
(1787076611.463829) can0 18F005F8#7DFFFF7DFFFFFFFF
(1787076611.476911) can0 18F015F1#00003E914BA0461D
(1787076611.548002) can0 1CECFFF1#20120003FF19F000
(1787076611.548978) can0 1CEBFFF1#01000BFFFDDB75FF
(1787076611.549936) can0 1CEBFFF1#02FE55F2000089B3
(1787076611.550925) can0 1CEBFFF1#03F842CDB6FFFFFF
(1787076611.562779) can0 18FEF1F8#FF0000FFFFFFFFFF
(1787076611.564177) can0 18F005F8#7DFFFF7DFFFFFFFF
(1787076611.577170) can0 18F015F1#00003E914BA0461D
(1787076611.588046) can0 18F017F1#DDCDFFEF9514
(1787076611.588725) can0 18F018F1#DA56FD919148
(1787076611.624238) can0 18FF14D1#
(1787076611.648280) can0 1CECFFF1#20120003FF19F000
(1787076611.649070) can0 1CEBFFF1#01000BFFFDDB75FF
(1787076611.649914) can0 1CEBFFF1#02FE55F2000089B3
(1787076611.650934) can0 1CEBFFF1#03F842CDB6FFFFFF
(1787076611.663049) can0 18FEF1F8#FF0000FFFFFFFFFF
(1787076611.664648) can0 18F005F8#7DFFFF7DFFFFFFFF
(1787076611.677095) can0 18F015F1#00003E914BA0461D
(1787076611.747923) can0 1CECFFF1#20120003FF19F000
(1787076611.748905) can0 1CEBFFF1#01000BFFFDDB75FF
(1787076611.749887) can0 1CEBFFF1#02FE55F2000089B3
(1787076611.750887) can0 1CEBFFF1#03F842CDB6FFFFFF
(1787076611.762544) can0 18FEF1F8#FF0000FFFFFFFFFF
(1787076611.763710) can0 18F005F8#7DFFFF7DFFFFFFFF
(1787076611.776913) can0 18F015F1#00003E914BA0461D
(1787076611.847916) can0 1CECFFF1#20120003FF19F000
(1787076611.848907) can0 1CEBFFF1#01000BFFFDDB75FF
(1787076611.849886) can0 1CEBFFF1#02FE55F2000089B3
(1787076611.850883) can0 1CEBFFF1#03F842CDB6FFFFFF
(1787076611.863080) can0 18FEF1F8#FF0000FFFFFFFFFF
(1787076611.864237) can0 18F005F8#7DFFFF7DFFFFFFFF
(1787076611.876910) can0 18F015F1#00003E914BA0461D
(1787076611.949114) can0 1CECFFF1#20120003FF19F000
(1787076611.950052) can0 1CEBFFF1#01000BFFFDDB75FF
(1787076611.950923) can0 1CEBFFF1#02FE55F2000089B3
(1787076611.951899) can0 1CEBFFF1#03F842CDB6FFFFFF
(1787076611.963991) can0 18FEF1F8#FF0000FFFFFFFFFF
(1787076611.965149) can0 18F005F8#7DFFFF7DFFFFFFFF
(1787076611.977992) can0 18F015F1#00003E914BA1461D
(1787076612.048929) can0 1CECFFF1#20120003FF19F000
(1787076612.049904) can0 1CEBFFF1#01000BFFFDDB75FF
(1787076612.050880) can0 1CEBFFF1#02FE55F2000089B3
(1787076612.051878) can0 1CEBFFF1#03F842CDB6FFFFFF
(1787076612.062551) can0 18FEF1F8#FF0000FFFFFFFFFF
(1787076612.063719) can0 18F005F8#7DFFFF7DFFFFFFFF
(1787076612.077920) can0 18F015F1#00003E914BA0461D
(1787076612.123833) can0 18FF14D1#
(1787076612.148925) can0 1CECFFF1#20120003FF19F000
(1787076612.149907) can0 1CEBFFF1#01000BFFFDDB75FF
(1787076612.150891) can0 1CEBFFF1#02FE55F2000089B3
(1787076612.151896) can0 1CEBFFF1#03F842CDB6FFFFFF
(1787076612.162555) can0 18FEF1F8#FF0000FFFFFFFFFF
(1787076612.163736) can0 18F005F8#7DFFFF7DFFFFFFFF
(1787076612.180696) can0 18F015F1#00003E914BA0461D
(1787076612.248958) can0 1CECFFF1#20120003FF19F000
(1787076612.249905) can0 1CEBFFF1#01000BFFFDDB75FF
(1787076612.250959) can0 1CEBFFF1#02FE55F2000089B3
(1787076612.251934) can0 1CEBFFF1#03F841CCF6FFFFFF
(1787076612.262855) can0 18FEF1F8#FF0000FFFFFFFFFF
(1787076612.264089) can0 18F005F8#7DFFFF7DFFFFFFFF
(1787076612.278049) can0 18F015F1#00003E904BA1461D
(1787076612.348925) can0 1CECFFF1#20120003FF19F000
(1787076612.349900) can0 1CEBFFF1#01000BFFFDDB75FF
(1787076612.350881) can0 1CEBFFF1#02FE55F2000089B3
(1787076612.351894) can0 1CEBFFF1#03F841CCF6FFFFFF
(1787076612.362587) can0 18FEF1F8#FF0000FFFFFFFFFF
(1787076612.363722) can0 18F005F8#7DFFFF7DFFFFFFFF
(1787076612.378055) can0 18F015F1#00003E904BA0461D
(1787076612.448947) can0 1CECFFF1#20120003FF19F000
(1787076612.449905) can0 1CEBFFF1#01000BFFFDDB75FF
(1787076612.450882) can0 1CEBFFF1#02FE55F2000089B3
(1787076612.451890) can0 1CEBFFF1#03F842CDB6FFFFFF
(1787076612.462608) can0 18FEF1F8#FF0000FFFFFFFFFF
(1787076612.463811) can0 18F005F8#7DFFFF7DFFFFFFFF
(1787076612.477914) can0 18F015F1#00003E904BA0461D
(1787076612.550014) can0 1CECFFF1#20120003FF19F000
(1787076612.550923) can0 1CEBFFF1#01000BFFFDDB75FF
(1787076612.551897) can0 1CEBFFF1#02FE55F2000089B3
(1787076612.552901) can0 1CEBFFF1#03F841CCF6FFFFFF
(1787076612.565074) can0 18FEF1F8#FF0000FFFFFFFFFF
(1787076612.567540) can0 18F005F8#7DFFFF7DFFFFFFFF
(1787076612.579120) can0 18F015F1#00003E904BA1461D
(1787076612.588911) can0 18F017F1#DDDC0040953F
(1787076612.589391) can0 18F018F1#D930FD4590DC
(1787076612.624018) can0 18FF14D1#
(1787076612.650366) can0 1CECFFF1#20120003FF19F000
(1787076612.651062) can0 1CEBFFF1#01000BFFFDDB75FF
(1787076612.651937) can0 1CEBFFF1#02FE55F2000089B3
(1787076612.652969) can0 1CEBFFF1#03F841CCF6FFFFFF
(1787076612.663497) can0 18FEF1F8#FF0000FFFFFFFFFF
(1787076612.665332) can0 18F005F8#7DFFFF7DFFFFFFFF
(1787076612.679138) can0 18F015F1#00003E904BA1461D
(1787076612.750014) can0 1CECFFF1#20120003FF19F000
(1787076612.750934) can0 1CEBFFF1#01000BFFFDDB75FF
(1787076612.751917) can0 1CEBFFF1#02FE55F2000089B3
(1787076612.752917) can0 1CEBFFF1#03F841CCF6FFFFFF
(1787076612.762640) can0 18FEF1F8#FF0000FFFFFFFFFF
(1787076612.763826) can0 18F005F8#7DFFFF7DFFFFFFFF
(1787076612.778939) can0 18F015F1#00003E904BA0461D
(1787076612.849932) can0 1CECFFF1#20120003FF19F000
(1787076612.850910) can0 1CEBFFF1#01000BFFFDDB75FF
(1787076612.851900) can0 1CEBFFF1#02FE55F2000089B3
(1787076612.852946) can0 1CEBFFF1#03F841CCF6FFFFFF
(1787076612.862580) can0 18FEF1F8#FF0000FFFFFFFFFF
(1787076612.863785) can0 18F005F8#7DFFFF7DFFFFFFFF
(1787076612.879078) can0 18F015F1#00003E904BA0461C
(1787076612.950292) can0 1CECFFF1#20120003FF19F000
(1787076612.951291) can0 1CEBFFF1#01000BFFFDDB75FF
(1787076612.951875) can0 1CEBFFF1#02FE55F2000089B3
(1787076612.954695) can0 1CEBFFF1#03F841CCF6FFFFFF
(1787076612.963594) can0 18FEF1F8#FF0000FFFFFFFFFF
(1787076612.965879) can0 18F005F8#7DFFFF7DFFFFFFFF
(1787076612.979382) can0 18F015F1#00003E904BA1461D
(1787076613.050004) can0 1CECFFF1#20120003FF19F000
(1787076613.050930) can0 1CEBFFF1#01000BFFFDDB75FF
(1787076613.051891) can0 1CEBFFF1#02FE55F2000089B3
(1787076613.052952) can0 1CEBFFF1#03F841CCF6FFFFFF
(1787076613.062566) can0 18FEF1F8#FF0000FFFFFFFFFF
(1787076613.063754) can0 18F005F8#7DFFFF7DFFFFFFFF
(1787076613.078929) can0 18F015F1#00003E904BA0461D
(1787076613.123904) can0 18FF14D1#
(1787076613.149928) can0 1CECFFF1#20120003FF19F000
(1787076613.150924) can0 1CEBFFF1#01000BFFFDDB75FF
(1787076613.151888) can0 1CEBFFF1#02FE55F2000089B3
(1787076613.152893) can0 1CEBFFF1#03F841CCF6FFFFFF
(1787076613.162600) can0 18FEF1F8#FF0000FFFFFFFFFF
(1787076613.163809) can0 18F005F8#7DFFFF7DFFFFFFFF
(1787076613.178932) can0 18F015F1#00003E904BA1461D
(1787076613.249972) can0 1CECFFF1#20120003FF19F000
(1787076613.250960) can0 1CEBFFF1#01000BFFFDDB75FF
(1787076613.251940) can0 1CEBFFF1#02FE55F2000089B3
(1787076613.252971) can0 1CEBFFF1#03F841CCF6FFFFFF
(1787076613.264243) can0 18FEF1F8#FF0000FFFFFFFFFF
(1787076613.265643) can0 18F005F8#7DFFFF7DFFFFFFFF
(1787076613.279100) can0 18F015F1#00003E904BA1461D
(1787076613.350994) can0 1CECFFF1#20120003FF19F000
(1787076613.351905) can0 1CEBFFF1#01000BFFFDDB75FF
(1787076613.352884) can0 1CEBFFF1#02FE55F2000089B3
(1787076613.353895) can0 1CEBFFF1#03F841CCF6FFFFFF
(1787076613.364334) can0 18FEF1F8#FF0000FFFFFFFFFF
(1787076613.365707) can0 18F005F8#7DFFFF7DFFFFFFFF
(1787076613.379928) can0 18F015F1#00003E904BA1461C
(1787076613.450947) can0 1CECFFF1#20120003FF19F000
(1787076613.451914) can0 1CEBFFF1#01000BFFFDDB75FF
(1787076613.452909) can0 1CEBFFF1#02FE55F2000089B3
(1787076613.453907) can0 1CEBFFF1#03F841CCF6FFFFFF
(1787076613.462684) can0 18FEF1F8#FF0000FFFFFFFFFF
(1787076613.463870) can0 18F005F8#7DFFFF7DFFFFFFFF
(1787076613.479921) can0 18F015F1#00003E904BA1461D
(1787076613.550976) can0 1CECFFF1#20120003FF19F000
(1787076613.551928) can0 1CEBFFF1#01000BFFFDDB75FF
(1787076613.552909) can0 1CEBFFF1#02FE55F2000089B3
(1787076613.553938) can0 1CEBFFF1#03F841CCF6FFFFFF
(1787076613.562630) can0 18FEF1F8#FF0000FFFFFFFFFF
(1787076613.563978) can0 18F005F8#7DFFFF7DFFFFFFFF
(1787076613.579994) can0 18F015F1#00003E904BA3461D
(1787076613.591059) can0 18F017F1#DDDC0040953F
(1787076613.591849) can0 18F018F1#D930FD4590DC
(1787076613.624150) can0 18FF14D1#
(1787076613.651172) can0 1CECFFF1#20120003FF19F000
(1787076613.651947) can0 1CEBFFF1#01000BFFFDDB75FF
(1787076613.652914) can0 1CEBFFF1#02FE55F2000089B3
(1787076613.653938) can0 1CEBFFF1#03F841CCF6FFFFFF
(1787076613.663286) can0 18FEF1F8#FF0000FFFFFFFFFF
(1787076613.665454) can0 18F005F8#7DFFFF7DFFFFFFFF
(1787076613.680811) can0 18F015F1#00003E904BA4461D
(1787076613.751005) can0 1CECFFF1#20120003FF19F000
(1787076613.751917) can0 1CEBFFF1#01000BFFFDDB75FF
(1787076613.752894) can0 1CEBFFF1#02FE55F2000089B3
(1787076613.753904) can0 1CEBFFF1#03F841CCF6FFFFFF
(1787076613.762599) can0 18FEF1F8#FF0000FFFFFFFFFF
(1787076613.763824) can0 18F005F8#7DFFFF7DFFFFFFFF
(1787076613.779949) can0 18F015F1#00003E904BA5461D
(1787076613.850948) can0 1CECFFF1#20120003FF19F000
(1787076613.851918) can0 1CEBFFF1#01000BFFFDDB75FF
(1787076613.852901) can0 1CEBFFF1#02FE55F2000089B3
(1787076613.853903) can0 1CEBFFF1#03F841CCF6FFFFFF
(1787076613.862544) can0 18FEF1F8#FF0000FFFFFFFFFF
(1787076613.863733) can0 18F005F8#7DFFFF7DFFFFFFFF
(1787076613.879946) can0 18F015F1#00003E904BA6461D
(1787076613.951027) can0 1CECFFF1#20120003FF19F000
(1787076613.951927) can0 1CEBFFF1#01000BFFFDDB75FF
(1787076613.952925) can0 1CEBFFF1#02FE55F2000089B3
(1787076613.954003) can0 1CEBFFF1#03F841CCF6FFFFFF
(1787076613.964364) can0 18FEF1F8#FF0000FFFFFFFFFF
(1787076613.965859) can0 18F005F8#7DFFFF7DFFFFFFFF
(1787076613.980426) can0 18F015F1#00003E904BA6461D
(1787076614.052267) can0 1CECFFF1#20120003FF19F000
(1787076614.053003) can0 1CEBFFF1#01000BFFFDDB75FF
(1787076614.053985) can0 1CEBFFF1#02FE55F2000089B3
(1787076614.055031) can0 1CEBFFF1#03F8400C37FFFFFF
(1787076614.062764) can0 18FEF1F8#FF0000FFFFFFFFFF
(1787076614.064677) can0 18F005F8#7DFFFF7DFFFFFFFF
(1787076614.081113) can0 18F015F1#00003E904BA5461D
(1787076614.123806) can0 18FF14D1#
(1787076614.151943) can0 1CECFFF1#20120003FF19F000
(1787076614.152916) can0 1CEBFFF1#01000BFFFDDB75FF
(1787076614.153895) can0 1CEBFFF1#02FE55F2000089B3
(1787076614.154902) can0 1CEBFFF1#03F841CCF6FFFFFF
(1787076614.162552) can0 18FEF1F8#FF0000FFFFFFFFFF
(1787076614.163726) can0 18F005F8#7DFFFF7DFFFFFFFF
(1787076614.180916) can0 18F015F1#00003E904BA5461D
(1787076614.251954) can0 1CECFFF1#20120003FF19F000
(1787076614.252955) can0 1CEBFFF1#01000BFFFDDB75FF
(1787076614.253918) can0 1CEBFFF1#02FE55F2000089B3
(1787076614.254916) can0 1CEBFFF1#03F841CCF6FFFFFF
(1787076614.262827) can0 18FEF1F8#FF0000FFFFFFFFFF
(1787076614.264252) can0 18F005F8#7DFFFF7DFFFFFFFF
(1787076614.281059) can0 18F015F1#00003E904BA6461D
(1787076614.353222) can0 1CECFFF1#20120003FF19F000
(1787076614.353687) can0 1CEBFFF1#01000BFFFDDB75FF
(1787076614.354035) can0 1CEBFFF1#02FE55F2000089B3
(1787076614.354947) can0 1CEBFFF1#03F8400C37FFFFFF
(1787076614.362707) can0 18FEF1F8#FF0000FFFFFFFFFF
(1787076614.364115) can0 18F005F8#7DFFFF7DFFFFFFFF
(1787076614.380979) can0 18F015F1#00003E8F4BA5461D
(1787076614.451977) can0 1CECFFF1#20120003FF19F000
(1787076614.452935) can0 1CEBFFF1#01000BFFFDDB75FF
(1787076614.453918) can0 1CEBFFF1#02FE55F2000089B3
(1787076614.454928) can0 1CEBFFF1#03F8400C37FFFFFF
(1787076614.462855) can0 18FEF1F8#FF0000FFFFFFFFFF
(1787076614.464025) can0 18F005F8#7DFFFF7DFFFFFFFF
(1787076614.480952) can0 18F015F1#00003E8F4BA5461D
(1787076614.551961) can0 1CECFFF1#20120003FF19F000
(1787076614.552924) can0 1CEBFFF1#01000BFFFDDB75FF
(1787076614.553920) can0 1CEBFFF1#02FE55F2000089B3
(1787076614.554914) can0 1CEBFFF1#03F8400C37FFFFFF
(1787076614.562620) can0 18FEF1F8#FF0000FFFFFFFFFF
(1787076614.563858) can0 18F005F8#7DFFFF7DFFFFFFFF
(1787076614.581991) can0 18F015F1#00003E8F4BA5461D
(1787076614.591931) can0 18F017F1#DEAD00A6967B
(1787076614.592285) can0 18F018F1#DAD0FC8E907F
(1787076614.624176) can0 18FF14D1#
(1787076614.653763) can0 1CECFFF1#20120003FF19F000
(1787076614.654455) can0 1CEBFFF1#01000BFFFDDB75FF
(1787076614.654928) can0 1CEBFFF1#02FE55F2000089B3
(1787076614.656018) can0 1CEBFFF1#03F8400C37FFFFFF
(1787076614.662951) can0 18FEF1F8#FF0000FFFFFFFFFF
(1787076614.664137) can0 18F005F8#7DFFFF7DFFFFFFFF
(1787076614.682174) can0 18F015F1#00003E8F4BA5461D
(1787076614.752953) can0 1CECFFF1#20120003FF19F000
(1787076614.753913) can0 1CEBFFF1#01000BFFFDDB75FF
(1787076614.754921) can0 1CEBFFF1#02FE55F2000089B3
(1787076614.755962) can0 1CEBFFF1#03F8400C37FFFFFF
(1787076614.762555) can0 18FEF1F8#FF0000FFFFFFFFFF
(1787076614.763726) can0 18F005F8#7DFFFF7DFFFFFFFF
(1787076614.781933) can0 18F015F1#00003E8F4BA5461D
(1787076614.853005) can0 1CECFFF1#20120003FF19F000
(1787076614.854020) can0 1CEBFFF1#01000BFFFDDB75FF
(1787076614.854939) can0 1CEBFFF1#02FE55F2000089B3
(1787076614.855968) can0 1CEBFFF1#03F8400C37FFFFFF
(1787076614.862592) can0 18FEF1F8#FF0000FFFFFFFFFF
(1787076614.863775) can0 18F005F8#7DFFFF7DFFFFFFFF
(1787076614.881961) can0 18F015F1#00003E8F4BA5461D
(1787076614.953070) can0 1CECFFF1#20120003FF19F000
(1787076614.954003) can0 1CEBFFF1#01000BFFFDDB75FF
(1787076614.954959) can0 1CEBFFF1#02FE55F2000089B3
(1787076614.956024) can0 1CEBFFF1#03F8400C37FFFFFF
(1787076614.962918) can0 18FEF1F8#FF0000FFFFFFFFFF
(1787076614.964159) can0 18F005F8#7DFFFF7DFFFFFFFF
(1787076614.982099) can0 18F015F1#00003E8F4BA5461D
(1787076615.053490) can0 1CECFFF1#20120003FF19F000
(1787076615.054531) can0 1CEBFFF1#01000BFFFDDB75FF
(1787076615.055075) can0 1CEBFFF1#02FE55F2000089B3
(1787076615.056058) can0 1CEBFFF1#03F8400C37FFFFFF
(1787076615.062947) can0 18FEF1F8#FF0000FFFFFFFFFF
(1787076615.064530) can0 18F005F8#7DFFFF7DFFFFFFFF
(1787076615.081959) can0 18F015F1#00003E8F4BA5461D
(1787076615.123839) can0 18FF14D1#
(1787076615.152951) can0 1CECFFF1#20120003FF19F000
(1787076615.153928) can0 1CEBFFF1#01000BFFFDDB75FF
(1787076615.154914) can0 1CEBFFF1#02FE55F2000089B3
(1787076615.155944) can0 1CEBFFF1#03F8400C37FFFFFF
(1787076615.162584) can0 18FEF1F8#FF0000FFFFFFFFFF
(1787076615.163832) can0 18F005F8#7DFFFF7DFFFFFFFF
(1787076615.181934) can0 18F015F1#00003E8F4BA5461D
(1787076615.252997) can0 1CECFFF1#20120003FF19F000
(1787076615.253942) can0 1CEBFFF1#01000BFFFDDB75FF
(1787076615.254920) can0 1CEBFFF1#02FE55F2000089B3
(1787076615.255929) can0 1CEBFFF1#03F8400C37FFFFFF
(1787076615.262708) can0 18FEF1F8#FF0000FFFFFFFFFF
(1787076615.263936) can0 18F005F8#7DFFFF7DFFFFFFFF
(1787076615.281997) can0 18F015F1#00003E8F4BA5461D
(1787076615.353527) can0 1CECFFF1#20120003FF19F000
(1787076615.354125) can0 1CEBFFF1#01000BFFFDDB75FF
(1787076615.355103) can0 1CEBFFF1#02FE55F2000089B3
(1787076615.356256) can0 1CEBFFF1#03F8400C37FFFFFF
(1787076615.362938) can0 18FEF1F8#FF0000FFFFFFFFFF
(1787076615.364249) can0 18F005F8#7DFFFF7DFFFFFFFF
(1787076615.381988) can0 18F015F1#00003E8F4BA5461D
(1787076615.453949) can0 1CECFFF1#20120003FF19F000
(1787076615.454924) can0 1CEBFFF1#01000BFFFDDB75FF
(1787076615.455940) can0 1CEBFFF1#02FE55F2000089B3
(1787076615.456927) can0 1CEBFFF1#03F8400C37FFFFFF
(1787076615.462596) can0 18FEF1F8#FF0000FFFFFFFFFF
(1787076615.463806) can0 18F005F8#7DFFFF7DFFFFFFFF
(1787076615.482952) can0 18F015F1#00003E8F4BA5461D
(1787076615.553952) can0 1CECFFF1#20120003FF19F000
(1787076615.554921) can0 1CEBFFF1#01000BFFFDDB75FF
(1787076615.555928) can0 1CEBFFF1#02FE55F2000089B3
(1787076615.556916) can0 1CEBFFF1#03F8400C37FFFFFF
(1787076615.562536) can0 18FEF1F8#FF0000FFFFFFFFFF
(1787076615.563722) can0 18F005F8#7DFFFF7DFFFFFFFF
(1787076615.582941) can0 18F015F1#00003E8F4BA5461D
(1787076615.592902) can0 18F017F1#DEAD00A6967B
(1787076615.593322) can0 18F018F1#DAD0FC8E907F
(1787076615.624185) can0 18FF14D1#
(1787076615.654263) can0 1CECFFF1#20120003FF19F000
(1787076615.655007) can0 1CEBFFF1#01000BFFFDDB75FF
(1787076615.656243) can0 1CEBFFF1#02FE55F2000089B3
(1787076615.657868) can0 1CEBFFF1#03F8400C37FFFFFF
(1787076615.663115) can0 18FEF1F8#FF0000FFFFFFFFFF
(1787076615.664390) can0 18F005F8#7DFFFF7DFFFFFFFF
(1787076615.682968) can0 18F015F1#00003E8F4BA5461D
(1787076615.755598) can0 1CECFFF1#20120003FF19F000
(1787076615.756109) can0 1CEBFFF1#01000BFFFDDB75FF
(1787076615.756426) can0 1CEBFFF1#02FE55F2000089B3
(1787076615.756974) can0 1CEBFFF1#03F8400C37FFFFFF
(1787076615.762802) can0 18FEF1F8#FF0000FFFFFFFFFF
(1787076615.764035) can0 18F005F8#7DFFFF7DFFFFFFFF
(1787076615.782950) can0 18F015F1#00003E8F4BA5461D
(1787076615.853968) can0 1CECFFF1#20120003FF19F000
(1787076615.854960) can0 1CEBFFF1#01000BFFFDDB75FF
(1787076615.855950) can0 1CEBFFF1#02FE55F2000089B3
(1787076615.856932) can0 1CEBFFF1#03F8400C37FFFFFF
(1787076615.862541) can0 18FEF1F8#FF0000FFFFFFFFFF
(1787076615.863709) can0 18F005F8#7DFFFF7DFFFFFFFF
(1787076615.882941) can0 18F015F1#00003E8F4BA5461D
(1787076615.953990) can0 1CECFFF1#20120003FF19F000
(1787076615.954944) can0 1CEBFFF1#01000BFFFDDB75FF
(1787076615.955947) can0 1CEBFFF1#02FE55F2000089B3
(1787076615.956933) can0 1CEBFFF1#03F8400C37FFFFFF
(1787076615.962953) can0 18FEF1F8#FF0000FFFFFFFFFF
(1787076615.964151) can0 18F005F8#7DFFFF7DFFFFFFFF
(1787076615.983078) can0 18F015F1#00003E8F4BA4461D
(1787076616.054225) can0 1CECFFF1#20120003FF19F000
(1787076616.056495) can0 1CEBFFF1#01000BFFFDDB75FF
(1787076616.057332) can0 1CEBFFF1#03F8400C37FFFFFF
(1787076616.059267) can0 1CEBFFF1#02FE55F2000089B3
(1787076616.063451) can0 18FEF1F8#FF0000FFFFFFFFFF
(1787076616.064974) can0 18F005F8#7DFFFF7DFFFFFFFF
(1787076616.082991) can0 18F015F1#00003E8F4BA4461D
(1787076616.123757) can0 18FF14D1#
(1787076616.154969) can0 1CECFFF1#20120003FF19F000
(1787076616.155970) can0 1CEBFFF1#01000BFFFDDB75FF
(1787076616.156909) can0 1CEBFFF1#02FE55F2000089B3
(1787076616.157926) can0 1CEBFFF1#03F8400C37FFFFFF
(1787076616.162533) can0 18FEF1F8#FF0000FFFFFFFFFF
(1787076616.163650) can0 18F005F8#7DFFFF7DFFFFFFFF
(1787076616.183966) can0 18F015F1#00003E8F4BA5461D
(1787076616.254956) can0 1CECFFF1#20120003FF19F000
(1787076616.255974) can0 1CEBFFF1#01000BFFFDDB75FF
(1787076616.256928) can0 1CEBFFF1#02FE55F2000089B3
(1787076616.257963) can0 1CEBFFF1#03F8400C37FFFFFF
(1787076616.266982) can0 18FEF1F8#FF0000FFFFFFFFFF
(1787076616.268256) can0 18F005F8#7DFFFF7DFFFFFFFF
(1787076616.284090) can0 18F015F1#00003E8E4BA4461D
(1787076616.355174) can0 1CECFFF1#20120003FF19F000
(1787076616.362090) can0 1CEBFFF1#01000BFFFDDB75FF
(1787076616.362474) can0 1CEBFFF1#03F8400C37FFFFFF
(1787076616.362648) can0 1CEBFFF1#02FE55F2000089B3
(1787076616.364040) can0 18FEF1F8#FF0000FFFFFFFFFF
(1787076616.365205) can0 18F005F8#7DFFFF7DFFFFFFFF
(1787076616.384196) can0 18F015F1#00003E8E4BA5461D
(1787076616.455012) can0 1CECFFF1#20120003FF19F000
(1787076616.456026) can0 1CEBFFF1#01000BFFFDDB75FF
(1787076616.456927) can0 1CEBFFF1#02FE55F2000089B3
(1787076616.457960) can0 1CEBFFF1#03F83FEC76FFFFFF
(1787076616.462658) can0 18FEF1F8#FF0000FFFFFFFFFF
(1787076616.463969) can0 18F005F8#7DFFFF7DFFFFFFFF
(1787076616.483979) can0 18F015F1#00003E8F4BA4461D
(1787076616.554967) can0 1CECFFF1#20120003FF19F000
(1787076616.555973) can0 1CEBFFF1#01000BFFFDDB75FF
(1787076616.556925) can0 1CEBFFF1#02FE55F2000089B3
(1787076616.557921) can0 1CEBFFF1#03F8400C37FFFFFF
(1787076616.562534) can0 18FEF1F8#FF0000FFFFFFFFFF
(1787076616.563645) can0 18F005F8#7DFFFF7DFFFFFFFF
(1787076616.583957) can0 18F015F1#00003E8F4BA4461D
(1787076616.594863) can0 18F017F1#DE5300849555
(1787076616.595318) can0 18F018F1#D94EFC799167
(1787076616.623704) can0 18FF14D1#
(1787076616.655015) can0 1CECFFF1#20120003FF19F000
(1787076616.655989) can0 1CEBFFF1#01000BFFFDDB75FF
(1787076616.656937) can0 1CEBFFF1#02FE55F2000089B3
(1787076616.657954) can0 1CEBFFF1#03F83FEC76FFFFFF
(1787076616.662614) can0 18FEF1F8#FF0000FFFFFFFFFF
(1787076616.663776) can0 18F005F8#7DFFFF7DFFFFFFFF
(1787076616.684040) can0 18F015F1#00003E8E4BA4461D
(1787076616.755432) can0 1CECFFF1#20120003FF19F000
(1787076616.756453) can0 1CEBFFF1#01000BFFFDDB75FF
(1787076616.756944) can0 1CEBFFF1#02FE55F2000089B3
(1787076616.758000) can0 1CEBFFF1#03F83FEC76FFFFFF
(1787076616.763191) can0 18FEF1F8#FF0000FFFFFFFFFF
(1787076616.764482) can0 18F005F8#7DFFFF7DFFFFFFFF
(1787076616.784226) can0 18F015F1#00003E8E4BA4461D
(1787076616.855976) can0 1CECFFF1#20120003FF19F000
(1787076616.856931) can0 1CEBFFF1#01000BFFFDDB75FF
(1787076616.857911) can0 1CEBFFF1#02FE55F2000089B3
(1787076616.858926) can0 1CEBFFF1#03F83FEC76FFFFFF
(1787076616.862523) can0 18FEF1F8#FF0000FFFFFFFFFF
(1787076616.863681) can0 18F005F8#7DFFFF7DFFFFFFFF
(1787076616.884980) can0 18F015F1#00003E8E4BA5461D
(1787076616.955979) can0 1CECFFF1#20120003FF19F000
(1787076616.956934) can0 1CEBFFF1#01000BFFFDDB75FF
(1787076616.957916) can0 1CEBFFF1#02FE55F2000089B3
(1787076616.958931) can0 1CEBFFF1#03F83FEC76FFFFFF
(1787076616.962588) can0 18FEF1F8#FF0000FFFFFFFFFF
(1787076616.963731) can0 18F005F8#7DFFFF7DFFFFFFFF
(1787076616.984938) can0 18F015F1#00003E8E4BA4461D
(1787076617.056522) can0 1CECFFF1#20120003FF19F000
(1787076617.057476) can0 1CEBFFF1#01000BFFFDDB75FF
(1787076617.058039) can0 1CEBFFF1#02FE55F2000089B3
(1787076617.059492) can0 1CEBFFF1#03F83FEC76FFFFFF
(1787076617.062996) can0 18FEF1F8#FF0000FFFFFFFFFF
(1787076617.064513) can0 18F005F8#7DFFFF7DFFFFFFFF
(1787076617.085183) can0 18F015F1#00003E8E4BA4461D
(1787076617.123739) can0 18FF14D1#
(1787076617.156018) can0 1CECFFF1#20120003FF19F000
(1787076617.156948) can0 1CEBFFF1#01000BFFFDDB75FF
(1787076617.157929) can0 1CEBFFF1#02FE55F2000089B3
(1787076617.158955) can0 1CEBFFF1#03F83FEC76FFFFFF
(1787076617.162683) can0 18FEF1F8#FF0000FFFFFFFFFF
(1787076617.163906) can0 18F005F8#7DFFFF7DFFFFFFFF
(1787076617.185017) can0 18F015F1#00003E8E4BA4461D
(1787076617.256034) can0 1CECFFF1#20120003FF19F000
(1787076617.256945) can0 1CEBFFF1#01000BFFFDDB75FF
(1787076617.257942) can0 1CEBFFF1#02FE55F2000089B3
(1787076617.258965) can0 1CEBFFF1#03F83FEC76FFFFFF
(1787076617.262583) can0 18FEF1F8#FF0000FFFFFFFFFF
(1787076617.263771) can0 18F005F8#7DFFFF7DFFFFFFFF
(1787076617.284976) can0 18F015F1#00003E8E4BA4461C
(1787076617.356424) can0 1CECFFF1#20120003FF19F000
(1787076617.357091) can0 1CEBFFF1#01000BFFFDDB75FF
(1787076617.357946) can0 1CEBFFF1#02FE55F2000089B3
(1787076617.358961) can0 1CEBFFF1#03F83FEC76FFFFFF
(1787076617.365925) can0 18FEF1F8#FF0000FFFFFFFFFF
(1787076617.367326) can0 18F005F8#7DFFFF7DFFFFFFFF
(1787076617.385432) can0 18F015F1#00003E8E4BA5461D
(1787076617.456099) can0 1CECFFF1#20120003FF19F000
(1787076617.457010) can0 1CEBFFF1#01000BFFFDDB75FF
(1787076617.458029) can0 1CEBFFF1#02FE55F2000089B3
(1787076617.458989) can0 1CEBFFF1#03F83FEC76FFFFFF
(1787076617.464410) can0 18FEF1F8#FF0000FFFFFFFFFF
(1787076617.467409) can0 18F005F8#7DFFFF7DFFFFFFFF
(1787076617.485966) can0 18F015F1#00003E8E4BA4461D
(1787076617.556982) can0 1CECFFF1#20120003FF19F000
(1787076617.557950) can0 1CEBFFF1#01000BFFFDDB75FF
(1787076617.558928) can0 1CEBFFF1#02FE55F2000089B3
(1787076617.559942) can0 1CEBFFF1#03F83FEC76FFFFFF
(1787076617.562588) can0 18FEF1F8#FF0000FFFFFFFFFF
(1787076617.563738) can0 18F005F8#7DFFFF7DFFFFFFFF
(1787076617.585972) can0 18F015F1#00003E8E4BA4461C
(1787076617.595877) can0 18F017F1#DE5300849555
(1787076617.596320) can0 18F018F1#D94EFC799167
(1787076617.623705) can0 18FF14D1#
(1787076617.656996) can0 1CECFFF1#20120003FF19F000
(1787076617.657953) can0 1CEBFFF1#01000BFFFDDB75FF
(1787076617.658931) can0 1CEBFFF1#02FE55F2000089B3
(1787076617.659944) can0 1CEBFFF1#03F83FEC76FFFFFF
(1787076617.662595) can0 18FEF1F8#FF0000FFFFFFFFFF
(1787076617.663778) can0 18F005F8#7DFFFF7DFFFFFFFF
(1787076617.686127) can0 18F015F1#00003E8E4BA5461D
(1787076617.757173) can0 1CECFFF1#20120003FF19F000
(1787076617.757970) can0 1CEBFFF1#01000BFFFDDB75FF
(1787076617.758964) can0 1CEBFFF1#02FE55F2000089B3
(1787076617.759936) can0 1CEBFFF1#03F83FEC76FFFFFF
(1787076617.762990) can0 18FEF1F8#FF0000FFFFFFFFFF
(1787076617.764266) can0 18F005F8#7DFFFF7DFFFFFFFF
(1787076617.786430) can0 18F015F1#00003E8E4BA5461D
(1787076617.856971) can0 1CECFFF1#20120003FF19F000
(1787076617.857939) can0 1CEBFFF1#01000BFFFDDB75FF
(1787076617.858921) can0 1CEBFFF1#02FE55F2000089B3
(1787076617.859936) can0 1CEBFFF1#03F83FEC76FFFFFF
(1787076617.862541) can0 18FEF1F8#FF0000FFFFFFFFFF
(1787076617.863704) can0 18F005F8#7DFFFF7DFFFFFFFF
(1787076617.886009) can0 18F015F1#00003E8E4BA4461D
(1787076617.956977) can0 1CECFFF1#20120003FF19F000
(1787076617.957952) can0 1CEBFFF1#01000BFFFDDB75FF
(1787076617.958936) can0 1CEBFFF1#02FE55F2000089B3
(1787076617.959952) can0 1CEBFFF1#03F83FEC76FFFFFF
(1787076617.962658) can0 18FEF1F8#FF0000FFFFFFFFFF
(1787076617.963836) can0 18F005F8#7DFFFF7DFFFFFFFF
(1787076617.986065) can0 18F015F1#00003E8E4BA5461D
(1787076618.057165) can0 1CECFFF1#20120003FF19F000
(1787076618.057959) can0 1CEBFFF1#01000BFFFDDB75FF
(1787076618.059062) can0 1CEBFFF1#02FE55F2000089B3
(1787076618.059989) can0 1CEBFFF1#03F83FEC76FFFFFF
(1787076618.062717) can0 18FEF1F8#FF0000FFFFFFFFFF
(1787076618.064097) can0 18F005F8#7DFFFF7DFFFFFFFF
(1787076618.086149) can0 18F015F1#00003E8E4BA5461C
(1787076618.123917) can0 18FF14D1#
(1787076618.157064) can0 1CECFFF1#20120003FF19F000
(1787076618.157960) can0 1CEBFFF1#01000BFFFDDB75FF
(1787076618.158936) can0 1CEBFFF1#02FE55F2000089B3
(1787076618.159953) can0 1CEBFFF1#03F83FEC76FFFFFF
(1787076618.162558) can0 18FEF1F8#FF0000FFFFFFFFFF
(1787076618.163695) can0 18F005F8#7DFFFF7DFFFFFFFF
(1787076618.185992) can0 18F015F1#00003E8E4BA4461D
(1787076618.257988) can0 1CECFFF1#20120003FF19F000
(1787076618.258940) can0 1CEBFFF1#01000BFFFDDB75FF
(1787076618.259924) can0 1CEBFFF1#02FE55F2000089B3
(1787076618.260941) can0 1CEBFFF1#03F83FEC76FFFFFF
(1787076618.262522) can0 18FEF1F8#FF0000FFFFFFFFFF
(1787076618.263655) can0 18F005F8#7DFFFF7DFFFFFFFF
(1787076618.286953) can0 18F015F1#00003E8E4BA4461D
(1787076618.358043) can0 1CECFFF1#20120003FF19F000
(1787076618.359240) can0 1CEBFFF1#01000BFFFDDB75FF
(1787076618.359943) can0 1CEBFFF1#02FE55F2000089B3
(1787076618.360972) can0 1CEBFFF1#03F83FEC76FFFFFF
(1787076618.362590) can0 18FEF1F8#FF0000FFFFFFFFFF
(1787076618.363786) can0 18F005F8#7DFFFF7DFFFFFFFF
(1787076618.387558) can0 18F015F1#00003E8E4BA5461D
(1787076618.458099) can0 1CECFFF1#20120003FF19F000
(1787076618.458948) can0 1CEBFFF1#01000BFFFDDB75FF
(1787076618.459927) can0 1CEBFFF1#02FE55F2000089B3
(1787076618.460941) can0 1CEBFFF1#03F83FEC76FFFFFF
(1787076618.462932) can0 18FEF1F8#FF0000FFFFFFFFFF
(1787076618.464805) can0 18F005F8#7DFFFF7DFFFFFFFF
(1787076618.486960) can0 18F015F1#00003E8E4BA4461D
(1787076618.557993) can0 1CECFFF1#20120003FF19F000
(1787076618.558974) can0 1CEBFFF1#01000BFFFDDB75FF
(1787076618.559946) can0 1CEBFFF1#02FE55F2000089B3
(1787076618.560956) can0 1CEBFFF1#03F83FEC76FFFFFF
(1787076618.562540) can0 18FEF1F8#FF0000FFFFFFFFFF
(1787076618.563726) can0 18F005F8#7DFFFF7DFFFFFFFF
(1787076618.586958) can0 18F015F1#00003E8E4BA4461D
(1787076618.597875) can0 18F017F1#DD9800FC95EF
(1787076618.598341) can0 18F018F1#DABCFC7190CF
(1787076618.623679) can0 18FF14D1#
(1787076618.658021) can0 1CECFFF1#20120003FF19F000
(1787076618.658966) can0 1CEBFFF1#01000BFFFDDB75FF
(1787076618.659950) can0 1CEBFFF1#02FE55F2000089B3
(1787076618.660959) can0 1CEBFFF1#03F83E2CB7FFFFFF
(1787076618.662743) can0 18FEF1F8#FF0000FFFFFFFFFF
(1787076618.663961) can0 18F005F8#7DFFFF7DFFFFFFFF
(1787076618.687058) can0 18F015F1#00003E8D4BA5461D
(1787076618.758175) can0 1CECFFF1#20120003FF19F000
(1787076618.758957) can0 1CEBFFF1#01000BFFFDDB75FF
(1787076618.759976) can0 1CEBFFF1#02FE55F2000089B3
(1787076618.760946) can0 1CEBFFF1#03F83E2CB7FFFFFF
(1787076618.762566) can0 18FEF1F8#FF0000FFFFFFFFFF
(1787076618.763725) can0 18F005F8#7DFFFF7DFFFFFFFF
(1787076618.787223) can0 18F015F1#00003E8D4BA5461D
(1787076618.857984) can0 1CECFFF1#20120003FF19F000
(1787076618.858949) can0 1CEBFFF1#01000BFFFDDB75FF
(1787076618.859931) can0 1CEBFFF1#02FE55F2000089B3
(1787076618.860953) can0 1CEBFFF1#03F83E2CB7FFFFFF
(1787076618.862581) can0 18FEF1F8#FF0000FFFFFFFFFF
(1787076618.863760) can0 18F005F8#7DFFFF7DFFFFFFFF
(1787076618.886992) can0 18F015F1#00003E8D4BA4461D
(1787076618.958994) can0 1CECFFF1#20120003FF19F000
(1787076618.959961) can0 1CEBFFF1#01000BFFFDDB75FF
(1787076618.960954) can0 1CEBFFF1#02FE55F2000089B3
(1787076618.962051) can0 1CEBFFF1#03F83E2CB7FFFFFF
(1787076618.963319) can0 18FEF1F8#FF0000FFFFFFFFFF
(1787076618.964496) can0 18F005F8#7DFFFF7DFFFFFFFF
(1787076618.987991) can0 18F015F1#00003E8D4BA5461D
(1787076619.059222) can0 1CECFFF1#20120003FF19F000
(1787076619.060004) can0 1CEBFFF1#01000BFFFDDB75FF
(1787076619.061126) can0 1CEBFFF1#02FE55F2000089B3
(1787076619.062089) can0 1CEBFFF1#03F83E2CB7FFFFFF
(1787076619.063293) can0 18FEF1F8#FF0000FFFFFFFFFF
(1787076619.064520) can0 18F005F8#7DFFFF7DFFFFFFFF
(1787076619.088125) can0 18F015F1#00003E8D4BA5461D
(1787076619.123903) can0 18FF14D1#
(1787076619.158984) can0 1CECFFF1#20120003FF19F000
(1787076619.159959) can0 1CEBFFF1#01000BFFFDDB75FF
(1787076619.160941) can0 1CEBFFF1#02FE55F2000089B3
(1787076619.162085) can0 1CEBFFF1#03F83E2CB7FFFFFF
(1787076619.162571) can0 18FEF1F8#FF0000FFFFFFFFFF
(1787076619.163693) can0 18F005F8#7DFFFF7DFFFFFFFF
(1787076619.187980) can0 18F015F1#00003E8D4BA4461D
(1787076619.258995) can0 1CECFFF1#20120003FF19F000
(1787076619.260138) can0 1CEBFFF1#01000BFFFDDB75FF
(1787076619.260938) can0 1CEBFFF1#02FE55F2000089B3
(1787076619.262041) can0 1CEBFFF1#03F83E2CB7FFFFFF
(1787076619.262544) can0 18FEF1F8#FF0000FFFFFFFFFF
(1787076619.263660) can0 18F005F8#7DFFFF7DFFFFFFFF
(1787076619.287963) can0 18F015F1#00003E8D4BA5461D
(1787076619.359351) can0 1CECFFF1#20120003FF19F000
(1787076619.360306) can0 1CEBFFF1#01000BFFFDDB75FF
(1787076619.366529) can0 1CEBFFF1#02FE55F2000089B3
(1787076619.366740) can0 1CEBFFF1#03F83E2CB7FFFFFF
(1787076619.368327) can0 18FEF1F8#FF0000FFFFFFFFFF
(1787076619.369710) can0 18F005F8#7DFFFF7DFFFFFFFF
(1787076619.389029) can0 18F015F1#00003E8D4BA5461D
(1787076619.459459) can0 1CECFFF1#20120003FF19F000
(1787076619.459983) can0 1CEBFFF1#01000BFFFDDB75FF
(1787076619.460990) can0 1CEBFFF1#02FE55F2000089B3
(1787076619.462404) can0 1CEBFFF1#03F83E2CB7FFFFFF
(1787076619.462976) can0 18FEF1F8#FF0000FFFFFFFFFF
(1787076619.466515) can0 18F005F8#7DFFFF7DFFFFFFFF
(1787076619.488456) can0 18F015F1#00003E8D4BA5461D
(1787076619.559989) can0 1CECFFF1#20120003FF19F000
(1787076619.560950) can0 1CEBFFF1#01000BFFFDDB75FF
(1787076619.562052) can0 1CEBFFF1#02FE55F2000089B3
(1787076619.562548) can0 18FEF1F8#FF0000FFFFFFFFFF
(1787076619.563234) can0 1CEBFFF1#03F83E2CB7FFFFFF
(1787076619.563692) can0 18F005F8#7DFFFF7DFFFFFFFF
(1787076619.588963) can0 18F015F1#00003E8D4BA5461D
(1787076619.598865) can0 18F017F1#DD9800FC95EF
(1787076619.599508) can0 18F018F1#DABCFC7190CF
(1787076619.623657) can0 18FF14D1#
(1787076619.660003) can0 1CECFFF1#20120003FF19F000
(1787076619.660966) can0 1CEBFFF1#01000BFFFDDB75FF
(1787076619.662065) can0 1CEBFFF1#02FE55F2000089B3
(1787076619.662546) can0 18FEF1F8#FF0000FFFFFFFFFF
(1787076619.663210) can0 1CEBFFF1#03F83E2CB7FFFFFF
(1787076619.663693) can0 18F005F8#7DFFFF7DFFFFFFFF
(1787076619.689015) can0 18F015F1#00003E8D4BA5461D
(1787076619.760169) can0 1CECFFF1#20120003FF19F000
(1787076619.760977) can0 1CEBFFF1#01000BFFFDDB75FF
(1787076619.762255) can0 1CEBFFF1#02FE55F2000089B3
(1787076619.762697) can0 18FEF1F8#FF0000FFFFFFFFFF
(1787076619.763375) can0 1CEBFFF1#03F83E2CB7FFFFFF
(1787076619.763861) can0 18F005F8#7DFFFF7DFFFFFFFF
(1787076619.789360) can0 18F015F1#00003E8D4BA5461D
(1787076619.860001) can0 1CECFFF1#20120003FF19F000
(1787076619.860954) can0 1CEBFFF1#01000BFFFDDB75FF
(1787076619.862047) can0 1CEBFFF1#02FE55F2000089B3
(1787076619.862538) can0 18FEF1F8#FF0000FFFFFFFFFF
(1787076619.863177) can0 1CEBFFF1#03F83E2CB7FFFFFF
(1787076619.863691) can0 18F005F8#7DFFFF7DFFFFFFFF
(1787076619.888970) can0 18F015F1#00003E8D4BA5461D
(1787076619.959991) can0 1CECFFF1#20120003FF19F000
(1787076619.960972) can0 1CEBFFF1#01000BFFFDDB75FF
(1787076619.962381) can0 1CEBFFF1#02FE55F2000089B3
(1787076619.962850) can0 18FEF1F8#FF0000FFFFFFFFFF
(1787076619.963491) can0 1CEBFFF1#03F83E2CB7FFFFFF
(1787076619.963996) can0 18F005F8#7DFFFF7DFFFFFFFF
(1787076619.988959) can0 18F015F1#00003E8D4BA5461D
(1787076620.060343) can0 1CECFFF1#20120003FF19F000
(1787076620.061150) can0 1CEBFFF1#01000BFFFDDB75FF
(1787076620.062234) can0 1CEBFFF1#02FE55F2000089B3
(1787076620.062708) can0 18FEF1F8#FF0000FFFFFFFFFF
(1787076620.063550) can0 1CEBFFF1#03F83E2CB7FFFFFF
(1787076620.064092) can0 18F005F8#7DFFFF7DFFFFFFFF
(1787076620.089709) can0 18F015F1#00003E8D4BA5461D
(1787076620.123958) can0 18FF14D1#
(1787076620.160150) can0 1CECFFF1#20120003FF19F000
(1787076620.161482) can0 1CEBFFF1#01000BFFFDDB75FF
(1787076620.162032) can0 1CEBFFF1#02FE55F2000089B3
(1787076620.162980) can0 1CEBFFF1#03F83E2CB7FFFFFF
(1787076620.163516) can0 18FEF1F8#FF0000FFFFFFFFFF
(1787076620.164736) can0 18F005F8#7DFFFF7DFFFFFFFF
(1787076620.188975) can0 18F015F1#00003E8D4BA4461D
(1787076620.259993) can0 1CECFFF1#20120003FF19F000
(1787076620.260955) can0 1CEBFFF1#01000BFFFDDB75FF
(1787076620.262038) can0 1CEBFFF1#02FE55F2000089B3
(1787076620.262526) can0 18FEF1F8#FF0000FFFFFFFFFF
(1787076620.263154) can0 1CEBFFF1#03F83E2CB7FFFFFF
(1787076620.263683) can0 18F005F8#7DFFFF7DFFFFFFFF
(1787076620.288947) can0 18F015F1#00003E8D4BA5461D
(1787076620.361025) can0 1CECFFF1#20120003FF19F000
(1787076620.362058) can0 1CEBFFF1#01000BFFFDDB75FF
(1787076620.362568) can0 18FEF1F8#FF0000FFFFFFFFFF
(1787076620.363258) can0 1CEBFFF1#02FE55F2000089B3
(1787076620.363761) can0 18F005F8#7DFFFF7DFFFFFFFF
(1787076620.364367) can0 1CEBFFF1#03F83D2DF7FFFFFF
(1787076620.390048) can0 18F015F1#00003E8D4BA5461D
(1787076620.461012) can0 1CECFFF1#20120003FF19F000
(1787076620.461960) can0 1CEBFFF1#01000BFFFDDB75FF
(1787076620.462934) can0 1CEBFFF1#02FE55F2000089B3
(1787076620.463490) can0 18FEF1F8#FF0000FFFFFFFFFF
(1787076620.464147) can0 1CEBFFF1#03F83D2DF7FFFFFF
(1787076620.464666) can0 18F005F8#7DFFFF7DFFFFFFFF
(1787076620.489983) can0 18F015F1#00003E8C4BA5461D
(1787076620.560995) can0 1CECFFF1#20120003FF19F000
(1787076620.562047) can0 1CEBFFF1#01000BFFFDDB75FF
(1787076620.562540) can0 18FEF1F8#FF0000FFFFFFFFFF
(1787076620.563252) can0 1CEBFFF1#02FE55F2000089B3
(1787076620.563730) can0 18F005F8#7DFFFF7DFFFFFFFF
(1787076620.564339) can0 1CEBFFF1#03F83D2DF7FFFFFF
(1787076620.589966) can0 18F015F1#00003E8C4BA5461D
(1787076620.600881) can0 18F017F1#DD33FF7594CA
(1787076620.601338) can0 18F018F1#DB2EFDC091D5
(1787076620.623621) can0 18FF14D1#
(1787076620.661007) can0 1CECFFF1#20120003FF19F000
(1787076620.662077) can0 1CEBFFF1#01000BFFFDDB75FF
(1787076620.662565) can0 18FEF1F8#FF0000FFFFFFFFFF
(1787076620.663298) can0 1CEBFFF1#02FE55F2000089B3
(1787076620.663769) can0 18F005F8#7DFFFF7DFFFFFFFF
(1787076620.664365) can0 1CEBFFF1#03F83D2DF7FFFFFF
(1787076620.690091) can0 18F015F1#00003E8C4BA5461D
(1787076620.761062) can0 1CECFFF1#20120003FF19F000
(1787076620.762244) can0 1CEBFFF1#01000BFFFDDB75FF
(1787076620.762732) can0 18FEF1F8#FF0000FFFFFFFFFF
(1787076620.763434) can0 1CEBFFF1#02FE55F2000089B3
(1787076620.763956) can0 18F005F8#7DFFFF7DFFFFFFFF
(1787076620.764592) can0 1CEBFFF1#03F83D2DF7FFFFFF
(1787076620.790001) can0 18F015F1#00003E8C4BA5461D
(1787076620.860999) can0 1CECFFF1#20120003FF19F000
(1787076620.862062) can0 1CEBFFF1#01000BFFFDDB75FF
(1787076620.862539) can0 18FEF1F8#FF0000FFFFFFFFFF
(1787076620.863174) can0 1CEBFFF1#02FE55F2000089B3
(1787076620.863669) can0 18F005F8#7DFFFF7DFFFFFFFF
(1787076620.864281) can0 1CEBFFF1#03F83D2DF7FFFFFF
(1787076620.890012) can0 18F015F1#00003E8C4BA5461D
(1787076620.961012) can0 1CECFFF1#20120003FF19F000
(1787076620.962101) can0 1CEBFFF1#01000BFFFDDB75FF
(1787076620.962964) can0 1CEBFFF1#02FE55F2000089B3
(1787076620.963518) can0 18FEF1F8#FF0000FFFFFFFFFF
(1787076620.964196) can0 1CEBFFF1#03F83D2DF7FFFFFF
(1787076620.964679) can0 18F005F8#7DFFFF7DFFFFFFFF
(1787076620.989996) can0 18F015F1#00003E8C4BA5461D
(1787076621.063039) can0 1CECFFF1#20120003FF19F000
(1787076621.063710) can0 1CEBFFF1#01000BFFFDDB75FF
(1787076621.064031) can0 18FEF1F8#FF0000FFFFFFFFFF
(1787076621.064393) can0 1CEBFFF1#02FE55F2000089B3
(1787076621.065177) can0 1CEBFFF1#03F83D2DF7FFFFFF
(1787076621.065674) can0 18F005F8#7DFFFF7DFFFFFFFF
(1787076621.091240) can0 18F015F1#00003E8C4BA5461D
(1787076621.124170) can0 18FF14D1#
(1787076621.162396) can0 1CECFFF1#20120003FF19F000
(1787076621.162900) can0 18FEF1F8#FF0000FFFFFFFFFF
(1787076621.163597) can0 1CEBFFF1#01000BFFFDDB75FF
(1787076621.164023) can0 1CEBFFF1#02FE55F2000089B3
(1787076621.164574) can0 18F005F8#7DFFFF7DFFFFFFFF
(1787076621.165187) can0 1CEBFFF1#03F83D2DF7FFFFFF
(1787076621.191011) can0 18F015F1#00003E8C4BA5461D
(1787076621.262099) can0 1CECFFF1#20120003FF19F000
(1787076621.262588) can0 18FEF1F8#FF0000FFFFFFFFFF
(1787076621.263261) can0 1CEBFFF1#01000BFFFDDB75FF
(1787076621.263740) can0 18F005F8#7DFFFF7DFFFFFFFF
(1787076621.264339) can0 1CEBFFF1#02FE55F2000089B3
(1787076621.264975) can0 1CEBFFF1#03F83D2DF7FFFFFF
(1787076621.290989) can0 18F015F1#00003E8C4BA5461D
(1787076621.362251) can0 1CECFFF1#20120003FF19F000
(1787076621.362787) can0 18FEF1F8#FF0000FFFFFFFFFF
(1787076621.363476) can0 1CEBFFF1#01000BFFFDDB75FF
(1787076621.363960) can0 1CEBFFF1#02FE55F2000089B3
(1787076621.364516) can0 18F005F8#7DFFFF7DFFFFFFFF
(1787076621.365149) can0 1CEBFFF1#03F83D2DF7FFFFFF
(1787076621.391375) can0 18F015F1#00003E8C4BA5461D
(1787076621.469759) can0 1CECFFF1#20120003FF19F000
(1787076621.470527) can0 1CEBFFF1#01000BFFFDDB75FF
(1787076621.470912) can0 18FEF1F8#FF0000FFFFFFFFFF
(1787076621.471712) can0 1CEBFFF1#03F83D2DF7FFFFFF
(1787076621.473061) can0 18F005F8#7DFFFF7DFFFFFFFF
(1787076621.491001) can0 18F015F1#00003E8C4BA5461D
(1787076621.562121) can0 1CECFFF1#20120003FF19F000
(1787076621.562616) can0 18FEF1F8#FF0000FFFFFFFFFF
(1787076621.563237) can0 1CEBFFF1#01000BFFFDDB75FF
(1787076621.563772) can0 18F005F8#7DFFFF7DFFFFFFFF
(1787076621.564369) can0 1CEBFFF1#02FE55F2000089B3
(1787076621.564999) can0 1CEBFFF1#03F83D2DF7FFFFFF
(1787076621.591006) can0 18F015F1#00003E8C4BA5461D
(1787076621.601904) can0 18F017F1#DD33FF7594CA
(1787076621.602339) can0 18F018F1#DB2EFDC091D5
(1787076621.623623) can0 18FF14D1#
(1787076621.662687) can0 18FEF1F8#FF0000FFFFFFFFFF
(1787076621.663290) can0 1CECFFF1#20120003FF19F000
(1787076621.663826) can0 18F005F8#7DFFFF7DFFFFFFFF
(1787076621.664460) can0 1CEBFFF1#01000BFFFDDB75FF
(1787076621.664980) can0 1CEBFFF1#02FE55F2000089B3
(1787076621.666342) can0 1CEBFFF1#03F83D2DF7FFFFFF
(1787076621.692014) can0 18F015F1#00003E8C4BA5461D
(1787076621.763130) can0 1CECFFF1#20120003FF19F000
(1787076621.763558) can0 18FEF1F8#FF0000FFFFFFFFFF
(1787076621.764267) can0 1CEBFFF1#01000BFFFDDB75FF
(1787076621.765230) can0 1CEBFFF1#02FE55F2000089B3
(1787076621.765830) can0 18F005F8#7DFFFF7DFFFFFFFF
(1787076621.766327) can0 1CEBFFF1#03F83D2DF7FFFFFF
(1787076621.792282) can0 18F015F1#00003E8C4BA6461D
(1787076621.862592) can0 18FEF1F8#FF0000FFFFFFFFFF
(1787076621.863291) can0 1CECFFF1#20120003FF19F000
(1787076621.863756) can0 18F005F8#7DFFFF7DFFFFFFFF
(1787076621.864366) can0 1CEBFFF1#01000BFFFDDB75FF
(1787076621.864968) can0 1CEBFFF1#02FE55F2000089B3
(1787076621.866031) can0 1CEBFFF1#03F83D2DF7FFFFFF
(1787076621.892003) can0 18F015F1#00003E8C4BA5461D
(1787076621.962822) can0 18FEF1F8#FF0000FFFFFFFFFF
(1787076621.963491) can0 1CECFFF1#20120003FF19F000
(1787076621.963968) can0 1CEBFFF1#01000BFFFDDB75FF
(1787076621.964514) can0 18F005F8#7DFFFF7DFFFFFFFF
(1787076621.965109) can0 1CEBFFF1#02FE55F2000089B3
(1787076621.966003) can0 1CEBFFF1#03F83D2DF7FFFFFF
(1787076621.991985) can0 18F015F1#00003E8C4BA5461D
(1787076622.062752) can0 18FEF1F8#FF0000FFFFFFFFFF
(1787076622.063614) can0 1CECFFF1#20120003FF19F000
(1787076622.064012) can0 1CEBFFF1#01000BFFFDDB75FF
(1787076622.064542) can0 18F005F8#7DFFFF7DFFFFFFFF
(1787076622.065136) can0 1CEBFFF1#02FE55F2000089B3
(1787076622.066075) can0 1CEBFFF1#03F83D2DF7FFFFFF
(1787076622.092609) can0 18F015F1#00003E8C4BA6461D
(1787076622.123867) can0 18FF14D1#
(1787076622.162987) can0 18FEF1F8#FF0000FFFFFFFFFF
(1787076622.163728) can0 1CECFFF1#20120003FF19F000
(1787076622.164281) can0 1CEBFFF1#01000BFFFDDB75FF
(1787076622.164550) can0 18F005F8#7DFFFF7DFFFFFFFF
(1787076622.165121) can0 1CEBFFF1#02FE55F2000089B3
(1787076622.166076) can0 1CEBFFF1#03F83D2DF7FFFFFF
(1787076622.192126) can0 18F015F1#00003E8C4BA5461D
(1787076622.262601) can0 18FEF1F8#FF0000FFFFFFFFFF
(1787076622.263338) can0 1CECFFF1#20120003FF19F000
(1787076622.263837) can0 18F005F8#7DFFFF7DFFFFFFFF
(1787076622.264457) can0 1CEBFFF1#01000BFFFDDB75FF
(1787076622.265015) can0 1CEBFFF1#02FE55F2000089B3
(1787076622.266003) can0 1CEBFFF1#03F83D2DF7FFFFFF
(1787076622.291985) can0 18F015F1#00003E8C4BA5461D
(1787076622.363143) can0 1CECFFF1#20120003FF19F000
(1787076622.363983) can0 1CEBFFF1#01000BFFFDDB75FF
(1787076622.364535) can0 18FEF1F8#FF0000FFFFFFFFFF
(1787076622.365233) can0 1CEBFFF1#02FE55F2000089B3
(1787076622.365726) can0 18F005F8#7DFFFF7DFFFFFFFF
(1787076622.366352) can0 1CEBFFF1#03F83D2DF7FFFFFF
(1787076622.392043) can0 18F015F1#00003E8C4BA5461D
(1787076622.463172) can0 18FEF1F8#FF0000FFFFFFFFFF
(1787076622.464286) can0 1CECFFF1#20120003FF19F000
(1787076622.466965) can0 1CEBFFF1#01000BFFFDDB75FF
(1787076622.467198) can0 1CEBFFF1#02FE55F2000089B3
(1787076622.467330) can0 18F005F8#7DFFFF7DFFFFFFFF
(1787076622.467680) can0 1CEBFFF1#03F83D2DF7FFFFFF
(1787076622.493340) can0 18F015F1#00003E8C4BA6461D
(1787076622.562597) can0 18FEF1F8#FF0000FFFFFFFFFF
(1787076622.563792) can0 18F005F8#7DFFFF7DFFFFFFFF
(1787076622.564415) can0 1CECFFF1#20120003FF19F000
(1787076622.565067) can0 1CEBFFF1#01000BFFFDDB75FF
(1787076622.566041) can0 1CEBFFF1#02FE55F2000089B3
(1787076622.566986) can0 1CEBFFF1#03F83D2DF7FFFFFF
(1787076622.592993) can0 18F015F1#00003E8C4BA5461E
(1787076622.602905) can0 18F017F1#DD70006F94F8
(1787076622.603365) can0 18F018F1#DB5DFDE29198
(1787076622.623509) can0 18FF14D1#
(1787076622.662573) can0 18FEF1F8#FF0000FFFFFFFFFF
(1787076622.663773) can0 18F005F8#7DFFFF7DFFFFFFFF
(1787076622.664388) can0 1CECFFF1#20120003FF19F000
(1787076622.665253) can0 1CEBFFF1#01000BFFFDDB75FF
(1787076622.665991) can0 1CEBFFF1#02FE55F2000089B3
(1787076622.666988) can0 1CEBFFF1#03F83D2DF7FFFFFF
(1787076622.692980) can0 18F015F1#00003E8B4BA5461D
(1787076622.765270) can0 1CECFFF1#20120003FF19F000
(1787076622.765464) can0 1CEBFFF1#01000BFFFDDB75FF
(1787076622.765699) can0 18FEF1F8#FF0000FFFFFFFFFF
(1787076622.766536) can0 1CEBFFF1#02FE55F2000089B3
(1787076622.767007) can0 1CEBFFF1#03F83D2DF7FFFFFF
(1787076622.767565) can0 18F005F8#7DFFFF7DFFFFFFFF
(1787076622.793529) can0 18F015F1#00003E8C4BA6461D
(1787076622.862614) can0 18FEF1F8#FF0000FFFFFFFFFF
(1787076622.863832) can0 18F005F8#7DFFFF7DFFFFFFFF
(1787076622.864425) can0 1CECFFF1#20120003FF19F000
(1787076622.865004) can0 1CEBFFF1#01000BFFFDDB75FF
(1787076622.866659) can0 1CEBFFF1#02FE55F2000089B3
(1787076622.867002) can0 1CEBFFF1#03F83D2DF7FFFFFF
(1787076622.893025) can0 18F015F1#00003E8C4BA5461E
(1787076622.962909) can0 18FEF1F8#FF0000FFFFFFFFFF
(1787076622.963997) can0 1CECFFF1#20120003FF19F000
(1787076622.964537) can0 18F005F8#7DFFFF7DFFFFFFFF
(1787076622.965146) can0 1CEBFFF1#01000BFFFDDB75FF
(1787076622.966011) can0 1CEBFFF1#02FE55F2000089B3
(1787076622.966983) can0 1CEBFFF1#03F83CED36FFFFFF
(1787076622.993030) can0 18F015F1#00003E8B4BA5461D
(1787076623.062666) can0 18FEF1F8#FF0000FFFFFFFFFF
(1787076623.063857) can0 18F005F8#7DFFFF7DFFFFFFFF
(1787076623.064459) can0 1CECFFF1#20120003FF19F000
(1787076623.065029) can0 1CEBFFF1#01000BFFFDDB75FF
(1787076623.066009) can0 1CEBFFF1#02FE55F2000089B3
(1787076623.066982) can0 1CEBFFF1#03F83CED36FFFFFF
(1787076623.093065) can0 18F015F1#00003E8C4BA5461E
(1787076623.123746) can0 18FF14D1#
(1787076623.164176) can0 1CECFFF1#20120003FF19F000
(1787076623.165129) can0 18FEF1F8#FF0000FFFFFFFFFF
(1787076623.166657) can0 1CEBFFF1#01000BFFFDDB75FF
(1787076623.167230) can0 1CEBFFF1#02FE55F2000089B3
(1787076623.169002) can0 1CEBFFF1#03F83CED36FFFFFF
(1787076623.172114) can0 18F005F8#7DFFFF7DFFFFFFFF
(1787076623.194358) can0 18F015F1#00003E8B4BA5461E
(1787076623.262628) can0 18FEF1F8#FF0000FFFFFFFFFF
(1787076623.263841) can0 18F005F8#7DFFFF7DFFFFFFFF
(1787076623.264990) can0 1CECFFF1#20120003FF19F000
(1787076623.266011) can0 1CEBFFF1#01000BFFFDDB75FF
(1787076623.266962) can0 1CEBFFF1#02FE55F2000089B3
(1787076623.267974) can0 1CEBFFF1#03F83CED36FFFFFF
(1787076623.293983) can0 18F015F1#00003E8B4BA5461D
(1787076623.362595) can0 18FEF1F8#FF0000FFFFFFFFFF
(1787076623.363744) can0 18F005F8#7DFFFF7DFFFFFFFF
(1787076623.364988) can0 1CECFFF1#20120003FF19F000
(1787076623.366009) can0 1CEBFFF1#01000BFFFDDB75FF
(1787076623.366985) can0 1CEBFFF1#02FE55F2000089B3
(1787076623.367993) can0 1CEBFFF1#03F83CED36FFFFFF
(1787076623.394032) can0 18F015F1#00003E8B4BA5461E
(1787076623.463691) can0 18FEF1F8#FF0000FFFFFFFFFF
(1787076623.464969) can0 18F005F8#7DFFFF7DFFFFFFFF
(1787076623.465586) can0 1CECFFF1#20120003FF19F000
(1787076623.466165) can0 1CEBFFF1#01000BFFFDDB75FF
(1787076623.467002) can0 1CEBFFF1#02FE55F2000089B3
(1787076623.468063) can0 1CEBFFF1#03F83CED36FFFFFF
(1787076623.494193) can0 18F015F1#00003E8B4BA5461E
(1787076623.562599) can0 18FEF1F8#FF0000FFFFFFFFFF
(1787076623.563749) can0 18F005F8#7DFFFF7DFFFFFFFF
(1787076623.564983) can0 1CECFFF1#20120003FF19F000
(1787076623.566757) can0 1CEBFFF1#01000BFFFDDB75FF
(1787076623.567009) can0 1CEBFFF1#02FE55F2000089B3
(1787076623.567990) can0 1CEBFFF1#03F83CED36FFFFFF
(1787076623.593995) can0 18F015F1#00003E8B4BA5461E
(1787076623.604919) can0 18F017F1#DD70006F94F8
(1787076623.605362) can0 18F018F1#DB5DFDE29198
(1787076623.623533) can0 18FF14D1#
(1787076623.662564) can0 18FEF1F8#FF0000FFFFFFFFFF
(1787076623.663761) can0 18F005F8#7DFFFF7DFFFFFFFF
(1787076623.664989) can0 1CECFFF1#20120003FF19F000
(1787076623.666011) can0 1CEBFFF1#01000BFFFDDB75FF
(1787076623.666970) can0 1CEBFFF1#02FE55F2000089B3
(1787076623.667986) can0 1CEBFFF1#03F83CED36FFFFFF
(1787076623.693993) can0 18F015F1#00003E8B4BA6461E
(1787076623.762763) can0 18FEF1F8#FF0000FFFFFFFFFF
(1787076623.764052) can0 18F005F8#7DFFFF7DFFFFFFFF
(1787076623.766143) can0 1CECFFF1#20120003FF19F000
(1787076623.767017) can0 1CEBFFF1#01000BFFFDDB75FF
(1787076623.768018) can0 1CEBFFF1#02FE55F2000089B3
(1787076623.769010) can0 1CEBFFF1#03F83CED36FFFFFF
(1787076623.795293) can0 18F015F1#00003E8B4BA5461E
(1787076623.862657) can0 18FEF1F8#FF0000FFFFFFFFFF
(1787076623.863804) can0 18F005F8#7DFFFF7DFFFFFFFF
(1787076623.866022) can0 1CECFFF1#20120003FF19F000
(1787076623.866983) can0 1CEBFFF1#01000BFFFDDB75FF
(1787076623.867966) can0 1CEBFFF1#02FE55F2000089B3
(1787076623.868980) can0 1CEBFFF1#03F83CED36FFFFFF
(1787076623.895077) can0 18F015F1#00003E8B4BA5461E
(1787076623.962836) can0 18FEF1F8#FF0000FFFFFFFFFF
(1787076623.964018) can0 18F005F8#7DFFFF7DFFFFFFFF
(1787076623.966132) can0 1CECFFF1#20120003FF19F000
(1787076623.967022) can0 1CEBFFF1#01000BFFFDDB75FF
(1787076623.967986) can0 1CEBFFF1#02FE55F2000089B3
(1787076623.969002) can0 1CEBFFF1#03F83CED36FFFFFF
(1787076623.995054) can0 18F015F1#00003E8B4BA5461D
(1787076624.062624) can0 18FEF1F8#FF0000FFFFFFFFFF
(1787076624.063785) can0 18F005F8#7DFFFF7DFFFFFFFF
(1787076624.066034) can0 1CECFFF1#20120003FF19F000
(1787076624.066992) can0 1CEBFFF1#01000BFFFDDB75FF
(1787076624.067978) can0 1CEBFFF1#02FE55F2000089B3
(1787076624.068985) can0 1CEBFFF1#03F83CED36FFFFFF
(1787076624.095220) can0 18F015F1#00003E8B4BA5461D
(1787076624.123836) can0 18FF14D1#
(1787076624.162958) can0 18FEF1F8#FF0000FFFFFFFFFF
(1787076624.164112) can0 18F005F8#7DFFFF7DFFFFFFFF
(1787076624.166031) can0 1CECFFF1#20120003FF19F000
(1787076624.166998) can0 1CEBFFF1#01000BFFFDDB75FF
(1787076624.167972) can0 1CEBFFF1#02FE55F2000089B3
(1787076624.168984) can0 1CEBFFF1#03F83CED36FFFFFF
(1787076624.195698) can0 18F015F1#00003E8B4BA5461D
(1787076624.262592) can0 18FEF1F8#FF0000FFFFFFFFFF
(1787076624.263749) can0 18F005F8#7DFFFF7DFFFFFFFF
(1787076624.266013) can0 1CECFFF1#20120003FF19F000
(1787076624.266998) can0 1CEBFFF1#01000BFFFDDB75FF
(1787076624.268166) can0 1CEBFFF1#02FE55F2000089B3
(1787076624.268992) can0 1CEBFFF1#03F83CED36FFFFFF
(1787076624.295012) can0 18F015F1#00003E8B4BA5461D
(1787076624.362604) can0 18FEF1F8#FF0000FFFFFFFFFF
(1787076624.363763) can0 18F005F8#7DFFFF7DFFFFFFFF
(1787076624.366029) can0 1CECFFF1#20120003FF19F000
(1787076624.366996) can0 1CEBFFF1#01000BFFFDDB75FF
(1787076624.367978) can0 1CEBFFF1#02FE55F2000089B3
(1787076624.368997) can0 1CEBFFF1#03F83CED36FFFFFF
(1787076624.395049) can0 18F015F1#00003E8B4BA5461D
(1787076624.463408) can0 18FEF1F8#FF0000FFFFFFFFFF
(1787076624.464954) can0 18F005F8#7DFFFF7DFFFFFFFF
(1787076624.466472) can0 1CECFFF1#20120003FF19F000
(1787076624.467149) can0 1CEBFFF1#01000BFFFDDB75FF
(1787076624.468071) can0 1CEBFFF1#02FE55F2000089B3
(1787076624.469062) can0 1CEBFFF1#03F83CED36FFFFFF
(1787076624.495165) can0 18F015F1#00003E8B4BA5461E
(1787076624.562568) can0 18FEF1F8#FF0000FFFFFFFFFF
(1787076624.563713) can0 18F005F8#7DFFFF7DFFFFFFFF
(1787076624.566989) can0 1CECFFF1#20120003FF19F000
(1787076624.567981) can0 1CEBFFF1#01000BFFFDDB75FF
(1787076624.568964) can0 1CEBFFF1#02FE55F2000089B3
(1787076624.569975) can0 1CEBFFF1#03F83CED36FFFFFF
(1787076624.596006) can0 18F015F1#00003E8B4BA5461D
(1787076624.605951) can0 18F017F1#DDF2FFF89692
(1787076624.606363) can0 18F018F1#DA28FD7991AC
(1787076624.623444) can0 18FF14D1#
(1787076624.662563) can0 18FEF1F8#FF0000FFFFFFFFFF
(1787076624.663700) can0 18F005F8#7DFFFF7DFFFFFFFF
(1787076624.667008) can0 1CECFFF1#20120003FF19F000
(1787076624.668092) can0 1CEBFFF1#01000BFFFDDB75FF
(1787076624.668979) can0 1CEBFFF1#02FE55F2000089B3
(1787076624.669986) can0 1CEBFFF1#03F83B2F77FFFFFF
(1787076624.696050) can0 18F015F1#00003E8A4BA5461D
(1787076624.763314) can0 18FEF1F8#FF0000FFFFFFFFFF
(1787076624.764889) can0 18F005F8#7DFFFF7DFFFFFFFF
(1787076624.767104) can0 1CECFFF1#20120003FF19F000
(1787076624.768027) can0 1CEBFFF1#01000BFFFDDB75FF
(1787076624.769021) can0 1CEBFFF1#02FE55F2000089B3
(1787076624.770024) can0 1CEBFFF1#03F83B2F77FFFFFF
(1787076624.796151) can0 18F015F1#00003E8A4BA5461D
(1787076624.862996) can0 18FEF1F8#FF0000FFFFFFFFFF
(1787076624.864292) can0 18F005F8#7DFFFF7DFFFFFFFF
(1787076624.867102) can0 1CECFFF1#20120003FF19F000
(1787076624.868043) can0 1CEBFFF1#01000BFFFDDB75FF
(1787076624.869012) can0 1CEBFFF1#02FE55F2000089B3
(1787076624.870034) can0 1CEBFFF1#03F83B2F77FFFFFF
(1787076624.896073) can0 18F015F1#00003E8A4BA5461D
(1787076624.962751) can0 18FEF1F8#FF0000FFFFFFFFFF
(1787076624.963965) can0 18F005F8#7DFFFF7DFFFFFFFF
(1787076624.966998) can0 1CECFFF1#20120003FF19F000
(1787076624.968002) can0 1CEBFFF1#01000BFFFDDB75FF
(1787076624.968986) can0 1CEBFFF1#02FE55F2000089B3
(1787076624.969996) can0 1CEBFFF1#03F83B2F77FFFFFF
(1787076624.996103) can0 18F015F1#00003E8A4BA5461E
(1787076625.062545) can0 18FEF1F8#FF0000FFFFFFFFFF
(1787076625.063728) can0 18F005F8#7DFFFF7DFFFFFFFF
(1787076625.067020) can0 1CECFFF1#20120003FF19F000
(1787076625.068000) can0 1CEBFFF1#01000BFFFDDB75FF
(1787076625.068980) can0 1CEBFFF1#02FE55F2000089B3
(1787076625.069988) can0 1CEBFFF1#03F83B2F77FFFFFF
(1787076625.096469) can0 18F015F1#00003E8A4BA5461D
(1787076625.123819) can0 18FF14D1#
(1787076625.162809) can0 18FEF1F8#FF0000FFFFFFFFFF
(1787076625.163972) can0 18F005F8#7DFFFF7DFFFFFFFF
(1787076625.167043) can0 1CECFFF1#20120003FF19F000
(1787076625.167986) can0 1CEBFFF1#01000BFFFDDB75FF
(1787076625.168982) can0 1CEBFFF1#02FE55F2000089B3
(1787076625.169973) can0 1CEBFFF1#03F83B2F77FFFFFF
(1787076625.196094) can0 18F015F1#00003E8A4BA5461D
(1787076625.262582) can0 18FEF1F8#FF0000FFFFFFFFFF
(1787076625.263732) can0 18F005F8#7DFFFF7DFFFFFFFF
(1787076625.268011) can0 1CECFFF1#20120003FF19F000
(1787076625.268991) can0 1CEBFFF1#01000BFFFDDB75FF
(1787076625.269971) can0 1CEBFFF1#02FE55F2000089B3
(1787076625.270981) can0 1CEBFFF1#03F83B2F77FFFFFF
(1787076625.297005) can0 18F015F1#00003E8A4BA6461E
(1787076625.362556) can0 18FEF1F8#FF0000FFFFFFFFFF
(1787076625.363666) can0 18F005F8#7DFFFF7DFFFFFFFF
(1787076625.368000) can0 1CECFFF1#20120003FF19F000
(1787076625.368987) can0 1CEBFFF1#01000BFFFDDB75FF
(1787076625.369971) can0 1CEBFFF1#02FE55F2000089B3
(1787076625.370978) can0 1CEBFFF1#03F83B2F77FFFFFF
(1787076625.397052) can0 18F015F1#00003E8A4BA5461D
(1787076625.463765) can0 18FEF1F8#FF0000FFFFFFFFFF
(1787076625.467081) can0 18F005F8#7DFFFF7DFFFFFFFF
(1787076625.468148) can0 1CECFFF1#20120003FF19F000
(1787076625.469682) can0 1CEBFFF1#01000BFFFDDB75FF
(1787076625.470048) can0 1CEBFFF1#02FE55F2000089B3
(1787076625.471147) can0 1CEBFFF1#03F83B2F77FFFFFF
(1787076625.499087) can0 18F015F1#00003E8A4BA5461E
(1787076625.563134) can0 18FEF1F8#FF0000FFFFFFFFFF
(1787076625.564444) can0 18F005F8#7DFFFF7DFFFFFFFF
(1787076625.568152) can0 1CECFFF1#20120003FF19F000
(1787076625.569135) can0 1CEBFFF1#01000BFFFDDB75FF
(1787076625.570030) can0 1CEBFFF1#02FE55F2000089B3
(1787076625.571050) can0 1CEBFFF1#03F83B2F77FFFFFF
(1787076625.597108) can0 18F015F1#00003E8A4BA6461E
(1787076625.607939) can0 18F017F1#DDF2FFF89692
(1787076625.608418) can0 18F018F1#DA28FD7991AC
(1787076625.623462) can0 18FF14D1#
(1787076625.662569) can0 18FEF1F8#FF0000FFFFFFFFFF
(1787076625.663777) can0 18F005F8#7DFFFF7DFFFFFFFF
(1787076625.668001) can0 1CECFFF1#20120003FF19F000
(1787076625.668992) can0 1CEBFFF1#01000BFFFDDB75FF
(1787076625.669981) can0 1CEBFFF1#02FE55F2000089B3
(1787076625.670987) can0 1CEBFFF1#03F83B2F77FFFFFF
(1787076625.696998) can0 18F015F1#00003E8A4BA5461E
(1787076625.762588) can0 18FEF1F8#FF0000FFFFFFFFFF
(1787076625.763783) can0 18F005F8#7DFFFF7DFFFFFFFF
(1787076625.768030) can0 1CECFFF1#20120003FF19F000
(1787076625.769003) can0 1CEBFFF1#01000BFFFDDB75FF
(1787076625.769987) can0 1CEBFFF1#02FE55F2000089B3
(1787076625.770994) can0 1CEBFFF1#03F83B2F77FFFFFF
(1787076625.797143) can0 18F015F1#00003E8A4BA5461E
(1787076625.864949) can0 18FEF1F8#FF0000FFFFFFFFFF
(1787076625.866955) can0 18F005F8#7DFFFF7DFFFFFFFF
(1787076625.869228) can0 1CECFFF1#20120003FF19F000
(1787076625.870123) can0 1CEBFFF1#01000BFFFDDB75FF
(1787076625.871057) can0 1CEBFFF1#02FE55F2000089B3
(1787076625.872144) can0 1CEBFFF1#03F83B2F77FFFFFF
(1787076625.898251) can0 18F015F1#00003E8A4BA5461E
(1787076625.964353) can0 18FEF1F8#FF0000FFFFFFFFFF
(1787076625.965532) can0 18F005F8#7DFFFF7DFFFFFFFF
(1787076625.969017) can0 1CECFFF1#20120003FF19F000
(1787076625.970016) can0 1CEBFFF1#01000BFFFDDB75FF
(1787076625.970987) can0 1CEBFFF1#02FE55F2000089B3
(1787076625.971992) can0 1CEBFFF1#03F83B2F77FFFFFF
(1787076625.998126) can0 18F015F1#00003E8A4BA5461E
(1787076626.062720) can0 18FEF1F8#FF0000FFFFFFFFFF
(1787076626.063945) can0 18F005F8#7DFFFF7DFFFFFFFF
(1787076626.069058) can0 1CECFFF1#20120003FF19F000
(1787076626.070040) can0 1CEBFFF1#01000BFFFDDB75FF
(1787076626.071013) can0 1CEBFFF1#02FE55F2000089B3
(1787076626.072004) can0 1CEBFFF1#03F83B2F77FFFFFF
(1787076626.098192) can0 18F015F1#00003E8A4BA5461E
(1787076626.123473) can0 18FF14D1#
(1787076626.163214) can0 18FEF1F8#FF0000FFFFFFFFFF
(1787076626.165016) can0 18F005F8#7DFFFF7DFFFFFFFF
(1787076626.169196) can0 1CECFFF1#20120003FF19F000
(1787076626.170048) can0 1CEBFFF1#01000BFFFDDB75FF
(1787076626.171042) can0 1CEBFFF1#02FE55F2000089B3
(1787076626.172121) can0 1CEBFFF1#03F83B2F77FFFFFF
(1787076626.199859) can0 18F015F1#00003E8A4BA5461E
(1787076626.262602) can0 18FEF1F8#FF0000FFFFFFFFFF
(1787076626.263738) can0 18F005F8#7DFFFF7DFFFFFFFF
(1787076626.269011) can0 1CECFFF1#20120003FF19F000
(1787076626.269995) can0 1CEBFFF1#01000BFFFDDB75FF
(1787076626.270979) can0 1CEBFFF1#02FE55F2000089B3
(1787076626.271992) can0 1CEBFFF1#03F83B2F77FFFFFF
(1787076626.298000) can0 18F015F1#00003E8A4BA5461E
(1787076626.362561) can0 18FEF1F8#FF0000FFFFFFFFFF
(1787076626.363720) can0 18F005F8#7DFFFF7DFFFFFFFF
(1787076626.369011) can0 1CECFFF1#20120003FF19F000
(1787076626.370003) can0 1CEBFFF1#01000BFFFDDB75FF
(1787076626.370982) can0 1CEBFFF1#02FE55F2000089B3
(1787076626.371987) can0 1CEBFFF1#03F83B2F77FFFFFF
(1787076626.398035) can0 18F015F1#00003E8A4BA5461E
(1787076626.463578) can0 18FEF1F8#FF0000FFFFFFFFFF
(1787076626.465122) can0 18F005F8#7DFFFF7DFFFFFFFF
(1787076626.470067) can0 1CECFFF1#20120003FF19F000
(1787076626.470739) can0 1CEBFFF1#01000BFFFDDB75FF
(1787076626.471058) can0 1CEBFFF1#02FE55F2000089B3
(1787076626.472101) can0 1CEBFFF1#03F83B2F77FFFFFF
(1787076626.498390) can0 18F015F1#00003E894BA6461E
(1787076626.562920) can0 18FEF1F8#FF0000FFFFFFFFFF
(1787076626.564139) can0 18F005F8#7DFFFF7DFFFFFFFF
(1787076626.569089) can0 1CECFFF1#20120003FF19F000
(1787076626.569998) can0 1CEBFFF1#01000BFFFDDB75FF
(1787076626.570982) can0 1CEBFFF1#02FE55F2000089B3
(1787076626.571992) can0 1CEBFFF1#03F83AEFB6FFFFFF
(1787076626.598019) can0 18F015F1#00003E894BA6461E
(1787076626.608937) can0 18F017F1#DDFAFFB195FB
(1787076626.609396) can0 18F018F1#DA2BFD799210
(1787076626.623383) can0 18FF14D1#
(1787076626.662581) can0 18FEF1F8#FF0000FFFFFFFFFF
(1787076626.663746) can0 18F005F8#7DFFFF7DFFFFFFFF
(1787076626.670040) can0 1CECFFF1#20120003FF19F000
(1787076626.671013) can0 1CEBFFF1#01000BFFFDDB75FF
(1787076626.671992) can0 1CEBFFF1#02FE55F2000089B3
(1787076626.673004) can0 1CEBFFF1#03F83AEFB6FFFFFF
(1787076626.699039) can0 18F015F1#00003E894BA6461E
(1787076626.762789) can0 18FEF1F8#FF0000FFFFFFFFFF
(1787076626.763944) can0 18F005F8#7DFFFF7DFFFFFFFF
(1787076626.770150) can0 1CECFFF1#20120003FF19F000
(1787076626.771073) can0 1CEBFFF1#01000BFFFDDB75FF
(1787076626.772021) can0 1CEBFFF1#02FE55F2000089B3
(1787076626.773049) can0 1CEBFFF1#03F83AEFB6FFFFFF
(1787076626.799375) can0 18F015F1#00003E894BA5461E
(1787076626.862879) can0 18FEF1F8#FF0000FFFFFFFFFF
(1787076626.864059) can0 18F005F8#7DFFFF7DFFFFFFFF
(1787076626.870150) can0 1CECFFF1#20120003FF19F000
(1787076626.871026) can0 1CEBFFF1#01000BFFFDDB75FF
(1787076626.871982) can0 1CEBFFF1#02FE55F2000089B3
(1787076626.873032) can0 1CEBFFF1#03F83AEFB6FFFFFF
(1787076626.899368) can0 18F015F1#00003E894BA5461E
(1787076626.962642) can0 18FEF1F8#FF0000FFFFFFFFFF
(1787076626.963791) can0 18F005F8#7DFFFF7DFFFFFFFF
(1787076626.970030) can0 1CECFFF1#20120003FF19F000
(1787076626.971019) can0 1CEBFFF1#01000BFFFDDB75FF
(1787076626.971984) can0 1CEBFFF1#02FE55F2000089B3
(1787076626.973001) can0 1CEBFFF1#03F83AEFB6FFFFFF
(1787076626.999038) can0 18F015F1#00003E894BA5461E
(1787076627.062577) can0 18FEF1F8#FF0000FFFFFFFFFF
(1787076627.063743) can0 18F005F8#7DFFFF7DFFFFFFFF
(1787076627.070018) can0 1CECFFF1#20120003FF19F000
(1787076627.071007) can0 1CEBFFF1#01000BFFFDDB75FF
(1787076627.071991) can0 1CEBFFF1#02FE55F2000089B3
(1787076627.072997) can0 1CEBFFF1#03F83AEFB6FFFFFF
(1787076627.099033) can0 18F015F1#00003E894BA5461E
(1787076627.123513) can0 18FF14D1#
(1787076627.162970) can0 18FEF1F8#FF0000FFFFFFFFFF
(1787076627.164216) can0 18F005F8#7DFFFF7DFFFFFFFF
(1787076627.170258) can0 1CECFFF1#20120003FF19F000
(1787076627.171616) can0 1CEBFFF1#01000BFFFDDB75FF
(1787076627.172656) can0 1CEBFFF1#02FE55F2000089B3
(1787076627.173315) can0 1CEBFFF1#03F83AEFB6FFFFFF
(1787076627.199600) can0 18F015F1#00003E894BA5461E
(1787076627.263635) can0 18FEF1F8#FF0000FFFFFFFFFF
(1787076627.264933) can0 18F005F8#7DFFFF7DFFFFFFFF
(1787076627.270040) can0 1CECFFF1#20120003FF19F000
(1787076627.271011) can0 1CEBFFF1#01000BFFFDDB75FF
(1787076627.271991) can0 1CEBFFF1#02FE55F2000089B3
(1787076627.273006) can0 1CEBFFF1#03F83AEFB6FFFFFF
(1787076627.299041) can0 18F015F1#00003E894BA5461E
(1787076627.362588) can0 18FEF1F8#FF0000FFFFFFFFFF
(1787076627.363729) can0 18F005F8#7DFFFF7DFFFFFFFF
(1787076627.371034) can0 1CECFFF1#20120003FF19F000
(1787076627.372012) can0 1CEBFFF1#01000BFFFDDB75FF
(1787076627.372996) can0 1CEBFFF1#02FE55F2000089B3
(1787076627.374002) can0 1CEBFFF1#03F83AEFB6FFFFFF
(1787076627.400051) can0 18F015F1#00003E894BA5461E
(1787076627.462784) can0 18FEF1F8#FF0000FFFFFFFFFF
(1787076627.464041) can0 18F005F8#7DFFFF7DFFFFFFFF
(1787076627.471157) can0 1CECFFF1#20120003FF19F000
(1787076627.472041) can0 1CEBFFF1#01000BFFFDDB75FF
(1787076627.473003) can0 1CEBFFF1#02FE55F2000089B3
(1787076627.474014) can0 1CEBFFF1#03F83AEFB6FFFFFF
(1787076627.500238) can0 18F015F1#00003E894BA5461E
(1787076627.563314) can0 18FEF1F8#FF0000FFFFFFFFFF
(1787076627.564675) can0 18F005F8#7DFFFF7DFFFFFFFF
(1787076627.571105) can0 1CECFFF1#20120003FF19F000
(1787076627.572095) can0 1CEBFFF1#01000BFFFDDB75FF
(1787076627.573041) can0 1CEBFFF1#02FE55F2000089B3
(1787076627.574054) can0 1CEBFFF1#03F83AEFB6FFFFFF
(1787076627.600135) can0 18F015F1#00003E894BA5461E
(1787076627.610179) can0 18F017F1#DDFAFFB195FB
(1787076627.610794) can0 18F018F1#DA2BFD799210
(1787076627.623688) can0 18FF14D1#
(1787076627.662847) can0 18FEF1F8#FF0000FFFFFFFFFF
(1787076627.663985) can0 18F005F8#7DFFFF7DFFFFFFFF
(1787076627.671035) can0 1CECFFF1#20120003FF19F000
(1787076627.672017) can0 1CEBFFF1#01000BFFFDDB75FF
(1787076627.673010) can0 1CEBFFF1#02FE55F2000089B3
(1787076627.673993) can0 1CEBFFF1#03F83AEFB6FFFFFF
(1787076627.700012) can0 18F015F1#00003E894BA6461E
(1787076627.762562) can0 18FEF1F8#FF0000FFFFFFFFFF
(1787076627.763727) can0 18F005F8#7DFFFF7DFFFFFFFF
(1787076627.771021) can0 1CECFFF1#20120003FF19F000
(1787076627.772012) can0 1CEBFFF1#01000BFFFDDB75FF
(1787076627.772994) can0 1CEBFFF1#02FE55F2000089B3
(1787076627.774009) can0 1CEBFFF1#03F83AEFB6FFFFFF
(1787076627.800022) can0 18F015F1#00003E894BA6461E
(1787076627.862704) can0 18FEF1F8#FF0000FFFFFFFFFF
(1787076627.864170) can0 18F005F8#7DFFFF7DFFFFFFFF
(1787076627.872257) can0 1CECFFF1#20120003FF19F000
(1787076627.873690) can0 1CEBFFF1#02FE55F2000089B3
(1787076627.875343) can0 1CEBFFF1#01000BFFFDDB75FF
(1787076627.876352) can0 1CEBFFF1#03F83AEFB6FFFFFF
(1787076627.900067) can0 18F015F1#00003E894BA6461E
(1787076627.962658) can0 18FEF1F8#FF0000FFFFFFFFFF
(1787076627.963816) can0 18F005F8#7DFFFF7DFFFFFFFF
(1787076627.972056) can0 1CECFFF1#20120003FF19F000
(1787076627.973008) can0 1CEBFFF1#01000BFFFDDB75FF
(1787076627.974005) can0 1CEBFFF1#02FE55F2000089B3
(1787076627.975017) can0 1CEBFFF1#03F83AEFB6FFFFFF
(1787076628.001038) can0 18F015F1#00003E894BA5461E
(1787076628.062606) can0 18FEF1F8#FF0000FFFFFFFFFF
(1787076628.063762) can0 18F005F8#7DFFFF7DFFFFFFFF
(1787076628.072037) can0 1CECFFF1#20120003FF19F000
(1787076628.073011) can0 1CEBFFF1#01000BFFFDDB75FF
(1787076628.073996) can0 1CEBFFF1#02FE55F2000089B3
(1787076628.075010) can0 1CEBFFF1#03F83AEFB6FFFFFF
(1787076628.100027) can0 18F015F1#00003E894BA6461E
(1787076628.123403) can0 18FF14D1#
(1787076628.162677) can0 18FEF1F8#FF0000FFFFFFFFFF
(1787076628.163891) can0 18F005F8#7DFFFF7DFFFFFFFF
(1787076628.172363) can0 1CECFFF1#20120003FF19F000
(1787076628.173102) can0 1CEBFFF1#01000BFFFDDB75FF
(1787076628.174124) can0 1CEBFFF1#02FE55F2000089B3
(1787076628.175081) can0 1CEBFFF1#03F83AEFB6FFFFFF
(1787076628.201654) can0 18F015F1#00003E894BA6461E
(1787076628.263258) can0 18FEF1F8#FF0000FFFFFFFFFF
(1787076628.264463) can0 18F005F8#7DFFFF7DFFFFFFFF
(1787076628.272062) can0 1CECFFF1#20120003FF19F000
(1787076628.273014) can0 1CEBFFF1#01000BFFFDDB75FF
(1787076628.273993) can0 1CEBFFF1#02FE55F2000089B3
(1787076628.275001) can0 1CEBFFF1#03F83AEFB6FFFFFF
(1787076628.301082) can0 18F015F1#00003E894BA5461E
(1787076628.362662) can0 18FEF1F8#FF0000FFFFFFFFFF
(1787076628.363877) can0 18F005F8#7DFFFF7DFFFFFFFF
(1787076628.372047) can0 1CECFFF1#20120003FF19F000
(1787076628.373028) can0 1CEBFFF1#01000BFFFDDB75FF
(1787076628.374007) can0 1CEBFFF1#02FE55F2000089B3
(1787076628.375027) can0 1CEBFFF1#03F83AEFB6FFFFFF
(1787076628.401055) can0 18F015F1#00003E894BA6461E
(1787076628.462703) can0 18FEF1F8#FF0000FFFFFFFFFF
(1787076628.463997) can0 18F005F8#7DFFFF7DFFFFFFFF
(1787076628.472093) can0 1CECFFF1#20120003FF19F000
(1787076628.473020) can0 1CEBFFF1#01000BFFFDDB75FF
(1787076628.474007) can0 1CEBFFF1#02FE55F2000089B3
(1787076628.475060) can0 1CEBFFF1#03F83AEFB6FFFFFF
(1787076628.501233) can0 18F015F1#00003E894BA6461E
(1787076628.563106) can0 18FEF1F8#FF0000FFFFFFFFFF
(1787076628.564405) can0 18F005F8#7DFFFF7DFFFFFFFF
(1787076628.572182) can0 1CECFFF1#20120003FF19F000
(1787076628.573132) can0 1CEBFFF1#01000BFFFDDB75FF
(1787076628.574155) can0 1CEBFFF1#02FE55F2000089B3
(1787076628.575120) can0 1CEBFFF1#03F839EEF6FFFFFF
(1787076628.601131) can0 18F015F1#00003E884BA5461E
(1787076628.611942) can0 18F017F1#DDEDFFB69625
(1787076628.612384) can0 18F018F1#D9B9FD5E921F
(1787076628.623319) can0 18FF14D1#
(1787076628.662577) can0 18FEF1F8#FF0000FFFFFFFFFF
(1787076628.663734) can0 18F005F8#7DFFFF7DFFFFFFFF
(1787076628.672026) can0 1CECFFF1#20120003FF19F000
(1787076628.673023) can0 1CEBFFF1#01000BFFFDDB75FF
(1787076628.674001) can0 1CEBFFF1#02FE55F2000089B3
(1787076628.675011) can0 1CEBFFF1#03F839EEF6FFFFFF
(1787076628.701032) can0 18F015F1#00003E884BA6461E
(1787076628.762568) can0 18FEF1F8#FF0000FFFFFFFFFF
(1787076628.763802) can0 18F005F8#7DFFFF7DFFFFFFFF
(1787076628.773067) can0 1CECFFF1#20120003FF19F000
(1787076628.774040) can0 1CEBFFF1#01000BFFFDDB75FF
(1787076628.775023) can0 1CEBFFF1#02FE55F2000089B3
(1787076628.776032) can0 1CEBFFF1#03F839EEF6FFFFFF
(1787076628.802138) can0 18F015F1#00003E894BA6461E
(1787076628.862794) can0 18FEF1F8#FF0000FFFFFFFFFF
(1787076628.864132) can0 18F005F8#7DFFFF7DFFFFFFFF
(1787076628.873153) can0 1CECFFF1#20120003FF19F000
(1787076628.874071) can0 1CEBFFF1#01000BFFFDDB75FF
(1787076628.875154) can0 1CEBFFF1#02FE55F2000089B3
(1787076628.876396) can0 1CEBFFF1#03F839EEF6FFFFFF
(1787076628.902416) can0 18F015F1#00003E884BA6461E
(1787076628.962987) can0 18FEF1F8#FF0000FFFFFFFFFF
(1787076628.964130) can0 18F005F8#7DFFFF7DFFFFFFFF
(1787076628.973029) can0 1CECFFF1#20120003FF19F000
(1787076628.974020) can0 1CEBFFF1#01000BFFFDDB75FF
(1787076628.974998) can0 1CEBFFF1#02FE55F2000089B3
(1787076628.976025) can0 1CEBFFF1#03F839EEF6FFFFFF
(1787076629.002066) can0 18F015F1#00003E884BA6461E
(1787076629.062570) can0 18FEF1F8#FF0000FFFFFFFFFF
(1787076629.063770) can0 18F005F8#7DFFFF7DFFFFFFFF
(1787076629.073036) can0 1CECFFF1#20120003FF19F000
(1787076629.074017) can0 1CEBFFF1#01000BFFFDDB75FF
(1787076629.075002) can0 1CEBFFF1#02FE55F2000089B3
(1787076629.076023) can0 1CEBFFF1#03F839EEF6FFFFFF
(1787076629.102011) can0 18F015F1#00003E884BA6461E
(1787076629.123410) can0 18FF14D1#
(1787076629.162793) can0 18FEF1F8#FF0000FFFFFFFFFF
(1787076629.164063) can0 18F005F8#7DFFFF7DFFFFFFFF
(1787076629.173152) can0 1CECFFF1#20120003FF19F000
(1787076629.174064) can0 1CEBFFF1#01000BFFFDDB75FF
(1787076629.178134) can0 1CEBFFF1#02FE55F2000089B3
(1787076629.178570) can0 1CEBFFF1#03F839EEF6FFFFFF
(1787076629.202261) can0 18F015F1#00003E884BA6461E
(1787076629.262684) can0 18FEF1F8#FF0000FFFFFFFFFF
(1787076629.263835) can0 18F005F8#7DFFFF7DFFFFFFFF
(1787076629.273089) can0 1CECFFF1#20120003FF19F000
(1787076629.274033) can0 1CEBFFF1#01000BFFFDDB75FF
(1787076629.275033) can0 1CEBFFF1#02FE55F2000089B3
(1787076629.276053) can0 1CEBFFF1#03F839EEF6FFFFFF
(1787076629.302052) can0 18F015F1#00003E884BA6461E
(1787076629.362570) can0 18FEF1F8#FF0000FFFFFFFFFF
(1787076629.363730) can0 18F005F8#7DFFFF7DFFFFFFFF
(1787076629.373040) can0 1CECFFF1#20120003FF19F000
(1787076629.374030) can0 1CEBFFF1#01000BFFFDDB75FF
(1787076629.375008) can0 1CEBFFF1#02FE55F2000089B3
(1787076629.376019) can0 1CEBFFF1#03F839EEF6FFFFFF
(1787076629.402023) can0 18F015F1#00003E884BA6461E
(1787076629.462997) can0 18FEF1F8#FF0000FFFFFFFFFF
(1787076629.464307) can0 18F005F8#7DFFFF7DFFFFFFFF
(1787076629.474188) can0 1CECFFF1#20120003FF19F000
(1787076629.475074) can0 1CEBFFF1#01000BFFFDDB75FF
(1787076629.476352) can0 1CEBFFF1#02FE55F2000089B3
(1787076629.477055) can0 1CEBFFF1#03F839EEF6FFFFFF
(1787076629.502164) can0 1CEBFFF1#01000BFFFDDB75FF
(1787076629.563052) can0 18FEF1F8#FF0000FFFFFFFFFF
(1787076629.564387) can0 18F005F8#7DFFFF7DFFFFFFFF
(1787076629.574225) can0 1CECFFF1#20120003FF19F000
(1787076629.575375) can0 1CEBFFF1#01000BFFFDDB75FF
(1787076629.576155) can0 1CEBFFF1#02FE55F2000089B3
(1787076629.577093) can0 1CEBFFF1#03F839EEF6FFFFFF
(1787076629.603656) can0 18F015F1#00003E884BA5461E
(1787076629.613520) can0 18F017F1#DDEDFFB69625
(1787076629.614696) can0 18F018F1#D9B9FD5E921F
(1787076629.623734) can0 18FF14D1#
(1787076629.662655) can0 18FEF1F8#FF0000FFFFFFFFFF
(1787076629.663813) can0 18F005F8#7DFFFF7DFFFFFFFF
(1787076629.674146) can0 1CECFFF1#20120003FF19F000
(1787076629.675055) can0 1CEBFFF1#01000BFFFDDB75FF
(1787076629.676040) can0 1CEBFFF1#02FE55F2000089B3
(1787076629.677027) can0 1CEBFFF1#03F839EEF6FFFFFF
(1787076629.703030) can0 18F015F1#00003E884BA5461E
(1787076629.762620) can0 18FEF1F8#FF0000FFFFFFFFFF
(1787076629.763769) can0 18F005F8#7DFFFF7DFFFFFFFF
(1787076629.774058) can0 1CECFFF1#20120003FF19F000
(1787076629.775034) can0 1CEBFFF1#01000BFFFDDB75FF
(1787076629.776029) can0 1CEBFFF1#02FE55F2000089B3
(1787076629.777019) can0 1CEBFFF1#03F839EEF6FFFFFF
(1787076629.803038) can0 18F015F1#00003E884BA6461E
(1787076629.862917) can0 18FEF1F8#FF0000FFFFFFFFFF
(1787076629.864248) can0 18F005F8#7DFFFF7DFFFFFFFF
(1787076629.874144) can0 1CECFFF1#20120003FF19F000
(1787076629.875086) can0 1CEBFFF1#01000BFFFDDB75FF
(1787076629.876052) can0 1CEBFFF1#02FE55F2000089B3
(1787076629.877090) can0 1CEBFFF1#03F839EEF6FFFFFF
(1787076629.903293) can0 18F015F1#00003E884BA6461E
(1787076629.963174) can0 18FEF1F8#FF0000FFFFFFFFFF
(1787076629.964465) can0 18F005F8#7DFFFF7DFFFFFFFF
(1787076629.974056) can0 1CECFFF1#20120003FF19F000
(1787076629.975025) can0 1CEBFFF1#01000BFFFDDB75FF
(1787076629.976020) can0 1CEBFFF1#02FE55F2000089B3
(1787076629.977021) can0 1CEBFFF1#03F839EEF6FFFFFF
(1787076630.003168) can0 18F015F1#00003E874BA5461E
(1787076630.062568) can0 18FEF1F8#FF0000FFFFFFFFFF
(1787076630.063716) can0 18F005F8#7DFFFF7DFFFFFFFF
(1787076630.075045) can0 1CECFFF1#20120003FF19F000
(1787076630.076054) can0 1CEBFFF1#01000BFFFDDB75FF
(1787076630.077025) can0 1CEBFFF1#02FE55F2000089B3
(1787076630.078035) can0 1CEBFFF1#03F8382E37FFFFFF
(1787076630.104067) can0 18F015F1#00003E874BA6461E
(1787076630.123267) can0 18FF14D1#
(1787076630.162722) can0 18FEF1F8#FF0000FFFFFFFFFF
(1787076630.163930) can0 18F005F8#7DFFFF7DFFFFFFFF
(1787076630.175175) can0 1CECFFF1#20120003FF19F000
(1787076630.176100) can0 1CEBFFF1#01000BFFFDDB75FF
(1787076630.177077) can0 1CEBFFF1#02FE55F2000089B3
(1787076630.178041) can0 1CEBFFF1#03F8382E37FFFFFF
(1787076630.204294) can0 18F015F1#00003E874BA5461E
(1787076630.262839) can0 18FEF1F8#FF0000FFFFFFFFFF
(1787076630.264027) can0 18F005F8#7DFFFF7DFFFFFFFF
(1787076630.275068) can0 1CECFFF1#20120003FF19F000
(1787076630.276035) can0 1CEBFFF1#01000BFFFDDB75FF
(1787076630.277017) can0 1CEBFFF1#02FE55F2000089B3
(1787076630.278024) can0 1CEBFFF1#03F8382E37FFFFFF
(1787076630.304065) can0 18F015F1#00003E874BA5461E
(1787076630.362564) can0 18FEF1F8#FF0000FFFFFFFFFF
(1787076630.363763) can0 18F005F8#7DFFFF7DFFFFFFFF
(1787076630.375047) can0 1CECFFF1#20120003FF19F000
(1787076630.376049) can0 1CEBFFF1#01000BFFFDDB75FF
(1787076630.377045) can0 1CEBFFF1#02FE55F2000089B3
(1787076630.378042) can0 1CEBFFF1#03F8382E37FFFFFF
(1787076630.404093) can0 18F015F1#00003E874BA6461E
(1787076630.462671) can0 18FEF1F8#FF0000FFFFFFFFFF
(1787076630.463922) can0 18F005F8#7DFFFF7DFFFFFFFF
(1787076630.475136) can0 1CECFFF1#20120003FF19F000
(1787076630.476049) can0 1CEBFFF1#01000BFFFDDB75FF
(1787076630.477017) can0 1CEBFFF1#02FE55F2000089B3
(1787076630.478037) can0 1CEBFFF1#03F8382E37FFFFFF
(1787076630.504243) can0 18F015F1#00003E874BA5461E
(1787076630.563517) can0 18FEF1F8#FF0000FFFFFFFFFF
(1787076630.565693) can0 18F005F8#7DFFFF7DFFFFFFFF
(1787076630.575332) can0 1CECFFF1#20120003FF19F000
(1787076630.576133) can0 1CEBFFF1#01000BFFFDDB75FF
(1787076630.577057) can0 1CEBFFF1#02FE55F2000089B3
(1787076630.578100) can0 1CEBFFF1#03F8382E37FFFFFF
(1787076630.604567) can0 18F015F1#00003E874BA5461E
(1787076630.615300) can0 18F017F1#DDD6FFCE95CC
(1787076630.615729) can0 18F018F1#D9E7FDA0920C
(1787076630.623406) can0 18FF14D1#
(1787076630.662622) can0 18FEF1F8#FF0000FFFFFFFFFF
(1787076630.663816) can0 18F005F8#7DFFFF7DFFFFFFFF
(1787076630.675085) can0 1CECFFF1#20120003FF19F000
(1787076630.676049) can0 1CEBFFF1#01000BFFFDDB75FF
(1787076630.677022) can0 1CEBFFF1#02FE55F2000089B3
(1787076630.678030) can0 1CEBFFF1#03F8382E37FFFFFF
(1787076630.704060) can0 18F015F1#00003E874BA6461E
(1787076630.762612) can0 18FEF1F8#FF0000FFFFFFFFFF
(1787076630.763822) can0 18F005F8#7DFFFF7DFFFFFFFF
(1787076630.775041) can0 1CECFFF1#20120003FF19F000
(1787076630.776050) can0 1CEBFFF1#01000BFFFDDB75FF
(1787076630.777018) can0 1CEBFFF1#02FE55F2000089B3
(1787076630.778030) can0 1CEBFFF1#03F8382E37FFFFFF
(1787076630.804067) can0 18F015F1#00003E874BA5461E
(1787076630.863002) can0 18FEF1F8#FF0000FFFFFFFFFF
(1787076630.864431) can0 18F005F8#7DFFFF7DFFFFFFFF
(1787076630.876645) can0 1CECFFF1#20120003FF19F000
(1787076630.877317) can0 1CEBFFF1#01000BFFFDDB75FF
(1787076630.878494) can0 1CEBFFF1#02FE55F2000089B3
(1787076630.879154) can0 1CEBFFF1#03F8382E37FFFFFF
(1787076630.906250) can0 18F015F1#00003E874BA5461E
(1787076630.963342) can0 18FEF1F8#FF0000FFFFFFFFFF
(1787076630.965280) can0 18F005F8#7DFFFF7DFFFFFFFF
(1787076630.976128) can0 1CECFFF1#20120003FF19F000
(1787076630.977033) can0 1CEBFFF1#01000BFFFDDB75FF
(1787076630.978013) can0 1CEBFFF1#02FE55F2000089B3
(1787076630.979025) can0 1CEBFFF1#03F8382E37FFFFFF
(1787076631.005064) can0 18F015F1#00003E874BA5461E
(1787076631.062604) can0 18FEF1F8#FF0000FFFFFFFFFF
(1787076631.063779) can0 18F005F8#7DFFFF7DFFFFFFFF
(1787076631.076084) can0 1CECFFF1#20120003FF19F000
(1787076631.077049) can0 1CEBFFF1#01000BFFFDDB75FF
(1787076631.078030) can0 1CEBFFF1#02FE55F2000089B3
(1787076631.079079) can0 1CEBFFF1#03F8382E37FFFFFF
(1787076631.105060) can0 18F015F1#00003E874BA5461E
(1787076631.123339) can0 18FF14D1#
(1787076631.162676) can0 18FEF1F8#FF0000FFFFFFFFFF
(1787076631.163943) can0 18F005F8#7DFFFF7DFFFFFFFF
(1787076631.176205) can0 1CECFFF1#20120003FF19F000
(1787076631.177090) can0 1CEBFFF1#01000BFFFDDB75FF
(1787076631.178082) can0 1CEBFFF1#02FE55F2000089B3
(1787076631.179090) can0 1CEBFFF1#03F8382E37FFFFFF
(1787076631.205223) can0 18F015F1#00003E874BA5461E
(1787076631.262765) can0 18FEF1F8#FF0000FFFFFFFFFF
(1787076631.264040) can0 18F005F8#7DFFFF7DFFFFFFFF
(1787076631.276415) can0 1CECFFF1#20120003FF19F000
(1787076631.277126) can0 1CEBFFF1#01000BFFFDDB75FF
(1787076631.278049) can0 1CEBFFF1#02FE55F2000089B3
(1787076631.279061) can0 1CEBFFF1#03F8382E37FFFFFF
(1787076631.305254) can0 18F015F1#00003E874BA5461E
(1787076631.362597) can0 18FEF1F8#FF0000FFFFFFFFFF
(1787076631.363753) can0 18F005F8#7DFFFF7DFFFFFFFF
(1787076631.376049) can0 1CECFFF1#20120003FF19F000
(1787076631.377043) can0 1CEBFFF1#01000BFFFDDB75FF
(1787076631.378026) can0 1CEBFFF1#02FE55F2000089B3
(1787076631.379029) can0 1CEBFFF1#03F8372A77FFFFFF
(1787076631.405065) can0 18F015F1#00003E874BA5461E
(1787076631.462631) can0 18FEF1F8#FF0000FFFFFFFFFF
(1787076631.463788) can0 18F005F8#7DFFFF7DFFFFFFFF
(1787076631.479330) can0 1CECFFF1#20120003FF19F000
(1787076631.479628) can0 1CEBFFF1#03F8382E37FFFFFF
(1787076631.479781) can0 1CEBFFF1#01000BFFFDDB75FF
(1787076631.505268) can0 18F015F1#00003E874BA5461E
(1787076631.563305) can0 18FEF1F8#FF0000FFFFFFFFFF
(1787076631.564641) can0 18F005F8#7DFFFF7DFFFFFFFF
(1787076631.577684) can0 1CECFFF1#20120003FF19F000
(1787076631.578307) can0 1CEBFFF1#01000BFFFDDB75FF
(1787076631.579105) can0 1CEBFFF1#02FE55F2000089B3
(1787076631.580062) can0 1CEBFFF1#03F8372A77FFFFFF
(1787076631.607341) can0 18F015F1#00003E874BA6461E
(1787076631.616081) can0 18F017F1#DDD6FFCE95CC
(1787076631.616452) can0 18F018F1#D9E7FDA0920C
(1787076631.623439) can0 18FF14D1#
(1787076631.662695) can0 18FEF1F8#FF0000FFFFFFFFFF
(1787076631.663850) can0 18F005F8#7DFFFF7DFFFFFFFF
(1787076631.677078) can0 1CECFFF1#20120003FF19F000
(1787076631.678053) can0 1CEBFFF1#01000BFFFDDB75FF
(1787076631.679032) can0 1CEBFFF1#02FE55F2000089B3
(1787076631.680058) can0 1CEBFFF1#03F8382E37FFFFFF
(1787076631.706071) can0 18F015F1#00003E874BA5461E
(1787076631.762568) can0 18FEF1F8#FF0000FFFFFFFFFF
(1787076631.763780) can0 18F005F8#7DFFFF7DFFFFFFFF
(1787076631.777057) can0 1CECFFF1#20120003FF19F000
(1787076631.778048) can0 1CEBFFF1#01000BFFFDDB75FF
(1787076631.779032) can0 1CEBFFF1#02FE55F2000089B3
(1787076631.780041) can0 1CEBFFF1#03F8372A77FFFFFF
(1787076631.806035) can0 18F015F1#00003E864BA5461E
(1787076631.862863) can0 18FEF1F8#FF0000FFFFFFFFFF
(1787076631.865632) can0 18F005F8#7DFFFF7DFFFFFFFF
(1787076631.877402) can0 1CECFFF1#20120003FF19F000
(1787076631.878071) can0 1CEBFFF1#01000BFFFDDB75FF
(1787076631.879050) can0 1CEBFFF1#02FE55F2000089B3
(1787076631.880089) can0 1CEBFFF1#03F8382E37FFFFFF
(1787076631.906625) can0 18F015F1#00003E874BA5461E
(1787076631.962913) can0 18FEF1F8#FF0000FFFFFFFFFF
(1787076631.964044) can0 18F005F8#7DFFFF7DFFFFFFFF
(1787076631.977115) can0 1CECFFF1#20120003FF19F000
(1787076631.978045) can0 1CEBFFF1#01000BFFFDDB75FF
(1787076631.979016) can0 1CEBFFF1#02FE55F2000089B3
(1787076631.980021) can0 1CEBFFF1#03F8372A77FFFFFF
(1787076632.006918) can0 18F015F1#00003E864BA5461E
(1787076632.062568) can0 18FEF1F8#FF0000FFFFFFFFFF
(1787076632.063737) can0 18F005F8#7DFFFF7DFFFFFFFF
(1787076632.077065) can0 1CECFFF1#20120003FF19F000
(1787076632.078048) can0 1CEBFFF1#01000BFFFDDB75FF
(1787076632.079027) can0 1CEBFFF1#02FE55F2000089B3
(1787076632.080033) can0 1CEBFFF1#03F8372A77FFFFFF
(1787076632.106056) can0 18F015F1#00003E874BA5461E
(1787076632.123199) can0 18FF14D1#
(1787076632.162556) can0 18FEF1F8#FF0000FFFFFFFFFF
(1787076632.163737) can0 18F005F8#7DFFFF7DFFFFFFFF
(1787076632.178071) can0 1CECFFF1#20120003FF19F000
(1787076632.179042) can0 1CEBFFF1#01000BFFFDDB75FF
(1787076632.180024) can0 1CEBFFF1#02FE55F2000089B3
(1787076632.181030) can0 1CEBFFF1#03F8372A77FFFFFF
(1787076632.206111) can0 18F015F1#00003E864BA5461F
(1787076632.262867) can0 18FEF1F8#FF0000FFFFFFFFFF
(1787076632.264107) can0 18F005F8#7DFFFF7DFFFFFFFF
(1787076632.277359) can0 1CECFFF1#20120003FF19F000
(1787076632.278167) can0 1CEBFFF1#01000BFFFDDB75FF
(1787076632.279067) can0 1CEBFFF1#02FE55F2000089B3
(1787076632.280058) can0 1CEBFFF1#03F8372A77FFFFFF
(1787076632.306354) can0 18F015F1#00003E864BA5461E
(1787076632.362575) can0 18FEF1F8#FF0000FFFFFFFFFF
(1787076632.363749) can0 18F005F8#7DFFFF7DFFFFFFFF
(1787076632.378063) can0 1CECFFF1#20120003FF19F000
(1787076632.379048) can0 1CEBFFF1#01000BFFFDDB75FF
(1787076632.380032) can0 1CEBFFF1#02FE55F2000089B3
(1787076632.381040) can0 1CEBFFF1#03F8382E37FFFFFF
(1787076632.407044) can0 18F015F1#00003E874BA5461F
(1787076632.462801) can0 18FEF1F8#FF0000FFFFFFFFFF
(1787076632.463925) can0 18F005F8#7DFFFF7DFFFFFFFF
(1787076632.478149) can0 1CECFFF1#20120003FF19F000
(1787076632.479098) can0 1CEBFFF1#01000BFFFDDB75FF
(1787076632.480061) can0 1CEBFFF1#02FE55F2000089B3
(1787076632.481069) can0 1CEBFFF1#03F8372A77FFFFFF
(1787076632.507111) can0 18F015F1#00003E864BA5461F
(1787076632.562982) can0 18FEF1F8#FF0000FFFFFFFFFF
(1787076632.564174) can0 18F005F8#7DFFFF7DFFFFFFFF
(1787076632.578143) can0 1CECFFF1#20120003FF19F000
(1787076632.579046) can0 1CEBFFF1#01000BFFFDDB75FF
(1787076632.580021) can0 1CEBFFF1#02FE55F2000089B3
(1787076632.581030) can0 1CEBFFF1#03F8382E37FFFFFF
(1787076632.607041) can0 18F015F1#00003E864BA5461F
(1787076632.617961) can0 18F017F1#DD87000E95DF
(1787076632.618426) can0 18F018F1#DA37FD8491D3
(1787076632.623282) can0 18FF14D1#
(1787076632.662563) can0 18FEF1F8#FF0000FFFFFFFFFF
(1787076632.663746) can0 18F005F8#7DFFFF7DFFFFFFFF
(1787076632.678060) can0 1CECFFF1#20120003FF19F000
(1787076632.679043) can0 1CEBFFF1#01000BFFFDDB75FF
(1787076632.680023) can0 1CEBFFF1#02FE55F2000089B3
(1787076632.681029) can0 1CEBFFF1#03F8372A77FFFFFF
(1787076632.707087) can0 18F015F1#00003E864BA5461F
(1787076632.762753) can0 18FEF1F8#FF0000FFFFFFFFFF
(1787076632.764047) can0 18F005F8#7DFFFF7DFFFFFFFF
(1787076632.778085) can0 1CECFFF1#20120003FF19F000
(1787076632.779049) can0 1CEBFFF1#01000BFFFDDB75FF
(1787076632.780028) can0 1CEBFFF1#02FE55F2000089B3
(1787076632.781062) can0 1CEBFFF1#03F8372A77FFFFFF
(1787076632.807123) can0 18F015F1#00003E864BA5461F
(1787076632.862944) can0 18FEF1F8#FF0000FFFFFFFFFF
(1787076632.864178) can0 18F005F8#7DFFFF7DFFFFFFFF
(1787076632.888495) can0 1CECFFF1#20120003FF19F000
(1787076632.888870) can0 1CEBFFF1#01000BFFFDDB75FF
(1787076632.889535) can0 1CEBFFF1#03F8372A77FFFFFF
(1787076632.907468) can0 18F015F1#00003E864BA5461F
(1787076632.963301) can0 18FEF1F8#FF0000FFFFFFFFFF
(1787076632.964620) can0 18F005F8#7DFFFF7DFFFFFFFF
(1787076632.979088) can0 1CECFFF1#20120003FF19F000
(1787076632.980055) can0 1CEBFFF1#01000BFFFDDB75FF
(1787076632.981024) can0 1CEBFFF1#02FE55F2000089B3
(1787076632.982041) can0 1CEBFFF1#03F8372A77FFFFFF
(1787076633.008099) can0 18F015F1#00003E864BA4461F
(1787076633.062593) can0 18FEF1F8#FF0000FFFFFFFFFF
(1787076633.063826) can0 18F005F8#7DFFFF7DFFFFFFFF
(1787076633.079084) can0 1CECFFF1#20120003FF19F000
(1787076633.080057) can0 1CEBFFF1#01000BFFFDDB75FF
(1787076633.081029) can0 1CEBFFF1#02FE55F2000089B3
(1787076633.082036) can0 1CEBFFF1#03F8372A77FFFFFF
(1787076633.108056) can0 18F015F1#00003E864BA5461F
(1787076633.123231) can0 18FF14D1#
(1787076633.162650) can0 18FEF1F8#FF0000FFFFFFFFFF
(1787076633.163884) can0 18F005F8#7DFFFF7DFFFFFFFF
(1787076633.179202) can0 1CECFFF1#20120003FF19F000
(1787076633.180103) can0 1CEBFFF1#01000BFFFDDB75FF
(1787076633.181082) can0 1CEBFFF1#02FE55F2000089B3
(1787076633.182085) can0 1CEBFFF1#03F8372A77FFFFFF
(1787076633.208584) can0 18F015F1#00003E864BA5461F
(1787076633.262536) can0 18FEF1F8#FF0000FFFFFFFFFF
(1787076633.263667) can0 18F005F8#7DFFFF7DFFFFFFFF
(1787076633.279058) can0 1CECFFF1#20120003FF19F000
(1787076633.280046) can0 1CEBFFF1#01000BFFFDDB75FF
(1787076633.281031) can0 1CEBFFF1#02FE55F2000089B3
(1787076633.282039) can0 1CEBFFF1#03F8372A77FFFFFF
(1787076633.308079) can0 18F015F1#00003E864BA5461F
(1787076633.362552) can0 18FEF1F8#FF0000FFFFFFFFFF
(1787076633.363722) can0 18F005F8#7DFFFF7DFFFFFFFF
(1787076633.379064) can0 1CECFFF1#20120003FF19F000
(1787076633.380053) can0 1CEBFFF1#01000BFFFDDB75FF
(1787076633.381035) can0 1CEBFFF1#02FE55F2000089B3
(1787076633.382044) can0 1CEBFFF1#03F8372A77FFFFFF
(1787076633.408075) can0 18F015F1#00003E864BA5461F
(1787076633.462632) can0 18FEF1F8#FF0000FFFFFFFFFF
(1787076633.463756) can0 18F005F8#7DFFFF7DFFFFFFFF
(1787076633.479174) can0 1CECFFF1#20120003FF19F000
(1787076633.480056) can0 1CEBFFF1#01000BFFFDDB75FF
(1787076633.481047) can0 1CEBFFF1#02FE55F2000089B3
(1787076633.482071) can0 1CEBFFF1#03F8372A77FFFFFF
(1787076633.508179) can0 18F015F1#00003E864BA5461F
(1787076633.562971) can0 18FEF1F8#FF0000FFFFFFFFFF
(1787076633.564205) can0 18F005F8#7DFFFF7DFFFFFFFF
(1787076633.579181) can0 1CECFFF1#20120003FF19F000
(1787076633.580064) can0 1CEBFFF1#01000BFFFDDB75FF
(1787076633.581032) can0 1CEBFFF1#02FE55F2000089B3
(1787076633.582038) can0 1CEBFFF1#03F8372A77FFFFFF
(1787076633.608065) can0 18F015F1#00003E864BA5461E
(1787076633.618974) can0 18F017F1#DD87000E95DF
(1787076633.619430) can0 18F018F1#DA37FD8491D3
(1787076633.623148) can0 18FF14D1#
(1787076633.662560) can0 18FEF1F8#FF0000FFFFFFFFFF
(1787076633.663691) can0 18F005F8#7DFFFF7DFFFFFFFF
(1787076633.679086) can0 1CECFFF1#20120003FF19F000
(1787076633.680056) can0 1CEBFFF1#01000BFFFDDB75FF
(1787076633.681038) can0 1CEBFFF1#02FE55F2000089B3
(1787076633.682041) can0 1CEBFFF1#03F8372A77FFFFFF
(1787076633.709079) can0 18F015F1#00003E864BA5461F
(1787076633.762571) can0 18FEF1F8#FF0000FFFFFFFFFF
(1787076633.763738) can0 18F005F8#7DFFFF7DFFFFFFFF
(1787076633.780065) can0 1CECFFF1#20120003FF19F000
(1787076633.781059) can0 1CEBFFF1#01000BFFFDDB75FF
(1787076633.782038) can0 1CEBFFF1#02FE55F2000089B3
(1787076633.783045) can0 1CEBFFF1#03F8372A77FFFFFF
(1787076633.809047) can0 18F015F1#00003E864BA5461F
(1787076633.862920) can0 18FEF1F8#FF0000FFFFFFFFFF
(1787076633.864807) can0 18F005F8#7DFFFF7DFFFFFFFF
(1787076633.880345) can0 1CECFFF1#20120003FF19F000
(1787076633.881226) can0 1CEBFFF1#01000BFFFDDB75FF
(1787076633.882156) can0 1CEBFFF1#02FE55F2000089B3
(1787076633.883209) can0 1CEBFFF1#03F8372A77FFFFFF
(1787076633.909222) can0 18F015F1#00003E864BA5461F
(1787076633.965113) can0 18FEF1F8#FF0000FFFFFFFFFF
(1787076633.966606) can0 18F005F8#7DFFFF7DFFFFFFFF
(1787076633.980232) can0 1CECFFF1#20120003FF19F000
(1787076633.981119) can0 1CEBFFF1#01000BFFFDDB75FF
(1787076633.982108) can0 1CEBFFF1#02FE55F2000089B3
(1787076633.983098) can0 1CEBFFF1#03F8372A77FFFFFF
(1787076634.009083) can0 18F015F1#00003E864BA5461F
(1787076634.062634) can0 18FEF1F8#FF0000FFFFFFFFFF
(1787076634.063830) can0 18F005F8#7DFFFF7DFFFFFFFF
(1787076634.080080) can0 1CECFFF1#20120003FF19F000
(1787076634.081060) can0 1CEBFFF1#01000BFFFDDB75FF
(1787076634.082083) can0 1CEBFFF1#02FE55F2000089B3
(1787076634.083054) can0 1CEBFFF1#03F8372A77FFFFFF
(1787076634.109068) can0 18F015F1#00003E864BA5461F
(1787076634.123150) can0 18FF14D1#
(1787076634.162577) can0 18FEF1F8#FF0000FFFFFFFFFF
(1787076634.163703) can0 18F005F8#7DFFFF7DFFFFFFFF
(1787076634.180119) can0 1CECFFF1#20120003FF19F000
(1787076634.181059) can0 1CEBFFF1#01000BFFFDDB75FF
(1787076634.182042) can0 1CEBFFF1#02FE55F2000089B3
(1787076634.183050) can0 1CEBFFF1#03F8372A77FFFFFF
(1787076634.209268) can0 18F015F1#00003E864BA5461F
(1787076634.262529) can0 18FEF1F8#FF0000FFFFFFFFFF
(1787076634.263680) can0 18F005F8#7DFFFF7DFFFFFFFF
(1787076634.281065) can0 1CECFFF1#20120003FF19F000
(1787076634.282049) can0 1CEBFFF1#01000BFFFDDB75FF
(1787076634.283030) can0 1CEBFFF1#02FE55F2000089B3
(1787076634.284041) can0 1CEBFFF1#03F8372A77FFFFFF
(1787076634.310081) can0 18F015F1#00003E864BA5461F
(1787076634.362559) can0 18FEF1F8#FF0000FFFFFFFFFF
(1787076634.363755) can0 18F005F8#7DFFFF7DFFFFFFFF
(1787076634.381077) can0 1CECFFF1#20120003FF19F000
(1787076634.382066) can0 1CEBFFF1#01000BFFFDDB75FF
(1787076634.383055) can0 1CEBFFF1#02FE55F2000089B3
(1787076634.384061) can0 1CEBFFF1#03F8372A77FFFFFF
(1787076634.409063) can0 18F015F1#00003E864BA5461F
(1787076634.462612) can0 18FEF1F8#FF0000FFFFFFFFFF
(1787076634.463735) can0 18F005F8#7DFFFF7DFFFFFFFF
(1787076634.481082) can0 1CECFFF1#20120003FF19F000
(1787076634.482056) can0 1CEBFFF1#01000BFFFDDB75FF
(1787076634.483039) can0 1CEBFFF1#02FE55F2000089B3
(1787076634.484060) can0 1CEBFFF1#03F8372A77FFFFFF
(1787076634.510148) can0 18F015F1#00003E864BA5461F
(1787076634.562730) can0 18FEF1F8#FF0000FFFFFFFFFF
(1787076634.564105) can0 18F005F8#7DFFFF7DFFFFFFFF
(1787076634.581247) can0 1CECFFF1#20120003FF19F000
(1787076634.582298) can0 1CEBFFF1#01000BFFFDDB75FF
(1787076634.583047) can0 1CEBFFF1#02FE55F2000089B3
(1787076634.584051) can0 1CEBFFF1#03F8372A77FFFFFF
(1787076634.610048) can0 18F015F1#00003E854BA5461F
(1787076634.619984) can0 18F017F1#DE07FFF295F9
(1787076634.620438) can0 18F018F1#DA41FDA190B9
(1787076634.623116) can0 18FF14D1#
(1787076634.662595) can0 18FEF1F8#FF0000FFFFFFFFFF
(1787076634.663918) can0 18F005F8#7DFFFF7DFFFFFFFF
(1787076634.681091) can0 1CECFFF1#20120003FF19F000
(1787076634.682059) can0 1CEBFFF1#01000BFFFDDB75FF
(1787076634.683036) can0 1CEBFFF1#02FE55F2000089B3
(1787076634.684048) can0 1CEBFFF1#03F8372A77FFFFFF
(1787076634.710081) can0 18F015F1#00003E864BA5461E
(1787076634.762560) can0 18FEF1F8#FF0000FFFFFFFFFF
(1787076634.763721) can0 18F005F8#7DFFFF7DFFFFFFFF
(1787076634.781074) can0 1CECFFF1#20120003FF19F000
(1787076634.782061) can0 1CEBFFF1#01000BFFFDDB75FF
(1787076634.783045) can0 1CEBFFF1#02FE55F2000089B3
(1787076634.784053) can0 1CEBFFF1#03F8372A77FFFFFF
(1787076634.810065) can0 18F015F1#00003E854BA5461F
(1787076634.862930) can0 18FEF1F8#FF0000FFFFFFFFFF
(1787076634.864356) can0 18F005F8#7DFFFF7DFFFFFFFF
(1787076634.881539) can0 1CECFFF1#20120003FF19F000
(1787076634.882217) can0 1CEBFFF1#01000BFFFDDB75FF
(1787076634.883501) can0 1CEBFFF1#02FE55F2000089B3
(1787076634.887913) can0 1CEBFFF1#03F836EAB6FFFFFF
(1787076634.910428) can0 18F015F1#00003E864BA5461F
(1787076634.962865) can0 18FEF1F8#FF0000FFFFFFFFFF
(1787076634.964004) can0 18F005F8#7DFFFF7DFFFFFFFF
(1787076634.981179) can0 1CECFFF1#20120003FF19F000
(1787076634.982069) can0 1CEBFFF1#01000BFFFDDB75FF
(1787076634.983061) can0 1CEBFFF1#02FE55F2000089B3
(1787076634.984057) can0 1CEBFFF1#03F836EAB6FFFFFF
(1787076635.010264) can0 18F015F1#00003E854BA5461F
(1787076635.062595) can0 18FEF1F8#FF0000FFFFFFFFFF
(1787076635.063847) can0 18F005F8#7DFFFF7DFFFFFFFF
(1787076635.082103) can0 1CECFFF1#20120003FF19F000
(1787076635.083068) can0 1CEBFFF1#01000BFFFDDB75FF
(1787076635.084042) can0 1CEBFFF1#02FE55F2000089B3
(1787076635.085048) can0 1CEBFFF1#03F836EAB6FFFFFF
(1787076635.111090) can0 18F015F1#00003E854BA5461F
(1787076635.123223) can0 18FF14D1#
(1787076635.162571) can0 18FEF1F8#FF0000FFFFFFFFFF
(1787076635.163755) can0 18F005F8#7DFFFF7DFFFFFFFF
(1787076635.182110) can0 1CECFFF1#20120003FF19F000
(1787076635.183071) can0 1CEBFFF1#01000BFFFDDB75FF
(1787076635.184050) can0 1CEBFFF1#02FE55F2000089B3
(1787076635.185051) can0 1CEBFFF1#03F836EAB6FFFFFF
(1787076635.211212) can0 18F015F1#00003E854BA5461F
(1787076635.262534) can0 18FEF1F8#FF0000FFFFFFFFFF
(1787076635.263659) can0 18F005F8#7DFFFF7DFFFFFFFF
(1787076635.282071) can0 1CECFFF1#20120003FF19F000
(1787076635.283057) can0 1CEBFFF1#01000BFFFDDB75FF
(1787076635.284038) can0 1CEBFFF1#02FE55F2000089B3
(1787076635.285041) can0 1CEBFFF1#03F836EAB6FFFFFF
(1787076635.311084) can0 18F015F1#00003E854BA5461F
(1787076635.362558) can0 18FEF1F8#FF0000FFFFFFFFFF
(1787076635.363762) can0 18F005F8#7DFFFF7DFFFFFFFF
(1787076635.382068) can0 1CECFFF1#20120003FF19F000
(1787076635.383059) can0 1CEBFFF1#01000BFFFDDB75FF
(1787076635.384040) can0 1CEBFFF1#02FE55F2000089B3
(1787076635.385045) can0 1CEBFFF1#03F836EAB6FFFFFF
(1787076635.411061) can0 18F015F1#00003E854BA5461F
(1787076635.462657) can0 18FEF1F8#FF0000FFFFFFFFFF
(1787076635.463795) can0 18F005F8#7DFFFF7DFFFFFFFF
(1787076635.482098) can0 1CECFFF1#20120003FF19F000
