(1786744474.530033) can1 18FEF111#FF0000CCFFFF1FFF
(1786744474.530555) can1 18F00503#7EFFFF7E44204420
(1786744474.629735) can1 18FEF111#FF0000CCFFFF1FFF
(1786744474.630300) can1 18F00503#7EFFFF7E44204420
(1786744474.729898) can1 18FEF111#FF0000CCFFFF1FFF
(1786744474.730374) can1 18F00503#7EFFFF7E44204420
(1786744474.829886) can1 18FEF111#FF0000CCFFFF1FFF
(1786744474.830426) can1 18F00503#7EFFFF7E44204420
(1786744474.929625) can1 18FEF111#FF0000CCFFFF1FFF
(1786744474.930177) can1 18F00503#7EFFFF7E44204420
(1786744475.029736) can1 18FEF111#FF0000CCFFFF1FFF
(1786744475.030297) can1 18F00503#7EFFFF7E44204420
(1786744475.129725) can1 18FEF111#FF0000CCFFFF1FFF
(1786744475.130279) can1 18F00503#7EFFFF7E44204420
(1786744475.229728) can1 18FEF111#FF0000CCFFFF1FFF
(1786744475.230291) can1 18F00503#7EFFFF7E44204420
(1786744475.329744) can1 18FEF111#FF0000CCFFFF1FFF
(1786744475.330296) can1 18F00503#7EFFFF7E44204420
(1786744475.429780) can1 18FEF111#FF0000CCFFFF1FFF
(1786744475.430256) can1 18F00503#7EFFFF7E44204420
(1786744475.529964) can1 18FEF111#FF0000CCFFFF1FFF
(1786744475.530516) can1 18F00503#7EFFFF7E44204420
(1786744475.629691) can1 18FEF111#FF0000CCFFFF1FFF
(1786744475.630251) can1 18F00503#7EFFFF7E44204420
(1786744475.729764) can1 18FEF111#FF0000CCFFFF1FFF
(1786744475.730254) can1 18F00503#7EFFFF7E44204420
(1786744475.829987) can1 18FEF111#FF0000CCFFFF1FFF
(1786744475.830508) can1 18F00503#7EFFFF7E44204420
(1786744475.929730) can1 18FEF111#FF0000CCFFFF1FFF
(1786744475.930558) can1 18F00503#7EFFFF7E44204420
(1786744476.029644) can1 18FEF111#FF0000CCFFFF1FFF
(1786744476.030183) can1 18F00503#7EFFFF7E44204420
(1786744476.129588) can1 18FEF111#FF0000CCFFFF1FFF
(1786744476.130138) can1 18F00503#7EFFFF7E44204420
(1786744476.229742) can1 18FEF111#FF0000CCFFFF1FFF
(1786744476.230298) can1 18F00503#7EFFFF7E44204420
(1786744476.329712) can1 18FEF111#FF0000CCFFFF1FFF
(1786744476.330265) can1 18F00503#7EFFFF7E44204420
(1786744476.429684) can1 18FEF111#FF0000CCFFFF1FFF
(1786744476.430228) can1 18F00503#7EFFFF7E44204420
(1786744476.529974) can1 18FEF111#FF0000CCFFFF1FFF
(1786744476.530496) can1 18F00503#7EFFFF7E44204420
(1786744476.629715) can1 18FEF111#FF0000CCFFFF1FFF
(1786744476.630244) can1 18F00503#7EFFFF7E44204420
(1786744476.729741) can1 18FEF111#FF0000CCFFFF1FFF
(1786744476.730294) can1 18F00503#7EFFFF7E44204420
(1786744476.829671) can1 18FEF111#FF0000CCFFFF1FFF
(1786744476.830217) can1 18F00503#7EFFFF7E44204420
(1786744476.929777) can1 18FEF111#FF0000CCFFFF1FFF
(1786744476.930326) can1 18F00503#7EFFFF7E44204420
(1786744477.029688) can1 18FEF111#FF0000CCFFFF1FFF
(1786744477.030258) can1 18F00503#7EFFFF7E44204420
(1786744477.129659) can1 18FEF111#FF0000CCFFFF1FFF
(1786744477.130227) can1 18F00503#7EFFFF7E44204420
(1786744477.229691) can1 18FEF111#FF0000CCFFFF1FFF
(1786744477.230236) can1 18F00503#7EFFFF7E44204420
(1786744477.329688) can1 18FEF111#FF0000CCFFFF1FFF
(1786744477.330240) can1 18F00503#7EFFFF7E44204420
(1786744477.429654) can1 18FEF111#FF0000CCFFFF1FFF
(1786744477.430332) can1 18F00503#7EFFFF7E44204420
(1786744477.529891) can1 18FEF111#FF0000CCFFFF1FFF
(1786744477.530457) can1 18F00503#7EFFFF7E44204420
(1786744477.629702) can1 18FEF111#FF0000CCFFFF1FFF
(1786744477.630273) can1 18F00503#7EFFFF7E44204420
(1786744477.729707) can1 18FEF111#FF0000CCFFFF1FFF
(1786744477.730211) can1 18F00503#7EFFFF7E44204420
(1786744477.829771) can1 18FEF111#FF0000CCFFFF1FFF
(1786744477.830195) can1 18F00503#7EFFFF7E44204420
(1786744477.929648) can1 18FEF111#FF0000CCFFFF1FFF
(1786744477.930201) can1 18F00503#7EFFFF7E44204420
(1786744478.029515) can1 18FEF111#FF0000CCFFFF1FFF
(1786744478.030056) can1 18F00503#7EFFFF7E44204420
(1786744478.129638) can1 18FEF111#FF0000CCFFFF1FFF
(1786744478.130189) can1 18F00503#7EFFFF7E44204420
(1786744478.229646) can1 18FEF111#FF0000CCFFFF1FFF
(1786744478.230089) can1 18F00503#7EFFFF7E44204420
(1786744478.329511) can1 18FEF111#FF0000CCFFFF1FFF
(1786744478.330058) can1 18F00503#7EFFFF7E44204420
(1786744478.429645) can1 18FEF111#FF0000CCFFFF1FFF
(1786744478.430189) can1 18F00503#7EFFFF7E44204420
(1786744478.529889) can1 18FEF111#FF0000CCFFFF1FFF
(1786744478.530465) can1 18F00503#7EFFFF7E44204420
(1786744478.629651) can1 18FEF111#FF0000CCFFFF1FFF
(1786744478.630213) can1 18F00503#7EFFFF7E44204420
(1786744478.729924) can1 18FEF111#FF0000CCFFFF1FFF
(1786744478.730304) can1 18F00503#7EFFFF7E44204420
(1786744478.829699) can1 18FEF111#FF0000CCFFFF1FFF
(1786744478.830178) can1 18F00503#7EFFFF7E44204420
(1786744478.929618) can1 18FEF111#FF0000CCFFFF1FFF
(1786744478.930155) can1 18F00503#7EFFFF7E44204420
(1786744479.029590) can1 18FEF111#FF0000CCFFFF1FFF
(1786744479.030150) can1 18F00503#7EFFFF7E44204420
(1786744479.129722) can1 18FEF111#FF0000CCFFFF1FFF
(1786744479.130282) can1 18F00503#7EFFFF7E44204420
(1786744479.229514) can1 18FEF111#FF0000CCFFFF1FFF
(1786744479.230081) can1 18F00503#7EFFFF7E44204420
(1786744479.329519) can1 18FEF111#FF0000CCFFFF1FFF
(1786744479.330066) can1 18F00503#7EFFFF7E44204420
(1786744479.429604) can1 18FEF111#FF0000CCFFFF1FFF
(1786744479.430156) can1 18F00503#7EFFFF7E44204420
(1786744479.529801) can1 18FEF111#FF0000CCFFFF1FFF
(1786744479.530344) can1 18F00503#7EFFFF7E44204420
(1786744479.629612) can1 18FEF111#FF0000CCFFFF1FFF
(1786744479.630174) can1 18F00503#7EFFFF7E44204420
(1786744479.729614) can1 18FEF111#FF0000CCFFFF1FFF
(1786744479.730143) can1 18F00503#7EFFFF7E44204420
(1786744479.829724) can1 18FEF111#FF0000CCFFFF1FFF
(1786744479.830125) can1 18F00503#7EFFFF7E44204420
(1786744479.929571) can1 18FEF111#FF0000CCFFFF1FFF
(1786744479.930113) can1 18F00503#7EFFFF7E44204420
(1786744480.029584) can1 18FEF111#FF0000CCFFFF1FFF
(1786744480.030127) can1 18F00503#7EFFFF7E44204420
(1786744480.129565) can1 18FEF111#FF0000CCFFFF1FFF
(1786744480.130122) can1 18F00503#7EFFFF7E44204420
(1786744480.229685) can1 18FEF111#FF0000CCFFFF1FFF
(1786744480.230250) can1 18F00503#7EFFFF7E44204420
(1786744480.329484) can1 18FEF111#FF0000CCFFFF1FFF
(1786744480.330034) can1 18F00503#7EFFFF7E44204420
(1786744480.429505) can1 18FEF111#FF0000CCFFFF1FFF
(1786744480.430031) can1 18F00503#7EFFFF7E44204420
(1786744480.529991) can1 18FEF111#FF0000CCFFFF1FFF
(1786744480.530449) can1 18F00503#7EFFFF7E44204420
(1786744480.629564) can1 18FEF111#FF0000CCFFFF1FFF
(1786744480.630124) can1 18F00503#7EFFFF7E44204420
(1786744480.729531) can1 18FEF111#FF0000CCFFFF1FFF
(1786744480.730042) can1 18F00503#7EFFFF7E44204420
(1786744480.829581) can1 18FEF111#FF0000CCFFFF1FFF
(1786744480.830132) can1 18F00503#7EFFFF7E44204420
(1786744480.929443) can1 18FEF111#FF0000CCFFFF1FFF
(1786744480.929993) can1 18F00503#7EFFFF7E44204420
(1786744481.029640) can1 18FEF111#FF0000CCFFFF1FFF
(1786744481.030188) can1 18F00503#7EFFFF7E44204420
(1786744481.129569) can1 18FEF111#FF0000CCFFFF1FFF
(1786744481.130111) can1 18F00503#7EFFFF7E44204420
(1786744481.229695) can1 18FEF111#FF0000CCFFFF1FFF
(1786744481.230255) can1 18F00503#7EFFFF7E44204420
(1786744481.329474) can1 18FEF111#FF0000CCFFFF1FFF
(1786744481.330023) can1 18F00503#7EFFFF7E44204420
(1786744481.429431) can1 18FEF111#FF0000CCFFFF1FFF
(1786744481.429963) can1 18F00503#7EFFFF7E44204420
(1786744481.529803) can1 18FEF111#FF0000CCFFFF1FFF
(1786744481.530363) can1 18F00503#7EFFFF7E44204420
(1786744481.629534) can1 18FEF111#FF0000CCFFFF1FFF
(1786744481.630097) can1 18F00503#7EFFFF7E44204420
(1786744481.729581) can1 18FEF111#FF0000CCFFFF1FFF
(1786744481.730086) can1 18F00503#7EFFFF7E44204420
(1786744481.829910) can1 18FEF111#FF0000CCFFFF1FFF
(1786744481.830484) can1 18F00503#7EFFFF7E44204420
(1786744481.929433) can1 18FEF111#FF0000CCFFFF1FFF
(1786744481.929987) can1 18F00503#7EFFFF7E44204420
(1786744482.029439) can1 18FEF111#FF0000CCFFFF1FFF
(1786744482.029978) can1 18F00503#7EFFFF7E44204420
(1786744482.129404) can1 18FEF111#FF0000CCFFFF1FFF
(1786744482.129966) can1 18F00503#7EFFFF7E44204420
(1786744482.229417) can1 18FEF111#FF0000CCFFFF1FFF
(1786744482.229974) can1 18F00503#7EFFFF7E44204420
(1786744482.329422) can1 18FEF111#FF0000CCFFFF1FFF
(1786744482.329977) can1 18F00503#7EFFFF7E44204420
(1786744482.429406) can1 18FEF111#FF0000CCFFFF1FFF
(1786744482.429959) can1 18F00503#7EFFFF7E44204420
(1786744482.529787) can1 18FEF111#FF0000CCFFFF1FFF
(1786744482.530353) can1 18F00503#7EFFFF7E44204420
(1786744482.629529) can1 18FEF111#FF0000CCFFFF1FFF
(1786744482.630094) can1 18F00503#7EFFFF7E44204420
(1786744482.729583) can1 18FEF111#FF0000CCFFFF1FFF
(1786744482.730123) can1 18F00503#7EFFFF7E44204420
(1786744482.829806) can1 18FEF111#FF0000CCFFFF1FFF
(1786744482.830343) can1 18F00503#7EFFFF7E44204420
(1786744482.929498) can1 18FEF111#FF0000CCFFFF1FFF
(1786744482.930058) can1 18F00503#7EFFFF7E44204420
(1786744483.029474) can1 18FEF111#FF0000CCFFFF1FFF
(1786744483.030034) can1 18F00503#7EFFFF7E44204420
(1786744483.129468) can1 18FEF111#FF0000CCFFFF1FFF
(1786744483.130022) can1 18F00503#7EFFFF7E44204420
(1786744483.229565) can1 18FEF111#FF0000CCFFFF1FFF
(1786744483.230053) can1 18F00503#7EFFFF7E44204420
(1786744483.329722) can1 18FEF111#FF0000CCFFFF1FFF
(1786744483.330239) can1 18F00503#7EFFFF7E44204420
(1786744483.429382) can1 18FEF111#FF0000CCFFFF1FFF
(1786744483.429931) can1 18F00503#7EFFFF7E44204420
(1786744483.530015) can1 18FEF111#FF0000CCFFFF1FFF
(1786744483.530578) can1 18F00503#7EFFFF7E44204420
(1786744483.629577) can1 18FEF111#FF0000CCFFFF1FFF
(1786744483.630147) can1 18F00503#7EFFFF7E44204420
(1786744483.729500) can1 18FEF111#FF0000CCFFFF1FFF
(1786744483.730154) can1 18F00503#7EFFFF7E44204420
(1786744483.829631) can1 18FEF111#FF0000CCFFFF1FFF
(1786744483.830117) can1 18F00503#7EFFFF7E44204420
(1786744483.929487) can1 18FEF111#FF0000CCFFFF1FFF
(1786744483.930006) can1 18F00503#7EFFFF7E44204420
(1786744484.029450) can1 18FEF111#FF0000CCFFFF1FFF
(1786744484.029992) can1 18F00503#7EFFFF7E44204420
(1786744484.129451) can1 18FEF111#FF0000CCFFFF1FFF
(1786744484.130011) can1 18F00503#7EFFFF7E44204420
(1786744484.229481) can1 18FEF111#FF0000CCFFFF1FFF
(1786744484.230047) can1 18F00503#7EFFFF7E44204420
(1786744484.329471) can1 18FEF111#FF0000CCFFFF1FFF
(1786744484.330028) can1 18F00503#7EFFFF7E44204420
(1786744484.429555) can1 18FEF111#FF0000CCFFFF1FFF
(1786744484.430104) can1 18F00503#7EFFFF7E44204420
(1786744484.529563) can1 18FEF111#FF0000CCFFFF1FFF
(1786744484.530117) can1 18F00503#7EFFFF7E44204420
(1786744484.629363) can1 18FEF111#FF0000CCFFFF1FFF
(1786744484.629922) can1 18F00503#7EFFFF7E44204420
(1786744484.729490) can1 18FEF111#FF0000CCFFFF1FFF
(1786744484.730010) can1 18F00503#7EFFFF7E44204420
(1786744484.829434) can1 18FEF111#FF0000CCFFFF1FFF
(1786744484.829982) can1 18F00503#7EFFFF7E44204420
(1786744484.929412) can1 18FEF111#FF0000CCFFFF1FFF
(1786744484.929972) can1 18F00503#7EFFFF7E44204420
(1786744485.029409) can1 18FEF111#FF0000CCFFFF1FFF
(1786744485.029989) can1 18F00503#7EFFFF7E44204420
(1786744485.129466) can1 18FEF111#FF0000CCFFFF1FFF
(1786744485.129976) can1 18F00503#7EFFFF7E44204420
(1786744485.229433) can1 18FEF111#FF0000CCFFFF1FFF
(1786744485.229992) can1 18F00503#7EFFFF7E44204420
(1786744485.329421) can1 18FEF111#FF0000CCFFFF1FFF
(1786744485.329978) can1 18F00503#7EFFFF7E44204420
(1786744485.429474) can1 18FEF111#FF0000CCFFFF1FFF
(1786744485.429998) can1 18F00503#7EFFFF7E44204420
(1786744485.529606) can1 18FEF111#FF0000CCFFFF1FFF
(1786744485.530147) can1 18F00503#7EFFFF7E44204420
(1786744485.629456) can1 18FEF111#FF0000CCFFFF1FFF
(1786744485.630021) can1 18F00503#7EFFFF7E44204420
(1786744485.729417) can1 18FEF111#FF0000CCFFFF1FFF
(1786744485.729954) can1 18F00503#7EFFFF7E44204420
(1786744485.829497) can1 18FEF111#FF0000CCFFFF1FFF
(1786744485.829966) can1 18F00503#7EFFFF7E44204420
(1786744485.929381) can1 18FEF111#FF0000CCFFFF1FFF
(1786744485.929931) can1 18F00503#7EFFFF7E44204420
(1786744486.029453) can1 18FEF111#FF0000CCFFFF1FFF
(1786744486.029986) can1 18F00503#7EFFFF7E44204420
(1786744486.129380) can1 18FEF111#FF0000CCFFFF1FFF
(1786744486.129930) can1 18F00503#7EFFFF7E44204420
(1786744486.229424) can1 18FEF111#FF0000CCFFFF1FFF
(1786744486.229976) can1 18F00503#7EFFFF7E44204420
(1786744486.329392) can1 18FEF111#FF0000CCFFFF1FFF
(1786744486.329946) can1 18F00503#7EFFFF7E44204420
(1786744486.429374) can1 18FEF111#FF0000CCFFFF1FFF
(1786744486.429935) can1 18F00503#7EFFFF7E44204420
(1786744486.529443) can1 18FEF111#FF0000CCFFFF1FFF
(1786744486.530015) can1 18F00503#7EFFFF7E44204420
(1786744486.629307) can1 18FEF111#FF0000CCFFFF1FFF
(1786744486.629870) can1 18F00503#7EFFFF7E44204420
(1786744486.729402) can1 18FEF111#FF0000CCFFFF1FFF
(1786744486.729881) can1 18F00503#7EFFFF7E44204420
(1786744486.829398) can1 18FEF111#FF0000CCFFFF1FFF
(1786744486.829935) can1 18F00503#7EFFFF7E44204420
(1786744486.929353) can1 18FEF111#FF0000CCFFFF1FFF
(1786744486.929900) can1 18F00503#7EFFFF7E44204420
(1786744487.029357) can1 18FEF111#FF0000CCFFFF1FFF
(1786744487.029924) can1 18F00503#7EFFFF7E44204420
(1786744487.129364) can1 18FEF111#FF0000CCFFFF1FFF
(1786744487.129923) can1 18F00503#7EFFFF7E44204420
(1786744487.229492) can1 18FEF111#FF0000CCFFFF1FFF
(1786744487.230053) can1 18F00503#7EFFFF7E44204420
(1786744487.329294) can1 18FEF111#FF0000CCFFFF1FFF
(1786744487.329857) can1 18F00503#7EFFFF7E44204420
(1786744487.429506) can1 18FEF111#FF0000CCFFFF1FFF
(1786744487.429985) can1 18F00503#7EFFFF7E44204420
(1786744487.529531) can1 18FEF111#FF0000CCFFFF1FFF
(1786744487.530118) can1 18F00503#7EFFFF7E44204420
(1786744487.629293) can1 18FEF111#FF0000CCFFFF1FFF
(1786744487.629835) can1 18F00503#7EFFFF7E44204420
(1786744487.729303) can1 18FEF111#FF0000CCFFFF1FFF
(1786744487.729847) can1 18F00503#7EFFFF7E44204420
(1786744487.829445) can1 18FEF111#FF0000CCFFFF1FFF
(1786744487.830202) can1 18F00503#7EFFFF7E44204420
(1786744487.929378) can1 18FEF111#FF0000CCFFFF1FFF
(1786744487.929894) can1 18F00503#7EFFFF7E44204420
(1786744488.029351) can1 18FEF111#FF0000CCFFFF1FFF
(1786744488.029899) can1 18F00503#7EFFFF7E44204420
(1786744488.129331) can1 18FEF111#FF0000CCFFFF1FFF
(1786744488.129892) can1 18F00503#7EFFFF7E44204420
(1786744488.229391) can1 18FEF111#FF0000CCFFFF1FFF
(1786744488.229951) can1 18F00503#7EFFFF7E44204420
(1786744488.329393) can1 18FEF111#FF0000CCFFFF1FFF
(1786744488.329951) can1 18F00503#7EFFFF7E44204420
(1786744488.429342) can1 18FEF111#FF0000CCFFFF1FFF
(1786744488.429901) can1 18F00503#7EFFFF7E44204420
(1786744488.529612) can1 18FEF111#FF0000CCFFFF1FFF
(1786744488.530164) can1 18F00503#7EFFFF7E44204420
(1786744488.629449) can1 18FEF111#FF0000CCFFFF1FFF
(1786744488.630012) can1 18F00503#7EFFFF7E44204420
(1786744488.729246) can1 18FEF111#FF0000CCFFFF1FFF
(1786744488.729787) can1 18F00503#7EFFFF7E44204420
(1786744488.829436) can1 18FEF111#FF0000CCFFFF1FFF
(1786744488.830001) can1 18F00503#7EFFFF7E44204420
(1786744488.929331) can1 18FEF111#FF0000CCFFFF1FFF
(1786744488.929888) can1 18F00503#7EFFFF7E44204420
(1786744489.029376) can1 18FEF111#FF0000CCFFFF1FFF
(1786744489.029970) can1 18F00503#7EFFFF7E44204420
(1786744489.129344) can1 18FEF111#FF0000CCFFFF1FFF
(1786744489.129990) can1 18F00503#7EFFFF7E44204420
(1786744489.229484) can1 18FEF111#FF0000CCFFFF1FFF
(1786744489.229931) can1 18F00503#7EFFFF7E44204420
(1786744489.329380) can1 18FEF111#FF0000CCFFFF1FFF
(1786744489.329941) can1 18F00503#7EFFFF7E44204420
(1786744489.429333) can1 18FEF111#FF0000CCFFFF1FFF
(1786744489.429874) can1 18F00503#7EFFFF7E44204420
(1786744489.529641) can1 18FEF111#FF0000CCFFFF1FFF
(1786744489.530143) can1 18F00503#7EFFFF7E44204420
(1786744489.629507) can1 18FEF111#FF0000CCFFFF1FFF
(1786744489.630059) can1 18F00503#7EFFFF7E44204420
(1786744489.729358) can1 18FEF111#FF0000CCFFFF1FFF
(1786744489.730023) can1 18F00503#7EFFFF7E44204420
(1786744489.829268) can1 18FEF111#FF0000CCFFFF1FFF
(1786744489.829758) can1 18F00503#7EFFFF7E44204420
(1786744489.929285) can1 18FEF111#FF0000CCFFFF1FFF
(1786744489.929888) can1 18F00503#7EFFFF7E44204420
(1786744490.029356) can1 18FEF111#FF0000CCFFFF1FFF
(1786744490.029904) can1 18F00503#7EFFFF7E44204420
(1786744490.129303) can1 18FEF111#FF0000CCFFFF1FFF
(1786744490.129836) can1 18F00503#7EFFFF7E44204420
(1786744490.229339) can1 18FEF111#FF0000CCFFFF1FFF
(1786744490.229874) can1 18F00503#7EFFFF7E44204420
(1786744490.329344) can1 18FEF111#FF0000CCFFFF1FFF
(1786744490.329868) can1 18F00503#7EFFFF7E44204420
(1786744490.429436) can1 18FEF111#FF0000CCFFFF1FFF
(1786744490.430171) can1 18F00503#7EFFFF7E44204420
(1786744490.529583) can1 18FEF111#FF0000CCFFFF1FFF
(1786744490.530116) can1 18F00503#7EFFFF7E44204420
(1786744490.629338) can1 18FEF111#FF0000CCFFFF1FFF
(1786744490.629882) can1 18F00503#7EFFFF7E44204420
(1786744490.729512) can1 18FEF111#FF0000CCFFFF1FFF
(1786744490.730022) can1 18F00503#7EFFFF7E44204420
(1786744490.829240) can1 18FEF111#FF0000CCFFFF1FFF
(1786744490.829765) can1 18F00503#7EFFFF7E44204420
(1786744490.929155) can1 18FEF111#FF0000CCFFFF1FFF
(1786744490.929710) can1 18F00503#7EFFFF7E44204420
(1786744491.029375) can1 18FEF111#FF0000CCFFFF1FFF
(1786744491.029923) can1 18F00503#7EFFFF7E44204420
(1786744491.129306) can1 18FEF111#FF0000CCFFFF1FFF
(1786744491.129830) can1 18F00503#7EFFFF7E44204420
(1786744491.229336) can1 18FEF111#FF0000CCFFFF1FFF
(1786744491.229879) can1 18F00503#7EFFFF7E44204420
(1786744491.329371) can1 18FEF111#FF0000CCFFFF1FFF
(1786744491.330335) can1 18F00503#7EFFFF7E44204420
(1786744491.429309) can1 18FEF111#FF0000CCFFFF1FFF
(1786744491.429850) can1 18F00503#7EFFFF7E44204420
(1786744491.529460) can1 18FEF111#FF0000CCFFFF1FFF
(1786744491.529987) can1 18F00503#7EFFFF7E44204420
(1786744491.629302) can1 18FEF111#FF0000CCFFFF1FFF
(1786744491.629854) can1 18F00503#7EFFFF7E44204420
(1786744491.729610) can1 18FEF111#FF0000CCFFFF1FFF
(1786744491.730568) can1 18F00503#7EFFFF7E44204420
(1786744491.829566) can1 18FEF111#FF0000CCFFFF1FFF
(1786744491.836135) can1 18F00503#7EFFFF7E44204420
(1786744491.929179) can1 18FEF111#FF0000CCFFFF1FFF
(1786744491.929695) can1 18F00503#7EFFFF7E44204420
(1786744492.029271) can1 18FEF111#FF0000CCFFFF1FFF
(1786744492.029839) can1 18F00503#7EFFFF7E44204420
(1786744492.129304) can1 18FEF111#FF0000CCFFFF1FFF
(1786744492.129784) can1 18F00503#7EFFFF7E44204420
(1786744492.229299) can1 18FEF111#FF0000CCFFFF1FFF
(1786744492.229808) can1 18F00503#7EFFFF7E44204420
(1786744492.329290) can1 18FEF111#FF0000CCFFFF1FFF
(1786744492.329825) can1 18F00503#7EFFFF7E44204420
(1786744492.429265) can1 18FEF111#FF0000CCFFFF1FFF
(1786744492.429808) can1 18F00503#7EFFFF7E44204420
(1786744492.529490) can1 18FEF111#FF0000CCFFFF1FFF
(1786744492.530046) can1 18F00503#7EFFFF7E44204420
(1786744492.629272) can1 18FEF111#FF0000CCFFFF1FFF
(1786744492.629808) can1 18F00503#7EFFFF7E44204420
(1786744492.729311) can1 18FEF111#FF0000CCFFFF1FFF
(1786744492.729799) can1 18F00503#7EFFFF7E44204420
(1786744492.829390) can1 18FEF111#FF0000CCFFFF1FFF
(1786744492.829920) can1 18F00503#7EFFFF7E44204420
(1786744492.929111) can1 18FEF111#FF0000CCFFFF1FFF
(1786744492.929665) can1 18F00503#7EFFFF7E44204420
(1786744493.029077) can1 18FEF111#FF0000CCFFFF1FFF
(1786744493.029637) can1 18F00503#7EFFFF7E44204420
(1786744493.129359) can1 18FEF111#FF0000CCFFFF1FFF
(1786744493.129912) can1 18F00503#7EFFFF7E44204420
(1786744493.229285) can1 18FEF111#FF0000CCFFFF1FFF
(1786744493.229839) can1 18F00503#7EFFFF7E44204420
(1786744493.329268) can1 18FEF111#FF0000CCFFFF1FFF
(1786744493.329821) can1 18F00503#7EFFFF7E44204420
(1786744493.429227) can1 18FEF111#FF0000CCFFFF1FFF
(1786744493.429773) can1 18F00503#7EFFFF7E44204420
(1786744493.529500) can1 18FEF111#FF0000CCFFFF1FFF
(1786744493.530037) can1 18F00503#7EFFFF7E44204420
(1786744493.629215) can1 18FEF111#FF0000CCFFFF1FFF
(1786744493.629775) can1 18F00503#7EFFFF7E44204420
(1786744493.729260) can1 18FEF111#FF0000CCFFFF1FFF
(1786744493.729769) can1 18F00503#7EFFFF7E44204420
(1786744493.829254) can1 18FEF111#FF0000CCFFFF1FFF
(1786744493.829744) can1 18F00503#7EFFFF7E44204420
(1786744493.929293) can1 18FEF111#FF0000CCFFFF1FFF
(1786744493.929847) can1 18F00503#7EFFFF7E44204420
(1786744494.029118) can1 18FEF111#FF0000CCFFFF1FFF
(1786744494.029634) can1 18F00503#7EFFFF7E44204420
(1786744494.129095) can1 18FEF111#FF0000CCFFFF1FFF
(1786744494.129631) can1 18F00503#7EFFFF7E44204420
(1786744494.229207) can1 18FEF111#FF0000CCFFFF1FFF
(1786744494.229748) can1 18F00503#7EFFFF7E44204420
(1786744494.329416) can1 18FEF111#FF0000CCFFFF1FFF
(1786744494.330183) can1 18F00503#7EFFFF7E44204420
(1786744494.429177) can1 18FEF111#FF0000CCFFFF1FFF
(1786744494.429716) can1 18F00503#7EFFFF7E44204420
(1786744494.529463) can1 18FEF111#FF0000CCFFFF1FFF
(1786744494.530006) can1 18F00503#7EFFFF7E44204420
(1786744494.629208) can1 18FEF111#FF0000CCFFFF1FFF
(1786744494.629763) can1 18F00503#7EFFFF7E44204420
(1786744494.729252) can1 18FEF111#FF0000CCFFFF1FFF
(1786744494.729758) can1 18F00503#7EFFFF7E44204420
(1786744494.829211) can1 18FEF111#FF0000CCFFFF1FFF
(1786744494.829752) can1 18F00503#7EFFFF7E44204420
(1786744494.929240) can1 18FEF111#FF0000CCFFFF1FFF
(1786744494.929801) can1 18F00503#7EFFFF7E44204420
(1786744495.029070) can1 18FEF111#FF0000CCFFFF1FFF
(1786744495.029607) can1 18F00503#7EFFFF7E44204420
(1786744495.129052) can1 18FEF111#FF0000CCFFFF1FFF
(1786744495.129604) can1 18F00503#7EFFFF7E44204420
(1786744495.229239) can1 18FEF111#FF0000CCFFFF1FFF
(1786744495.229797) can1 18F00503#7EFFFF7E44204420
(1786744495.329200) can1 18FEF111#FF0000CCFFFF1FFF
(1786744495.329752) can1 18F00503#7EFFFF7E44204420
(1786744495.429260) can1 18FEF111#FF0000CCFFFF1FFF
(1786744495.429760) can1 18F00503#7EFFFF7E44204420
(1786744495.529369) can1 18FEF111#FF0000CCFFFF1FFF
(1786744495.529909) can1 18F00503#7EFFFF7E44204420
(1786744495.629187) can1 18FEF111#FF0000CCFFFF1FFF
(1786744495.629745) can1 18F00503#7EFFFF7E44204420
(1786744495.730513) can1 18FEF111#FF0000CCFFFF1FFF
(1786744495.730743) can1 18F00503#7EFFFF7E44204420
(1786744495.829204) can1 18FEF111#FF0000CCFFFF1FFF
(1786744495.829729) can1 18F00503#7EFFFF7E44204420
(1786744495.929442) can1 18FEF111#FF0000CCFFFF1FFF
(1786744495.930067) can1 18F00503#7EFFFF7E44204420
(1786744496.029326) can1 18FEF111#FF0000CCFFFF1FFF
(1786744496.029869) can1 18F00503#7EFFFF7E44204420
(1786744496.129073) can1 18FEF111#FF0000CCFFFF1FFF
(1786744496.129628) can1 18F00503#7EFFFF7E44204420
(1786744496.229051) can1 18FEF111#FF0000CCFFFF1FFF
(1786744496.229605) can1 18F00503#7EFFFF7E44204420
(1786744496.329039) can1 18FEF111#FF0000CCFFFF1FFF
(1786744496.329586) can1 18F00503#7EFFFF7E44204420
(1786744496.429169) can1 18FEF111#FF0000CCFFFF1FFF
(1786744496.429672) can1 18F00503#7EFFFF7E44204420
(1786744496.529411) can1 18FEF111#FF0000CCFFFF1FFF
(1786744496.529920) can1 18F00503#7EFFFF7E44204420
(1786744496.629305) can1 18FEF111#FF0000CCFFFF1FFF
(1786744496.630546) can1 18F00503#7EFFFF7E44204420
(1786744496.729127) can1 18FEF111#FF0000CCFFFF1FFF
(1786744496.729689) can1 18F00503#7EFFFF7E44204420
(1786744496.829083) can1 18FEF111#FF0000CCFFFF1FFF
(1786744496.829585) can1 18F00503#7EFFFF7E44204420
(1786744496.929075) can1 18FEF111#FF0000CCFFFF1FFF
(1786744496.929627) can1 18F00503#7EFFFF7E44204420
(1786744497.029140) can1 18FEF111#FF0000CCFFFF1FFF
(1786744497.029705) can1 18F00503#7EFFFF7E44204420
(1786744497.129213) can1 18FEF111#FF0000CCFFFF1FFF
(1786744497.129752) can1 18F00503#7EFFFF7E44204420
(1786744497.229141) can1 18FEF111#FF0000CCFFFF1FFF
(1786744497.229688) can1 18F00503#7EFFFF7E44204420
(1786744497.329114) can1 18FEF111#FF0000CCFFFF1FFF
(1786744497.329663) can1 18F00503#7EFFFF7E44204420
(1786744497.429087) can1 18FEF111#FF0000CCFFFF1FFF
(1786744497.429639) can1 18F00503#7EFFFF7E44204420
(1786744497.529138) can1 18FEF111#FF0000CCFFFF1FFF
(1786744497.529706) can1 18F00503#7EFFFF7E44204420
(1786744497.629228) can1 18FEF111#FF0000CCFFFF1FFF
(1786744497.629677) can1 18F00503#7EFFFF7E44204420
(1786744497.729021) can1 18FEF111#FF0000CCFFFF1FFF
(1786744497.729570) can1 18F00503#7EFFFF7E44204420
(1786744497.829478) can1 18FEF111#FF0000CCFFFF1FFF
(1786744497.830040) can1 18F00503#7EFFFF7E44204420
(1786744497.929325) can1 18FEF111#FF0000CCFFFF1FFF
(1786744497.929987) can1 18F00503#7EFFFF7E44204420
(1786744498.029218) can1 18FEF111#FF0000CCFFFF1FFF
(1786744498.029807) can1 18F00503#7EFFFF7E44204420
(1786744498.129134) can1 18FEF111#FF0000CCFFFF1FFF
(1786744498.129759) can1 18F00503#7EFFFF7E44204420
(1786744498.229235) can1 18FEF111#FF0000CCFFFF1FFF
(1786744498.229775) can1 18F00503#7EFFFF7E44204420
(1786744498.329002) can1 18FEF111#FF0000CCFFFF1FFF
(1786744498.329545) can1 18F00503#7EFFFF7E44204420
(1786744498.428981) can1 18FEF111#FF0000CCFFFF1FFF
(1786744498.429527) can1 18F00503#7EFFFF7E44204420
(1786744498.529271) can1 18FEF111#FF0000CCFFFF1FFF
(1786744498.529816) can1 18F00503#7EFFFF7E44204420
(1786744498.629135) can1 18FEF111#FF0000CCFFFF1FFF
(1786744498.629669) can1 18F00503#7EFFFF7E44204420
(1786744498.729380) can1 18FEF111#FF0000CCFFFF1FFF
(1786744498.729997) can1 18F00503#7EFFFF7E44204420
(1786744498.829117) can1 18FEF111#FF0000CCFFFF1FFF
(1786744498.829656) can1 18F00503#7EFFFF7E44204420
(1786744498.929209) can1 18FEF111#FF0000CCFFFF1FFF
(1786744498.929795) can1 18F00503#7EFFFF7E44204420
