(1786744470.043400) can0 18FEF1F8#FF0000FFFFFFFFFF
(1786744470.044601) can0 18F005F8#7EFFFF7EFFFFFFFF
(1786744470.074650) can0 1CECFFF1#20120003FF19F000
(1786744470.075578) can0 1CEBFFF1#01000B0000068300
(1786744470.076587) can0 1CEBFFF1#02000BF3FFFE0508
(1786744470.077589) can0 1CEBFFF1#03FF0CE524FFFFFF
(1786744470.104599) can0 18F015F1#0000455B4A1F44F4
(1786744470.143393) can0 18FEF1F8#FF0000FFFFFFFFFF
(1786744470.144559) can0 18F005F8#7EFFFF7EFFFFFFFF
(1786744470.174593) can0 1CECFFF1#20120003FF19F000
(1786744470.175570) can0 1CEBFFF1#01000B0000068300
(1786744470.176585) can0 1CEBFFF1#02000BF3FFFE0508
(1786744470.177563) can0 1CEBFFF1#03FF0CE524FFFFFF
(1786744470.203555) can0 18F015F1#0000455B4A1F44F4
(1786744470.243592) can0 18FEF1F8#FF0000FFFFFFFFFF
(1786744470.244869) can0 18F005F8#7EFFFF7EFFFFFFFF
(1786744470.274624) can0 1CECFFF1#20120003FF19F000
(1786744470.275569) can0 1CEBFFF1#01000B0000068300
(1786744470.276599) can0 1CEBFFF1#02000BF3FFFE0508
(1786744470.277566) can0 1CEBFFF1#03FF0CE524FFFFFF
(1786744470.303562) can0 18F015F1#0000455B4A1F44F4
(1786744470.343350) can0 18FEF1F8#FF0000FFFFFFFFFF
(1786744470.344530) can0 18F005F8#7EFFFF7EFFFFFFFF
(1786744470.374603) can0 1CECFFF1#20120003FF19F000
(1786744470.375571) can0 1CEBFFF1#01000B0000068300
(1786744470.376592) can0 1CEBFFF1#02000BF3FFFE0508
(1786744470.377611) can0 1CEBFFF1#03FF0CE524FFFFFF
(1786744470.404089) can0 18F015F1#0000455B4A1F44F4
(1786744470.443958) can0 18FEF1F8#FF0000FFFFFFFFFF
(1786744470.445571) can0 18F005F8#7EFFFF7EFFFFFFFF
(1786744470.474610) can0 1CECFFF1#20120003FF19F000
(1786744470.475579) can0 1CEBFFF1#01000B0000068300
(1786744470.476578) can0 1CEBFFF1#02000BF3FFFE0508
(1786744470.477624) can0 1CEBFFF1#03FF0CE524FFFFFF
(1786744470.503569) can0 18F015F1#0000455B4A1F44F4
(1786744470.543363) can0 18FEF1F8#FF0000FFFFFFFFFF
(1786744470.544552) can0 18F005F8#7EFFFF7EFFFFFFFF
(1786744470.575585) can0 1CECFFF1#20120003FF19F000
(1786744470.576581) can0 1CEBFFF1#01000B0000068300
(1786744470.577569) can0 1CEBFFF1#02000BF3FFFE0508
(1786744470.578575) can0 1CEBFFF1#03FF0B2765FFFFFF
(1786744470.604570) can0 18F015F1#0000455A4A1F44F4
(1786744470.614518) can0 18F017F1#E71EFA6C9691
(1786744470.615064) can0 18F018F1#E521F40C938C
(1786744470.643460) can0 18FEF1F8#FF0000FFFFFFFFFF
(1786744470.644739) can0 18F005F8#7EFFFF7EFFFFFFFF
(1786744470.675646) can0 1CECFFF1#20120003FF19F000
(1786744470.676579) can0 1CEBFFF1#01000B0000068300
(1786744470.677575) can0 1CEBFFF1#02000BF3FFFE0508
(1786744470.678567) can0 1CEBFFF1#03FF0B2765FFFFFF
(1786744470.704702) can0 18F015F1#0000455A4A1F44F4
(1786744470.743378) can0 18FEF1F8#FF0000FFFFFFFFFF
(1786744470.744583) can0 18F005F8#7EFFFF7EFFFFFFFF
(1786744470.775633) can0 1CECFFF1#20120003FF19F000
(1786744470.776590) can0 1CEBFFF1#01000B0000068300
(1786744470.777564) can0 1CEBFFF1#02000BF3FFFE0508
(1786744470.778598) can0 1CEBFFF1#03FF0B2765FFFFFF
(1786744470.804589) can0 18F015F1#0000455A4A1F44F4
(1786744470.843385) can0 18FEF1F8#FF0000FFFFFFFFFF
(1786744470.844535) can0 18F005F8#7EFFFF7EFFFFFFFF
(1786744470.875607) can0 1CECFFF1#20120003FF19F000
(1786744470.876584) can0 1CEBFFF1#01000B0000068300
(1786744470.877570) can0 1CEBFFF1#02000BF3FFFE0508
(1786744470.878599) can0 1CEBFFF1#03FF0B2765FFFFFF
(1786744470.904667) can0 18F015F1#0000455A4A1F44F4
(1786744470.943366) can0 18FEF1F8#FF0000FFFFFFFFFF
(1786744470.944527) can0 18F005F8#7EFFFF7EFFFFFFFF
(1786744470.975604) can0 1CECFFF1#20120003FF19F000
(1786744470.976580) can0 1CEBFFF1#01000B0000068300
(1786744470.977563) can0 1CEBFFF1#02000BF3FFFE0508
(1786744470.978693) can0 1CEBFFF1#03FF0B2765FFFFFF
(1786744471.004589) can0 18F015F1#0000455A4A1F44F4
(1786744471.043377) can0 18FEF1F8#FF0000FFFFFFFFFF
(1786744471.044552) can0 18F005F8#7EFFFF7EFFFFFFFF
(1786744471.075623) can0 1CECFFF1#20120003FF19F000
(1786744471.076586) can0 1CEBFFF1#01000B0000068300
(1786744471.077571) can0 1CEBFFF1#02000BF3FFFE0508
(1786744471.078576) can0 1CEBFFF1#03FF0B2765FFFFFF
(1786744471.105577) can0 18F015F1#0000455A4A1F44F4
(1786744471.143389) can0 18FEF1F8#FF0000FFFFFFFFFF
(1786744471.144558) can0 18F005F8#7EFFFF7EFFFFFFFF
(1786744471.176625) can0 1CECFFF1#20120003FF19F000
(1786744471.177579) can0 1CEBFFF1#01000B0000068300
(1786744471.178568) can0 1CEBFFF1#02000BF3FFFE0508
(1786744471.179603) can0 1CEBFFF1#03FF0B2765FFFFFF
(1786744471.205589) can0 18F015F1#0000455A4A1F44F4
(1786744471.243365) can0 18FEF1F8#FF0000FFFFFFFFFF
(1786744471.244543) can0 18F005F8#7EFFFF7EFFFFFFFF
(1786744471.276644) can0 1CECFFF1#20120003FF19F000
(1786744471.277617) can0 1CEBFFF1#01000B0000068300
(1786744471.278572) can0 1CEBFFF1#02000BF3FFFE0508
(1786744471.279574) can0 1CEBFFF1#03FF0B2765FFFFFF
(1786744471.305686) can0 18F015F1#0000455A4A1F44F4
(1786744471.343532) can0 18FEF1F8#FF0000FFFFFFFFFF
(1786744471.344719) can0 18F005F8#7EFFFF7EFFFFFFFF
(1786744471.376891) can0 1CECFFF1#20120003FF19F000
(1786744471.377596) can0 1CEBFFF1#01000B0000068300
(1786744471.378614) can0 1CEBFFF1#02000BF3FFFE0508
(1786744471.379607) can0 1CEBFFF1#03FF0B2765FFFFFF
(1786744471.405667) can0 18F015F1#0000455A4A1F44F4
(1786744471.443414) can0 18FEF1F8#FF0000FFFFFFFFFF
(1786744471.444585) can0 18F005F8#7EFFFF7EFFFFFFFF
(1786744471.476659) can0 1CECFFF1#20120003FF19F000
(1786744471.477594) can0 1CEBFFF1#01000B0000068300
(1786744471.478568) can0 1CEBFFF1#02000BF3FFFE0508
(1786744471.479575) can0 1CEBFFF1#03FF0B2765FFFFFF
(1786744471.505583) can0 18F015F1#0000455A4A1F44F4
(1786744471.543383) can0 18FEF1F8#FF0000FFFFFFFFFF
(1786744471.544582) can0 18F005F8#7EFFFF7EFFFFFFFF
(1786744471.576609) can0 1CECFFF1#20120003FF19F000
(1786744471.577580) can0 1CEBFFF1#01000B0000068300
(1786744471.578577) can0 1CEBFFF1#02000BF3FFFE0508
(1786744471.579580) can0 1CEBFFF1#03FF0B2765FFFFFF
(1786744471.606581) can0 18F015F1#0000455A4A1F44F4
(1786744471.615492) can0 18F017F1#E71EFA6C9691
(1786744471.615971) can0 18F018F1#E521F40C938C
(1786744471.643392) can0 18FEF1F8#FF0000FFFFFFFFFF
(1786744471.644534) can0 18F005F8#7EFFFF7EFFFFFFFF
(1786744471.676645) can0 1CECFFF1#20120003FF19F000
(1786744471.677582) can0 1CEBFFF1#01000B0000068300
(1786744471.678575) can0 1CEBFFF1#02000BF3FFFE0508
(1786744471.679581) can0 1CEBFFF1#03FF0B2765FFFFFF
(1786744471.705706) can0 18F015F1#0000455A4A1F44F4
(1786744471.743369) can0 18FEF1F8#FF0000FFFFFFFFFF
(1786744471.744503) can0 18F005F8#7EFFFF7EFFFFFFFF
(1786744471.776732) can0 1CECFFF1#20120003FF19F000
(1786744471.777588) can0 1CEBFFF1#01000B0000068300
(1786744471.778569) can0 1CEBFFF1#02000BF3FFFE0508
(1786744471.779582) can0 1CEBFFF1#03FF0B2765FFFFFF
(1786744471.805607) can0 18F015F1#0000455A4A1F44F4
(1786744471.843911) can0 18FEF1F8#FF0000FFFFFFFFFF
(1786744471.846211) can0 18F005F8#7EFFFF7EFFFFFFFF
(1786744471.876625) can0 1CECFFF1#20120003FF19F000
(1786744471.877583) can0 1CEBFFF1#01000B0000068300
(1786744471.878583) can0 1CEBFFF1#02000BF3FFFE0508
(1786744471.879585) can0 1CEBFFF1#03FF0B2765FFFFFF
(1786744471.905780) can0 18F015F1#0000455A4A1F44F4
(1786744471.943364) can0 18FEF1F8#FF0000FFFFFFFFFF
(1786744471.944498) can0 18F005F8#7EFFFF7EFFFFFFFF
(1786744471.977592) can0 1CECFFF1#20120003FF19F000
(1786744471.978583) can0 1CEBFFF1#01000B0000068300
(1786744471.979573) can0 1CEBFFF1#02000BF3FFFE0508
(1786744471.980583) can0 1CEBFFF1#03FF0B2765FFFFFF
(1786744472.006892) can0 18F015F1#0000455A4A1F44F4
(1786744472.043381) can0 18FEF1F8#FF0000FFFFFFFFFF
(1786744472.044570) can0 18F005F8#7EFFFF7EFFFFFFFF
(1786744472.077629) can0 1CECFFF1#20120003FF19F000
(1786744472.078586) can0 1CEBFFF1#01000B0000068300
(1786744472.079577) can0 1CEBFFF1#02000BF3FFFE0508
(1786744472.080579) can0 1CEBFFF1#03FF0B2765FFFFFF
(1786744472.106632) can0 18F015F1#0000455A4A1F44F3
(1786744472.143447) can0 18FEF1F8#FF0000FFFFFFFFFF
(1786744472.144590) can0 18F005F8#7EFFFF7EFFFFFFFF
(1786744472.177740) can0 1CECFFF1#20120003FF19F000
(1786744472.178597) can0 1CEBFFF1#01000B0000068300
(1786744472.179591) can0 1CEBFFF1#02000BF3FFFE0508
(1786744472.180595) can0 1CEBFFF1#03FF0B2765FFFFFF
(1786744472.211088) can0 18F015F1#0000455A4A1F44F4
(1786744472.243386) can0 18FEF1F8#FF0000FFFFFFFFFF
(1786744472.244530) can0 18F005F8#7EFFFF7EFFFFFFFF
(1786744472.277793) can0 1CECFFF1#20120003FF19F000
(1786744472.278581) can0 1CEBFFF1#01000B0000068300
(1786744472.279595) can0 1CEBFFF1#02000BF3FFFE0508
(1786744472.280598) can0 1CEBFFF1#03FF0B2765FFFFFF
(1786744472.306623) can0 18F015F1#0000455A4A1F44F4
(1786744472.343336) can0 18FEF1F8#FF0000FFFFFFFFFF
(1786744472.344459) can0 18F005F8#7EFFFF7EFFFFFFFF
(1786744472.377656) can0 1CECFFF1#20120003FF19F000
(1786744472.378611) can0 1CEBFFF1#01000B0000068300
(1786744472.379601) can0 1CEBFFF1#02000BF3FFFE0508
(1786744472.380600) can0 1CEBFFF1#03FF0B2765FFFFFF
(1786744472.406662) can0 18F015F1#0000455A4A1F44F3
(1786744472.443427) can0 18FEF1F8#FF0000FFFFFFFFFF
(1786744472.444544) can0 18F005F8#7EFFFF7EFFFFFFFF
(1786744472.477679) can0 1CECFFF1#20120003FF19F000
(1786744472.478593) can0 1CEBFFF1#01000B0000068300
(1786744472.479575) can0 1CEBFFF1#02000BF3FFFE0508
(1786744472.480593) can0 1CEBFFF1#03FF0B2765FFFFFF
(1786744472.506749) can0 18F015F1#0000455A4A1F44F4
(1786744472.543345) can0 18FEF1F8#FF0000FFFFFFFFFF
(1786744472.544514) can0 18F005F8#7EFFFF7EFFFFFFFF
(1786744472.577590) can0 1CECFFF1#20120003FF19F000
(1786744472.578586) can0 1CEBFFF1#01000B0000068300
(1786744472.579577) can0 1CEBFFF1#02000BF3FFFE0508
(1786744472.580583) can0 1CEBFFF1#03FF0B2765FFFFFF
(1786744472.607587) can0 18F015F1#0000455A4A1F44F4
(1786744472.616508) can0 18F017F1#E723FA8F967E
(1786744472.616964) can0 18F018F1#E55FF3C5934A
(1786744472.643432) can0 18FEF1F8#FF0000FFFFFFFFFF
(1786744472.644573) can0 18F005F8#7EFFFF7EFFFFFFFF
(1786744472.677646) can0 1CECFFF1#20120003FF19F000
(1786744472.678593) can0 1CEBFFF1#01000B0000068300
(1786744472.679574) can0 1CEBFFF1#02000BF3FFFE0508
(1786744472.680581) can0 1CEBFFF1#03FF0B2765FFFFFF
(1786744472.706645) can0 18F015F1#0000455A4A1F44F4
(1786744472.743391) can0 18FEF1F8#FF0000FFFFFFFFFF
(1786744472.744522) can0 18F005F8#7EFFFF7EFFFFFFFF
(1786744472.778715) can0 1CECFFF1#20120003FF19F000
(1786744472.779593) can0 1CEBFFF1#01000B0000068300
(1786744472.780644) can0 1CEBFFF1#02000BF3FFFE0508
(1786744472.781588) can0 1CEBFFF1#03FF0B2765FFFFFF
(1786744472.807591) can0 18F015F1#0000455A4A1F44F4
(1786744472.843359) can0 18FEF1F8#FF0000FFFFFFFFFF
(1786744472.844533) can0 18F005F8#7EFFFF7EFFFFFFFF
(1786744472.878707) can0 1CECFFF1#20120003FF19F000
(1786744472.879646) can0 1CEBFFF1#01000B0000068300
(1786744472.880606) can0 1CEBFFF1#02000BF3FFFE0508
(1786744472.881618) can0 1CEBFFF1#03FF0B2765FFFFFF
(1786744472.907717) can0 18F015F1#000045594A1F44F4
(1786744472.943365) can0 18FEF1F8#FF0000FFFFFFFFFF
(1786744472.944479) can0 18F005F8#7EFFFF7EFFFFFFFF
(1786744472.978601) can0 1CECFFF1#20120003FF19F000
(1786744472.979594) can0 1CEBFFF1#01000B0000068300
(1786744472.980580) can0 1CEBFFF1#02000BF3FFFE0508
(1786744472.981581) can0 1CEBFFF1#03FF0AE7A4FFFFFF
(1786744473.007577) can0 18F015F1#000045594A1F44F4
(1786744473.043357) can0 18FEF1F8#FF0000FFFFFFFFFF
(1786744473.044489) can0 18F005F8#7EFFFF7EFFFFFFFF
(1786744473.078627) can0 1CECFFF1#20120003FF19F000
(1786744473.079601) can0 1CEBFFF1#01000B0000068300
(1786744473.080587) can0 1CEBFFF1#02000BF3FFFE0508
(1786744473.081583) can0 1CEBFFF1#03FF0AE7A4FFFFFF
(1786744473.108579) can0 18F015F1#000045594A1F44F4
(1786744473.143361) can0 18FEF1F8#FF0000FFFFFFFFFF
(1786744473.144478) can0 18F005F8#7EFFFF7EFFFFFFFF
(1786744473.178608) can0 1CECFFF1#20120003FF19F000
(1786744473.179585) can0 1CEBFFF1#01000B0000068300
(1786744473.180573) can0 1CEBFFF1#02000BF3FFFE0508
(1786744473.181587) can0 1CEBFFF1#03FF0B2765FFFFFF
(1786744473.207583) can0 18F015F1#0000455A4A1F44F4
(1786744473.243353) can0 18FEF1F8#FF0000FFFFFFFFFF
(1786744473.244468) can0 18F005F8#7EFFFF7EFFFFFFFF
(1786744473.278694) can0 1CECFFF1#20120003FF19F000
(1786744473.279600) can0 1CEBFFF1#01000B0000068300
(1786744473.280578) can0 1CEBFFF1#02000BF3FFFE0508
(1786744473.281601) can0 1CEBFFF1#03FF0AE7A4FFFFFF
(1786744473.307590) can0 18F015F1#000045594A1F44F4
(1786744473.343337) can0 18FEF1F8#FF0000FFFFFFFFFF
(1786744473.344499) can0 18F005F8#7EFFFF7EFFFFFFFF
(1786744473.378693) can0 1CECFFF1#20120003FF19F000
(1786744473.379638) can0 1CEBFFF1#01000B0000068300
(1786744473.380634) can0 1CEBFFF1#02000BF3FFFE0508
(1786744473.381611) can0 1CEBFFF1#03FF0AE7A4FFFFFF
(1786744473.407678) can0 18F015F1#000045594A1F44F4
(1786744473.443425) can0 18FEF1F8#FF0000FFFFFFFFFF
(1786744473.444548) can0 18F005F8#7EFFFF7EFFFFFFFF
(1786744473.478653) can0 1CECFFF1#20120003FF19F000
(1786744473.479598) can0 1CEBFFF1#01000B0000068300
(1786744473.480579) can0 1CEBFFF1#02000BF3FFFE0508
(1786744473.481592) can0 1CEBFFF1#03FF0AE7A4FFFFFF
(1786744473.507577) can0 18F015F1#000045594A1F44F4
(1786744473.543332) can0 18FEF1F8#FF0000FFFFFFFFFF
(1786744473.544451) can0 18F005F8#7EFFFF7EFFFFFFFF
(1786744473.579616) can0 1CECFFF1#20120003FF19F000
(1786744473.580590) can0 1CEBFFF1#01000B0000068300
(1786744473.581597) can0 1CEBFFF1#02000BF3FFFE0508
(1786744473.582630) can0 1CEBFFF1#03FF0AE7A4FFFFFF
(1786744473.608851) can0 18F015F1#000045594A1F44F4
(1786744473.618630) can0 18F017F1#E723FA8F967E
(1786744473.619193) can0 18F018F1#E55FF3C5934A
(1786744473.644615) can0 18FEF1F8#FF0000FFFFFFFFFF
(1786744473.646037) can0 18F005F8#7EFFFF7EFFFFFFFF
(1786744473.679635) can0 1CECFFF1#20120003FF19F000
(1786744473.680594) can0 1CEBFFF1#01000B0000068300
(1786744473.681581) can0 1CEBFFF1#02000BF3FFFE0508
(1786744473.682580) can0 1CEBFFF1#03FF0AE7A4FFFFFF
(1786744473.708641) can0 18F015F1#000045594A1F44F4
(1786744473.743495) can0 18FEF1F8#FF0000FFFFFFFFFF
(1786744473.744650) can0 18F005F8#7EFFFF7EFFFFFFFF
(1786744473.779723) can0 1CECFFF1#20120003FF19F000
(1786744473.780604) can0 1CEBFFF1#01000B0000068300
(1786744473.781626) can0 1CEBFFF1#02000BF3FFFE0508
(1786744473.782583) can0 1CEBFFF1#03FF0AE7A4FFFFFF
(1786744473.808588) can0 18F015F1#000045594A1F44F4
(1786744473.843530) can0 18FEF1F8#FF0000FFFFFFFFFF
(1786744473.845156) can0 18F005F8#7EFFFF7EFFFFFFFF
(1786744473.879899) can0 1CECFFF1#20120003FF19F000
(1786744473.880682) can0 1CEBFFF1#01000B0000068300
(1786744473.882007) can0 1CEBFFF1#02000BF3FFFE0508
(1786744473.882643) can0 1CEBFFF1#03FF0AE7A4FFFFFF
(1786744473.908932) can0 18F015F1#000045594A1F44F4
(1786744473.943346) can0 18FEF1F8#FF0000FFFFFFFFFF
(1786744473.944477) can0 18F005F8#7EFFFF7EFFFFFFFF
(1786744473.979614) can0 1CECFFF1#20120003FF19F000
(1786744473.980600) can0 1CEBFFF1#01000B0000068300
(1786744473.981588) can0 1CEBFFF1#02000BF3FFFE0508
(1786744473.982587) can0 1CEBFFF1#03FF0AE7A4FFFFFF
(1786744474.008634) can0 18F015F1#000045594A2044F4
(1786744474.043370) can0 18FEF1F8#FF0000FFFFFFFFFF
(1786744474.044508) can0 18F005F8#7EFFFF7EFFFFFFFF
(1786744474.079633) can0 1CECFFF1#20120003FF19F000
(1786744474.080599) can0 1CEBFFF1#01000B0000068300
(1786744474.081615) can0 1CEBFFF1#02000BF3FFFE0508
(1786744474.082589) can0 1CEBFFF1#03FF0AE7A4FFFFFF
(1786744474.109596) can0 18F015F1#000045594A1F44F4
(1786744474.143351) can0 18FEF1F8#FF0000FFFFFFFFFF
(1786744474.144476) can0 18F005F8#7EFFFF7EFFFFFFFF
(1786744474.179626) can0 1CECFFF1#20120003FF19F000
(1786744474.180600) can0 1CEBFFF1#01000B0000068300
(1786744474.181597) can0 1CEBFFF1#02000BF3FFFE0508
(1786744474.182593) can0 1CEBFFF1#03FF0AE7A4FFFFFF
(1786744474.208596) can0 18F015F1#000045594A2044F4
(1786744474.243484) can0 18FEF1F8#FF0000FFFFFFFFFF
(1786744474.244607) can0 18F005F8#7EFFFF7EFFFFFFFF
(1786744474.280695) can0 1CECFFF1#20120003FF19F000
(1786744474.281606) can0 1CEBFFF1#01000B0000068300
(1786744474.282602) can0 1CEBFFF1#02000BF3FFFE0508
(1786744474.283592) can0 1CEBFFF1#03FF09E6E4FFFFFF
(1786744474.309625) can0 18F015F1#000045584A2044F4
(1786744474.343363) can0 18FEF1F8#FF0000FFFFFFFFFF
(1786744474.344501) can0 18F005F8#7EFFFF7EFFFFFFFF
(1786744474.380706) can0 1CECFFF1#20120003FF19F000
(1786744474.381635) can0 1CEBFFF1#01000B0000068300
(1786744474.382629) can0 1CEBFFF1#02000BF3FFFE0508
(1786744474.383625) can0 1CEBFFF1#03FF09E6E4FFFFFF
(1786744474.410064) can0 18F015F1#000045584A1F44F4
(1786744474.444080) can0 18FEF1F8#FF0000FFFFFFFFFF
(1786744474.445448) can0 18F005F8#7EFFFF7EFFFFFFFF
(1786744474.480710) can0 1CECFFF1#20120003FF19F000
(1786744474.481605) can0 1CEBFFF1#01000B0000068300
(1786744474.482589) can0 1CEBFFF1#02000BF3FFFE0508
(1786744474.483588) can0 1CEBFFF1#03FF09E6E4FFFFFF
(1786744474.509689) can0 18F015F1#000045584A2044F4
(1786744474.543364) can0 18FEF1F8#FF0000FFFFFFFFFF
(1786744474.544483) can0 18F005F8#7EFFFF7EFFFFFFFF
(1786744474.580605) can0 1CECFFF1#20120003FF19F000
(1786744474.581603) can0 1CEBFFF1#01000B0000068300
(1786744474.582591) can0 1CEBFFF1#02000BF3FFFE0508
(1786744474.583594) can0 1CEBFFF1#03FF09E6E4FFFFFF
(1786744474.610588) can0 18F015F1#000045584A2044F3
(1786744474.619512) can0 18F017F1#E7FFF9E99639
(1786744474.619982) can0 18F018F1#E431F3C1937A
(1786744474.643426) can0 18FEF1F8#FF0000FFFFFFFFFF
(1786744474.644655) can0 18F005F8#7EFFFF7EFFFFFFFF
(1786744474.680654) can0 1CECFFF1#20120003FF19F000
(1786744474.681605) can0 1CEBFFF1#01000B0000068300
(1786744474.682598) can0 1CEBFFF1#02000BF3FFFE0508
(1786744474.683598) can0 1CEBFFF1#03FF09E6E4FFFFFF
(1786744474.709629) can0 18F015F1#000045584A1F44F4
(1786744474.746096) can0 18FEF1F8#FF0000FFFFFFFFFF
(1786744474.747234) can0 18F005F8#7EFFFF7EFFFFFFFF
(1786744474.780721) can0 1CECFFF1#20120003FF19F000
(1786744474.781612) can0 1CEBFFF1#01000B0000068300
(1786744474.782589) can0 1CEBFFF1#02000BF3FFFE0508
(1786744474.783591) can0 1CEBFFF1#03FF09E6E4FFFFFF
(1786744474.809606) can0 18F015F1#000045584A2044F4
(1786744474.843354) can0 18FEF1F8#FF0000FFFFFFFFFF
(1786744474.844488) can0 18F005F8#7EFFFF7EFFFFFFFF
(1786744474.880691) can0 1CECFFF1#20120003FF19F000
(1786744474.881624) can0 1CEBFFF1#01000B0000068300
(1786744474.882618) can0 1CEBFFF1#02000BF3FFFE0508
(1786744474.883607) can0 1CEBFFF1#03FF09E6E4FFFFFF
(1786744474.909679) can0 18F015F1#000045584A2044F3
(1786744474.943343) can0 18FEF1F8#FF0000FFFFFFFFFF
(1786744474.944473) can0 18F005F8#7EFFFF7EFFFFFFFF
(1786744474.980606) can0 1CECFFF1#20120003FF19F000
(1786744474.981599) can0 1CEBFFF1#01000B0000068300
(1786744474.982592) can0 1CEBFFF1#02000BF3FFFE0508
(1786744474.983592) can0 1CEBFFF1#03FF09E6E4FFFFFF
(1786744475.009610) can0 18F015F1#000045584A2044F4
(1786744475.043378) can0 18FEF1F8#FF0000FFFFFFFFFF
(1786744475.044578) can0 18F005F8#7EFFFF7EFFFFFFFF
(1786744475.081630) can0 1CECFFF1#20120003FF19F000
(1786744475.082609) can0 1CEBFFF1#01000B0000068300
(1786744475.083598) can0 1CEBFFF1#02000BF3FFFE0508
(1786744475.084600) can0 1CEBFFF1#03FF09E6E4FFFFFF
(1786744475.110607) can0 18F015F1#000045584A2044F3
(1786744475.143349) can0 18FEF1F8#FF0000FFFFFFFFFF
(1786744475.144516) can0 18F005F8#7EFFFF7EFFFFFFFF
(1786744475.181623) can0 1CECFFF1#20120003FF19F000
(1786744475.182607) can0 1CEBFFF1#01000B0000068300
(1786744475.183595) can0 1CEBFFF1#02000BF3FFFE0508
(1786744475.184601) can0 1CEBFFF1#03FF09E6E4FFFFFF
(1786744475.210597) can0 18F015F1#000045584A2044F3
(1786744475.243321) can0 18FEF1F8#FF0000FFFFFFFFFF
(1786744475.244500) can0 18F005F8#7EFFFF7EFFFFFFFF
(1786744475.281660) can0 1CECFFF1#20120003FF19F000
(1786744475.282601) can0 1CEBFFF1#01000B0000068300
(1786744475.283590) can0 1CEBFFF1#02000BF3FFFE0508
(1786744475.284593) can0 1CEBFFF1#03FF09E6E4FFFFFF
(1786744475.310601) can0 18F015F1#000045584A2044F4
(1786744475.343342) can0 18FEF1F8#FF0000FFFFFFFFFF
(1786744475.344495) can0 18F005F8#7EFFFF7EFFFFFFFF
(1786744475.381831) can0 1CECFFF1#20120003FF19F000
(1786744475.382636) can0 1CEBFFF1#01000B0000068300
(1786744475.383654) can0 1CEBFFF1#02000BF3FFFE0508
(1786744475.384646) can0 1CEBFFF1#03FF09E6E4FFFFFF
(1786744475.410699) can0 18F015F1#000045584A2044F3
(1786744475.443433) can0 18FEF1F8#FF0000FFFFFFFFFF
(1786744475.444568) can0 18F005F8#7EFFFF7EFFFFFFFF
(1786744475.481723) can0 1CECFFF1#20120003FF19F000
(1786744475.482617) can0 1CEBFFF1#01000B0000068300
(1786744475.483593) can0 1CEBFFF1#02000BF3FFFE0508
(1786744475.484599) can0 1CEBFFF1#03FF082625FFFFFF
(1786744475.510606) can0 18F015F1#000045574A2044F3
(1786744475.543333) can0 18FEF1F8#FF0000FFFFFFFFFF
(1786744475.544497) can0 18F005F8#7EFFFF7EFFFFFFFF
(1786744475.581611) can0 1CECFFF1#20120003FF19F000
(1786744475.582614) can0 1CEBFFF1#01000B0000068300
(1786744475.583601) can0 1CEBFFF1#02000BF3FFFE0508
(1786744475.584607) can0 1CEBFFF1#03FF082625FFFFFF
(1786744475.611601) can0 18F015F1#000045574A2044F3
(1786744475.620527) can0 18F017F1#E7FFF9E99639
(1786744475.621005) can0 18F018F1#E431F3C1937A
(1786744475.643399) can0 18FEF1F8#FF0000FFFFFFFFFF
(1786744475.644536) can0 18F005F8#7EFFFF7EFFFFFFFF
(1786744475.681676) can0 1CECFFF1#20120003FF19F000
(1786744475.682608) can0 1CEBFFF1#01000B0000068300
(1786744475.683594) can0 1CEBFFF1#02000BF3FFFE0508
(1786744475.684600) can0 1CEBFFF1#03FF082625FFFFFF
(1786744475.711733) can0 18F015F1#000045574A2044F4
(1786744475.743356) can0 18FEF1F8#FF0000FFFFFFFFFF
(1786744475.744486) can0 18F005F8#7EFFFF7EFFFFFFFF
(1786744475.781856) can0 1CECFFF1#20120003FF19F000
(1786744475.782609) can0 1CEBFFF1#01000B0000068300
(1786744475.783597) can0 1CEBFFF1#02000BF3FFFE0508
(1786744475.784602) can0 1CEBFFF1#03FF082625FFFFFF
(1786744475.810618) can0 18F015F1#000045574A2044F3
(1786744475.843974) can0 18FEF1F8#FF0000FFFFFFFFFF
(1786744475.845325) can0 18F005F8#7EFFFF7EFFFFFFFF
(1786744475.882716) can0 1CECFFF1#20120003FF19F000
(1786744475.883685) can0 1CEBFFF1#01000B0000068300
(1786744475.884655) can0 1CEBFFF1#02000BF3FFFE0508
(1786744475.885639) can0 1CEBFFF1#03FF082625FFFFFF
(1786744475.911706) can0 18F015F1#000045574A2044F3
(1786744475.943413) can0 18FEF1F8#FF0000FFFFFFFFFF
(1786744475.944573) can0 18F005F8#7EFFFF7EFFFFFFFF
(1786744475.982753) can0 1CECFFF1#20120003FF19F000
(1786744475.983628) can0 1CEBFFF1#01000B0000068300
(1786744475.984605) can0 1CEBFFF1#02000BF3FFFE0508
(1786744475.985612) can0 1CEBFFF1#03FF082625FFFFFF
(1786744476.011638) can0 18F015F1#000045574A2044F3
(1786744476.043386) can0 18FEF1F8#FF0000FFFFFFFFFF
(1786744476.044583) can0 18F005F8#7EFFFF7EFFFFFFFF
(1786744476.082649) can0 1CECFFF1#20120003FF19F000
(1786744476.083612) can0 1CEBFFF1#01000B0000068300
(1786744476.084596) can0 1CEBFFF1#02000BF3FFFE0508
(1786744476.085603) can0 1CEBFFF1#03FF082625FFFFFF
(1786744476.111587) can0 18F015F1#000045574A2044F3
(1786744476.143356) can0 18FEF1F8#FF0000FFFFFFFFFF
(1786744476.144487) can0 18F005F8#7EFFFF7EFFFFFFFF
(1786744476.182636) can0 1CECFFF1#20120003FF19F000
(1786744476.183614) can0 1CEBFFF1#01000B0000068300
(1786744476.184609) can0 1CEBFFF1#02000BF3FFFE0508
(1786744476.185612) can0 1CEBFFF1#03FF082625FFFFFF
(1786744476.211601) can0 18F015F1#000045574A1F44F3
(1786744476.243324) can0 18FEF1F8#FF0000FFFFFFFFFF
(1786744476.244475) can0 18F005F8#7EFFFF7EFFFFFFFF
(1786744476.282659) can0 1CECFFF1#20120003FF19F000
(1786744476.283621) can0 1CEBFFF1#01000B0000068300
(1786744476.284595) can0 1CEBFFF1#02000BF3FFFE0508
(1786744476.285607) can0 1CEBFFF1#03FF082625FFFFFF
(1786744476.311602) can0 18F015F1#000045574A2044F4
(1786744476.343330) can0 18FEF1F8#FF0000FFFFFFFFFF
(1786744476.344489) can0 18F005F8#7EFFFF7EFFFFFFFF
(1786744476.382785) can0 1CECFFF1#20120003FF19F000
(1786744476.383664) can0 1CEBFFF1#01000B0000068300
(1786744476.384625) can0 1CEBFFF1#02000BF3FFFE0508
(1786744476.385660) can0 1CEBFFF1#03FF082625FFFFFF
(1786744476.411663) can0 18F015F1#000045574A2044F3
(1786744476.443415) can0 18FEF1F8#FF0000FFFFFFFFFF
(1786744476.444606) can0 18F005F8#7EFFFF7EFFFFFFFF
(1786744476.483707) can0 1CECFFF1#20120003FF19F000
(1786744476.484611) can0 1CEBFFF1#01000B0000068300
(1786744476.485598) can0 1CEBFFF1#02000BF3FFFE0508
(1786744476.486613) can0 1CEBFFF1#03FF082625FFFFFF
(1786744476.512598) can0 18F015F1#000045574A1F44F3
(1786744476.543368) can0 18FEF1F8#FF0000FFFFFFFFFF
(1786744476.544585) can0 18F005F8#7EFFFF7EFFFFFFFF
(1786744476.583654) can0 1CECFFF1#20120003FF19F000
(1786744476.584621) can0 1CEBFFF1#01000B0000068300
(1786744476.585625) can0 1CEBFFF1#02000BF3FFFE0508
(1786744476.586625) can0 1CEBFFF1#03FF082625FFFFFF
(1786744476.612653) can0 18F015F1#000045574A1F44F3
(1786744476.622640) can0 18F017F1#E88FFA4A9636
(1786744476.623016) can0 18F018F1#E36AF2BD944A
(1786744476.643412) can0 18FEF1F8#FF0000FFFFFFFFFF
(1786744476.644624) can0 18F005F8#7EFFFF7EFFFFFFFF
(1786744476.683680) can0 1CECFFF1#20120003FF19F000
(1786744476.684612) can0 1CEBFFF1#01000B0000068300
(1786744476.685602) can0 1CEBFFF1#02000BF3FFFE0508
(1786744476.686616) can0 1CEBFFF1#03FF082625FFFFFF
(1786744476.712855) can0 18F015F1#000045564A1F44F3
(1786744476.743357) can0 18FEF1F8#FF0000FFFFFFFFFF
(1786744476.744488) can0 18F005F8#7EFFFF7EFFFFFFFF
(1786744476.783670) can0 1CECFFF1#20120003FF19F000
(1786744476.784617) can0 1CEBFFF1#01000B0000068300
(1786744476.785630) can0 1CEBFFF1#02000BF3FFFE0508
(1786744476.786613) can0 1CEBFFF1#03FF072265FFFFFF
(1786744476.812612) can0 18F015F1#000045564A1F44F3
(1786744476.843349) can0 18FEF1F8#FF0000FFFFFFFFFF
(1786744476.844485) can0 18F005F8#7EFFFF7EFFFFFFFF
(1786744476.883760) can0 1CECFFF1#20120003FF19F000
(1786744476.884624) can0 1CEBFFF1#01000B0000068300
(1786744476.885662) can0 1CEBFFF1#02000BF3FFFE0508
(1786744476.886735) can0 1CEBFFF1#03FF072265FFFFFF
(1786744476.912671) can0 18F015F1#000045564A1F44F3
(1786744476.943348) can0 18FEF1F8#FF0000FFFFFFFFFF
(1786744476.944473) can0 18F005F8#7EFFFF7EFFFFFFFF
(1786744476.983619) can0 1CECFFF1#20120003FF19F000
(1786744476.984611) can0 1CEBFFF1#01000B0000068300
(1786744476.985603) can0 1CEBFFF1#02000BF3FFFE0508
(1786744476.986612) can0 1CEBFFF1#03FF072265FFFFFF
(1786744477.012598) can0 18F015F1#000045564A1F44F3
(1786744477.043406) can0 18FEF1F8#FF0000FFFFFFFFFF
(1786744477.044625) can0 18F005F8#7EFFFF7EFFFFFFFF
(1786744477.083649) can0 1CECFFF1#20120003FF19F000
(1786744477.084627) can0 1CEBFFF1#01000B0000068300
(1786744477.085607) can0 1CEBFFF1#02000BF3FFFE0508
(1786744477.086614) can0 1CEBFFF1#03FF072265FFFFFF
(1786744477.113607) can0 18F015F1#000045564A1F44F3
(1786744477.143341) can0 18FEF1F8#FF0000FFFFFFFFFF
(1786744477.144467) can0 18F005F8#7EFFFF7EFFFFFFFF
(1786744477.183632) can0 1CECFFF1#20120003FF19F000
(1786744477.184615) can0 1CEBFFF1#01000B0000068300
(1786744477.185605) can0 1CEBFFF1#02000BF3FFFE0508
(1786744477.186627) can0 1CEBFFF1#03FF072265FFFFFF
(1786744477.212612) can0 18F015F1#000045564A1F44F3
(1786744477.243328) can0 18FEF1F8#FF0000FFFFFFFFFF
(1786744477.244473) can0 18F005F8#7EFFFF7EFFFFFFFF
(1786744477.284678) can0 1CECFFF1#20120003FF19F000
(1786744477.285618) can0 1CEBFFF1#01000B0000068300
(1786744477.286617) can0 1CEBFFF1#02000BF3FFFE0508
(1786744477.287635) can0 1CEBFFF1#03FF072265FFFFFF
(1786744477.313618) can0 18F015F1#000045564A1F44F3
(1786744477.343343) can0 18FEF1F8#FF0000FFFFFFFFFF
(1786744477.344497) can0 18F005F8#7EFFFF7EFFFFFFFF
(1786744477.384779) can0 1CECFFF1#20120003FF19F000
(1786744477.385633) can0 1CEBFFF1#01000B0000068300
(1786744477.386642) can0 1CEBFFF1#02000BF3FFFE0508
(1786744477.387628) can0 1CEBFFF1#03FF072265FFFFFF
(1786744477.413682) can0 18F015F1#000045564A1F44F3
(1786744477.443414) can0 18FEF1F8#FF0000FFFFFFFFFF
(1786744477.444596) can0 18F005F8#7EFFFF7EFFFFFFFF
(1786744477.484785) can0 1CECFFF1#20120003FF19F000
(1786744477.485633) can0 1CEBFFF1#01000B0000068300
(1786744477.486628) can0 1CEBFFF1#02000BF3FFFE0508
(1786744477.487608) can0 1CEBFFF1#03FF072265FFFFFF
(1786744477.513625) can0 18F015F1#000045564A1F44F3
(1786744477.543347) can0 18FEF1F8#FF0000FFFFFFFFFF
(1786744477.544521) can0 18F005F8#7EFFFF7EFFFFFFFF
(1786744477.584625) can0 1CECFFF1#20120003FF19F000
(1786744477.585620) can0 1CEBFFF1#01000B0000068300
(1786744477.586619) can0 1CEBFFF1#02000BF3FFFE0508
(1786744477.587619) can0 1CEBFFF1#03FF072265FFFFFF
(1786744477.614607) can0 18F015F1#000045564A1F44F3
(1786744477.623531) can0 18F017F1#E88FFA4A9636
(1786744477.623985) can0 18F018F1#E36AF2BD944A
(1786744477.643441) can0 18FEF1F8#FF0000FFFFFFFFFF
(1786744477.644646) can0 18F005F8#7EFFFF7EFFFFFFFF
(1786744477.684669) can0 1CECFFF1#20120003FF19F000
(1786744477.685619) can0 1CEBFFF1#01000B0000068300
(1786744477.686612) can0 1CEBFFF1#02000BF3FFFE0508
(1786744477.687611) can0 1CEBFFF1#03FF072265FFFFFF
(1786744477.713848) can0 18F015F1#000045564A1F44F3
(1786744477.743375) can0 18FEF1F8#FF0000FFFFFFFFFF
(1786744477.744530) can0 18F005F8#7EFFFF7EFFFFFFFF
(1786744477.784678) can0 1CECFFF1#20120003FF19F000
(1786744477.785621) can0 1CEBFFF1#01000B0000068300
(1786744477.786615) can0 1CEBFFF1#02000BF3FFFE0508
(1786744477.787617) can0 1CEBFFF1#03FF072265FFFFFF
(1786744477.813613) can0 18F015F1#000045564A1F44F3
(1786744477.843499) can0 18FEF1F8#FF0000FFFFFFFFFF
(1786744477.844804) can0 18F005F8#7EFFFF7EFFFFFFFF
(1786744477.884753) can0 1CECFFF1#20120003FF19F000
(1786744477.885632) can0 1CEBFFF1#01000B0000068300
(1786744477.886670) can0 1CEBFFF1#02000BF3FFFE0508
(1786744477.887704) can0 1CEBFFF1#03FF072265FFFFFF
(1786744477.913740) can0 18F015F1#000045564A1F44F3
(1786744477.943351) can0 18FEF1F8#FF0000FFFFFFFFFF
(1786744477.944511) can0 18F005F8#7EFFFF7EFFFFFFFF
(1786744477.984652) can0 1CECFFF1#20120003FF19F000
(1786744477.985624) can0 1CEBFFF1#01000B0000068300
(1786744477.986622) can0 1CEBFFF1#02000BF3FFFE0508
(1786744477.987623) can0 1CEBFFF1#03FF072265FFFFFF
(1786744478.013697) can0 18F015F1#000045564A1F44F4
(1786744478.043363) can0 18FEF1F8#FF0000FFFFFFFFFF
(1786744478.045514) can0 18F005F8#7EFFFF7EFFFFFFFF
(1786744478.085676) can0 1CECFFF1#20120003FF19F000
(1786744478.086638) can0 1CEBFFF1#01000B0000068300
(1786744478.087618) can0 1CEBFFF1#02000BF3FFFE0508
(1786744478.088622) can0 1CEBFFF1#03FF072265FFFFFF
(1786744478.114617) can0 18F015F1#000045564A1F44F4
(1786744478.143356) can0 18FEF1F8#FF0000FFFFFFFFFF
(1786744478.144552) can0 18F005F8#7EFFFF7EFFFFFFFF
(1786744478.186552) can0 1CECFFF1#20120003FF19F000
(1786744478.187063) can0 1CEBFFF1#01000B0000068300
(1786744478.187629) can0 1CEBFFF1#02000BF3FFFE0508
(1786744478.188701) can0 1CEBFFF1#03FF072265FFFFFF
(1786744478.215367) can0 18F015F1#000045564A1F44F3
(1786744478.243602) can0 18FEF1F8#FF0000FFFFFFFFFF
(1786744478.244790) can0 18F005F8#7EFFFF7EFFFFFFFF
(1786744478.285665) can0 1CECFFF1#20120003FF19F000
(1786744478.286630) can0 1CEBFFF1#01000B0000068300
(1786744478.287612) can0 1CEBFFF1#02000BF3FFFE0508
(1786744478.288614) can0 1CEBFFF1#03FF072265FFFFFF
(1786744478.314620) can0 18F015F1#000045564A1F44F3
(1786744478.343346) can0 18FEF1F8#FF0000FFFFFFFFFF
(1786744478.344528) can0 18F005F8#7EFFFF7EFFFFFFFF
(1786744478.385734) can0 1CECFFF1#20120003FF19F000
(1786744478.386809) can0 1CEBFFF1#01000B0000068300
(1786744478.387633) can0 1CEBFFF1#02000BF3FFFE0508
(1786744478.388634) can0 1CEBFFF1#03FF072265FFFFFF
(1786744478.418564) can0 18F015F1#000045564A1F44F4
(1786744478.443456) can0 18FEF1F8#FF0000FFFFFFFFFF
(1786744478.444676) can0 18F005F8#7EFFFF7EFFFFFFFF
(1786744478.485780) can0 1CECFFF1#20120003FF19F000
(1786744478.486633) can0 1CEBFFF1#01000B0000068300
(1786744478.487615) can0 1CEBFFF1#02000BF3FFFE0508
(1786744478.488616) can0 1CEBFFF1#03FF072265FFFFFF
(1786744478.514626) can0 18F015F1#000045564A1F44F3
(1786744478.543353) can0 18FEF1F8#FF0000FFFFFFFFFF
(1786744478.544502) can0 18F005F8#7EFFFF7EFFFFFFFF
(1786744478.585640) can0 1CECFFF1#20120003FF19F000
(1786744478.586644) can0 1CEBFFF1#01000B0000068300
(1786744478.587632) can0 1CEBFFF1#02000BF3FFFE0508
(1786744478.588635) can0 1CEBFFF1#03FF072265FFFFFF
(1786744478.615636) can0 18F015F1#000045564A1F44F3
(1786744478.624535) can0 18F017F1#E6E7FA4A9655
(1786744478.625003) can0 18F018F1#E552F4109446
(1786744478.643418) can0 18FEF1F8#FF0000FFFFFFFFFF
(1786744478.644612) can0 18F005F8#7EFFFF7EFFFFFFFF
(1786744478.685690) can0 1CECFFF1#20120003FF19F000
(1786744478.686688) can0 1CEBFFF1#01000B0000068300
(1786744478.687630) can0 1CEBFFF1#02000BF3FFFE0508
(1786744478.688628) can0 1CEBFFF1#03FF072265FFFFFF
(1786744478.714682) can0 18F015F1#000045564A1F44F4
(1786744478.743543) can0 18FEF1F8#FF0000FFFFFFFFFF
(1786744478.744748) can0 18F005F8#7EFFFF7EFFFFFFFF
(1786744478.785934) can0 1CECFFF1#20120003FF19F000
(1786744478.786630) can0 1CEBFFF1#01000B0000068300
(1786744478.787622) can0 1CEBFFF1#02000BF3FFFE0508
(1786744478.788626) can0 1CEBFFF1#03FF072265FFFFFF
(1786744478.814719) can0 18F015F1#000045564A1F44F3
(1786744478.843431) can0 18FEF1F8#FF0000FFFFFFFFFF
(1786744478.844640) can0 18F005F8#7EFFFF7EFFFFFFFF
(1786744478.886754) can0 1CECFFF1#20120003FF19F000
(1786744478.887668) can0 1CEBFFF1#01000B0000068300
(1786744478.888647) can0 1CEBFFF1#02000BF3FFFE0508
(1786744478.889651) can0 1CEBFFF1#03FF06E2A4FFFFFF
(1786744478.915898) can0 18F015F1#000045554A1F44F4
(1786744478.943376) can0 18FEF1F8#FF0000FFFFFFFFFF
(1786744478.944540) can0 18F005F8#7EFFFF7EFFFFFFFF
(1786744478.986634) can0 1CECFFF1#20120003FF19F000
(1786744478.987648) can0 1CEBFFF1#01000B0000068300
(1786744478.988616) can0 1CEBFFF1#02000BF3FFFE0508
(1786744478.989619) can0 1CEBFFF1#03FF06E2A4FFFFFF
(1786744479.015609) can0 18F015F1#000045554A1F44F4
(1786744479.043322) can0 18FEF1F8#FF0000FFFFFFFFFF
(1786744479.044471) can0 18F005F8#7EFFFF7EFFFFFFFF
(1786744479.086677) can0 1CECFFF1#20120003FF19F000
(1786744479.087634) can0 1CEBFFF1#01000B0000068300
(1786744479.088626) can0 1CEBFFF1#02000BF3FFFE0508
(1786744479.089634) can0 1CEBFFF1#03FF06E2A4FFFFFF
(1786744479.116641) can0 18F015F1#000045554A1F44F4
(1786744479.143362) can0 18FEF1F8#FF0000FFFFFFFFFF
(1786744479.144544) can0 18F005F8#7EFFFF7EFFFFFFFF
(1786744479.186651) can0 1CECFFF1#20120003FF19F000
(1786744479.187632) can0 1CEBFFF1#01000B0000068300
(1786744479.188626) can0 1CEBFFF1#02000BF3FFFE0508
(1786744479.189627) can0 1CEBFFF1#03FF06E2A4FFFFFF
(1786744479.215620) can0 18F015F1#000045554A1F44F4
(1786744479.243332) can0 18FEF1F8#FF0000FFFFFFFFFF
(1786744479.244509) can0 18F005F8#7EFFFF7EFFFFFFFF
(1786744479.286751) can0 1CECFFF1#20120003FF19F000
(1786744479.287644) can0 1CEBFFF1#01000B0000068300
(1786744479.288628) can0 1CEBFFF1#02000BF3FFFE0508
(1786744479.289629) can0 1CEBFFF1#03FF06E2A4FFFFFF
(1786744479.315635) can0 18F015F1#000045554A1F44F4
(1786744479.343374) can0 18FEF1F8#FF0000FFFFFFFFFF
(1786744479.344564) can0 18F005F8#7EFFFF7EFFFFFFFF
(1786744479.386769) can0 1CECFFF1#20120003FF19F000
(1786744479.387663) can0 1CEBFFF1#01000B0000068300
(1786744479.388639) can0 1CEBFFF1#02000BF3FFFE0508
(1786744479.389631) can0 1CEBFFF1#03FF06E2A4FFFFFF
(1786744479.415647) can0 18F015F1#000045554A1F44F4
(1786744479.443425) can0 18FEF1F8#FF0000FFFFFFFFFF
(1786744479.444590) can0 18F005F8#7EFFFF7EFFFFFFFF
(1786744479.486679) can0 1CECFFF1#20120003FF19F000
(1786744479.487637) can0 1CEBFFF1#01000B0000068300
(1786744479.488620) can0 1CEBFFF1#02000BF3FFFE0508
(1786744479.489622) can0 1CEBFFF1#03FF06E2A4FFFFFF
(1786744479.515634) can0 18F015F1#000045554A1F44F4
(1786744479.543338) can0 18FEF1F8#FF0000FFFFFFFFFF
(1786744479.544487) can0 18F005F8#7EFFFF7EFFFFFFFF
(1786744479.587649) can0 1CECFFF1#20120003FF19F000
(1786744479.588643) can0 1CEBFFF1#01000B0000068300
(1786744479.589629) can0 1CEBFFF1#02000BF3FFFE0508
(1786744479.590633) can0 1CEBFFF1#03FF06E2A4FFFFFF
(1786744479.616636) can0 18F015F1#000045554A1F44F4
(1786744479.626541) can0 18F017F1#E6E7FA4A9655
(1786744479.627003) can0 18F018F1#E552F4109446
(1786744479.643404) can0 18FEF1F8#FF0000FFFFFFFFFF
(1786744479.644539) can0 18F005F8#7EFFFF7EFFFFFFFF
(1786744479.687697) can0 1CECFFF1#20120003FF19F000
(1786744479.688648) can0 1CEBFFF1#01000B0000068300
(1786744479.689631) can0 1CEBFFF1#02000BF3FFFE0508
(1786744479.690633) can0 1CEBFFF1#03FF06E2A4FFFFFF
(1786744479.717017) can0 18F015F1#000045554A1F44F4
(1786744479.743361) can0 18FEF1F8#FF0000FFFFFFFFFF
(1786744479.744523) can0 18F005F8#7EFFFF7EFFFFFFFF
(1786744479.787736) can0 1CECFFF1#20120003FF19F000
(1786744479.788643) can0 1CEBFFF1#01000B0000068300
(1786744479.789622) can0 1CEBFFF1#02000BF3FFFE0508
(1786744479.790631) can0 1CEBFFF1#03FF06E2A4FFFFFF
(1786744479.816650) can0 18F015F1#000045554A1F44F4
(1786744479.843784) can0 18FEF1F8#FF0000FFFFFFFFFF
(1786744479.845211) can0 18F005F8#7EFFFF7EFFFFFFFF
(1786744479.887704) can0 1CECFFF1#20120003FF19F000
(1786744479.888667) can0 1CEBFFF1#01000B0000068300
(1786744479.889659) can0 1CEBFFF1#02000BF3FFFE0508
(1786744479.890648) can0 1CEBFFF1#03FF06E2A4FFFFFF
(1786744479.916718) can0 18F015F1#000045554A1F44F4
(1786744479.943369) can0 18FEF1F8#FF0000FFFFFFFFFF
(1786744479.944510) can0 18F005F8#7EFFFF7EFFFFFFFF
(1786744479.987663) can0 1CECFFF1#20120003FF19F000
(1786744479.988653) can0 1CEBFFF1#01000B0000068300
(1786744479.989638) can0 1CEBFFF1#02000BF3FFFE0508
(1786744479.990643) can0 1CEBFFF1#03FF06E2A4FFFFFF
(1786744480.016724) can0 18F015F1#000045554A1F44F4
(1786744480.043369) can0 18FEF1F8#FF0000FFFFFFFFFF
(1786744480.044573) can0 18F005F8#7EFFFF7EFFFFFFFF
(1786744480.087690) can0 1CECFFF1#20120003FF19F000
(1786744480.088639) can0 1CEBFFF1#01000B0000068300
(1786744480.089623) can0 1CEBFFF1#02000BF3FFFE0508
(1786744480.090638) can0 1CEBFFF1#03FF06E2A4FFFFFF
(1786744480.117643) can0 18F015F1#000045554A1F44F4
(1786744480.143376) can0 18FEF1F8#FF0000FFFFFFFFFF
(1786744480.144566) can0 18F005F8#7EFFFF7EFFFFFFFF
(1786744480.187661) can0 1CECFFF1#20120003FF19F000
(1786744480.188641) can0 1CEBFFF1#01000B0000068300
(1786744480.189634) can0 1CEBFFF1#02000BF3FFFE0508
(1786744480.190638) can0 1CEBFFF1#03FF06E2A4FFFFFF
(1786744480.216628) can0 18F015F1#000045554A1F44F4
(1786744480.243326) can0 18FEF1F8#FF0000FFFFFFFFFF
(1786744480.244482) can0 18F005F8#7EFFFF7EFFFFFFFF
(1786744480.287805) can0 1CECFFF1#20120003FF19F000
(1786744480.288644) can0 1CEBFFF1#01000B0000068300
(1786744480.289624) can0 1CEBFFF1#02000BF3FFFE0508
(1786744480.290629) can0 1CEBFFF1#03FF06E2A4FFFFFF
(1786744480.316640) can0 18F015F1#000045554A1F44F4
(1786744480.343336) can0 18FEF1F8#FF0000FFFFFFFFFF
(1786744480.344521) can0 18F005F8#7EFFFF7EFFFFFFFF
(1786744480.388885) can0 1CECFFF1#20120003FF19F000
(1786744480.389695) can0 1CEBFFF1#01000B0000068300
(1786744480.390696) can0 1CEBFFF1#02000BF3FFFE0508
(1786744480.391681) can0 1CEBFFF1#03FF06E2A4FFFFFF
(1786744480.417845) can0 18F015F1#000045554A1F44F4
(1786744480.443433) can0 18FEF1F8#FF0000FFFFFFFFFF
(1786744480.444594) can0 18F005F8#7EFFFF7EFFFFFFFF
(1786744480.488738) can0 1CECFFF1#20120003FF19F000
(1786744480.489697) can0 1CEBFFF1#01000B0000068300
(1786744480.490643) can0 1CEBFFF1#02000BF3FFFE0508
(1786744480.491636) can0 1CEBFFF1#03FF06E2A4FFFFFF
(1786744480.518233) can0 18F015F1#000045554A2044F4
(1786744480.543488) can0 18FEF1F8#FF0000FFFFFFFFFF
(1786744480.544699) can0 18F005F8#7EFFFF7EFFFFFFFF
(1786744480.588660) can0 1CECFFF1#20120003FF19F000
(1786744480.589641) can0 1CEBFFF1#01000B0000068300
(1786744480.590627) can0 1CEBFFF1#02000BF3FFFE0508
(1786744480.591634) can0 1CEBFFF1#03FF05E3E4FFFFFF
(1786744480.617646) can0 1CEBFFF1#01000B0000068300
(1786744480.627566) can0 18F017F1#E71CFA609616
(1786744480.628020) can0 18F018F1#E527F3BF93FA
(1786744480.643400) can0 18FEF1F8#FF0000FFFFFFFFFF
(1786744480.644559) can0 18F005F8#7EFFFF7EFFFFFFFF
(1786744480.688707) can0 1CECFFF1#20120003FF19F000
(1786744480.689639) can0 1CEBFFF1#01000B0000068300
(1786744480.690630) can0 1CEBFFF1#02000BF3FFFE0508
(1786744480.691638) can0 1CEBFFF1#03FF05E3E4FFFFFF
(1786744480.717823) can0 18F015F1#000045544A1F44F4
(1786744480.743383) can0 18FEF1F8#FF0000FFFFFFFFFF
(1786744480.744580) can0 18F005F8#7EFFFF7EFFFFFFFF
(1786744480.788788) can0 1CECFFF1#20120003FF19F000
(1786744480.789654) can0 1CEBFFF1#01000B0000068300
(1786744480.790628) can0 1CEBFFF1#02000BF3FFFE0508
(1786744480.791637) can0 1CEBFFF1#03FF05E3E4FFFFFF
(1786744480.817639) can0 18F015F1#000045544A2044F4
(1786744480.843363) can0 18FEF1F8#FF0000FFFFFFFFFF
(1786744480.844537) can0 18F005F8#7EFFFF7EFFFFFFFF
(1786744480.888797) can0 1CECFFF1#20120003FF19F000
(1786744480.889650) can0 1CEBFFF1#01000B0000068300
(1786744480.890632) can0 1CEBFFF1#02000BF3FFFE0508
(1786744480.891638) can0 1CEBFFF1#03FF05E3E4FFFFFF
(1786744480.917641) can0 18F015F1#000045544A1F44F3
(1786744480.943375) can0 18FEF1F8#FF0000FFFFFFFFFF
(1786744480.944559) can0 18F005F8#7EFFFF7EFFFFFFFF
(1786744480.988670) can0 1CECFFF1#20120003FF19F000
(1786744480.989648) can0 1CEBFFF1#01000B0000068300
(1786744480.990631) can0 1CEBFFF1#02000BF3FFFE0508
(1786744480.991638) can0 1CEBFFF1#03FF05E3E4FFFFFF
(1786744481.018677) can0 18F015F1#000045544A1F44F3
(1786744481.043434) can0 18FEF1F8#FF0000FFFFFFFFFF
(1786744481.044621) can0 18F005F8#7EFFFF7EFFFFFFFF
(1786744481.088713) can0 1CECFFF1#20120003FF19F000
(1786744481.089640) can0 1CEBFFF1#01000B0000068300
(1786744481.090631) can0 1CEBFFF1#02000BF3FFFE0508
(1786744481.091637) can0 1CEBFFF1#03FF05E3E4FFFFFF
(1786744481.118672) can0 18F015F1#000045544A2044F4
(1786744481.143377) can0 18FEF1F8#FF0000FFFFFFFFFF
(1786744481.144529) can0 18F005F8#7EFFFF7EFFFFFFFF
(1786744481.189663) can0 1CECFFF1#20120003FF19F000
(1786744481.190643) can0 1CEBFFF1#01000B0000068300
(1786744481.191632) can0 1CEBFFF1#02000BF3FFFE0508
(1786744481.192641) can0 1CEBFFF1#03FF05E3E4FFFFFF
(1786744481.218645) can0 18F015F1#000045544A2044F3
(1786744481.243330) can0 18FEF1F8#FF0000FFFFFFFFFF
(1786744481.244461) can0 18F005F8#7EFFFF7EFFFFFFFF
(1786744481.289838) can0 1CECFFF1#20120003FF19F000
(1786744481.290657) can0 1CEBFFF1#01000B0000068300
(1786744481.291631) can0 1CEBFFF1#02000BF3FFFE0508
(1786744481.292638) can0 1CEBFFF1#03FF05E3E4FFFFFF
(1786744481.318654) can0 18F015F1#000045544A1F44F3
(1786744481.343341) can0 18FEF1F8#FF0000FFFFFFFFFF
(1786744481.344498) can0 18F005F8#7EFFFF7EFFFFFFFF
(1786744481.389811) can0 1CECFFF1#20120003FF19F000
(1786744481.390660) can0 1CEBFFF1#01000B0000068300
(1786744481.391634) can0 1CEBFFF1#02000BF3FFFE0508
(1786744481.392642) can0 1CEBFFF1#03FF05E3E4FFFFFF
(1786744481.418736) can0 18F015F1#000045544A2044F4
(1786744481.443421) can0 18FEF1F8#FF0000FFFFFFFFFF
(1786744481.444593) can0 18F005F8#7EFFFF7EFFFFFFFF
(1786744481.489757) can0 1CECFFF1#20120003FF19F000
(1786744481.490658) can0 1CEBFFF1#01000B0000068300
(1786744481.491635) can0 1CEBFFF1#02000BF3FFFE0508
(1786744481.492642) can0 1CEBFFF1#03FF05E3E4FFFFFF
(1786744481.518645) can0 18F015F1#000045544A2044F3
(1786744481.543330) can0 18FEF1F8#FF0000FFFFFFFFFF
(1786744481.544479) can0 18F005F8#7EFFFF7EFFFFFFFF
(1786744481.589654) can0 1CECFFF1#20120003FF19F000
(1786744481.590655) can0 1CEBFFF1#01000B0000068300
(1786744481.591644) can0 1CEBFFF1#02000BF3FFFE0508
(1786744481.592651) can0 1CEBFFF1#03FF05E3E4FFFFFF
(1786744481.619650) can0 18F015F1#000045544A2044F3
(1786744481.628562) can0 18F017F1#E71CFA609616
(1786744481.629036) can0 18F018F1#E527F3BF93FA
(1786744481.643416) can0 18FEF1F8#FF0000FFFFFFFFFF
(1786744481.644589) can0 18F005F8#7EFFFF7EFFFFFFFF
(1786744481.689692) can0 1CECFFF1#20120003FF19F000
(1786744481.690648) can0 1CEBFFF1#01000B0000068300
(1786744481.691636) can0 1CEBFFF1#02000BF3FFFE0508
(1786744481.692644) can0 1CEBFFF1#03FF05E3E4FFFFFF
(1786744481.718772) can0 18F015F1#000045544A2044F3
(1786744481.743505) can0 18FEF1F8#FF0000FFFFFFFFFF
(1786744481.744650) can0 18F005F8#7EFFFF7EFFFFFFFF
(1786744481.790791) can0 1CECFFF1#20120003FF19F000
(1786744481.791663) can0 1CEBFFF1#01000B0000068300
(1786744481.792637) can0 1CEBFFF1#02000BF3FFFE0508
(1786744481.793644) can0 1CEBFFF1#03FF05E3E4FFFFFF
(1786744481.819660) can0 18F015F1#000045544A2044F3
(1786744481.843454) can0 18FEF1F8#FF0000FFFFFFFFFF
(1786744481.844748) can0 18F005F8#7EFFFF7EFFFFFFFF
(1786744481.890788) can0 1CECFFF1#20120003FF19F000
(1786744481.891746) can0 1CEBFFF1#01000B0000068300
(1786744481.892705) can0 1CEBFFF1#02000BF3FFFE0508
(1786744481.893977) can0 1CEBFFF1#03FF05E3E4FFFFFF
(1786744481.919673) can0 18F015F1#000045544A2044F4
(1786744481.943370) can0 18FEF1F8#FF0000FFFFFFFFFF
(1786744481.944547) can0 18F005F8#7EFFFF7EFFFFFFFF
(1786744481.990659) can0 1CECFFF1#20120003FF19F000
(1786744481.991657) can0 1CEBFFF1#01000B0000068300
(1786744481.992647) can0 1CEBFFF1#02000BF3FFFE0508
(1786744481.993652) can0 1CEBFFF1#03FF05E3E4FFFFFF
(1786744482.019704) can0 18F015F1#000045544A2044F4
(1786744482.043364) can0 18FEF1F8#FF0000FFFFFFFFFF
(1786744482.044499) can0 18F005F8#7EFFFF7EFFFFFFFF
(1786744482.090706) can0 1CECFFF1#20120003FF19F000
(1786744482.091649) can0 1CEBFFF1#01000B0000068300
(1786744482.092646) can0 1CEBFFF1#02000BF3FFFE0508
(1786744482.093650) can0 1CEBFFF1#03FF05E3E4FFFFFF
(1786744482.119656) can0 18F015F1#000045534A2044F3
(1786744482.143361) can0 18FEF1F8#FF0000FFFFFFFFFF
(1786744482.144541) can0 18F005F8#7EFFFF7EFFFFFFFF
(1786744482.190674) can0 1CECFFF1#20120003FF19F000
(1786744482.191661) can0 1CEBFFF1#01000B0000068300
(1786744482.192647) can0 1CEBFFF1#02000BF3FFFE0508
(1786744482.193655) can0 1CEBFFF1#03FF05E3E4FFFFFF
(1786744482.219655) can0 18F015F1#000045544A2044F4
(1786744482.243330) can0 18FEF1F8#FF0000FFFFFFFFFF
(1786744482.244507) can0 18F005F8#7EFFFF7EFFFFFFFF
(1786744482.290707) can0 1CECFFF1#20120003FF19F000
(1786744482.291654) can0 1CEBFFF1#01000B0000068300
(1786744482.292638) can0 1CEBFFF1#02000BF3FFFE0508
(1786744482.293647) can0 1CEBFFF1#03FF05E3E4FFFFFF
(1786744482.319640) can0 18F015F1#000045534A2044F3
(1786744482.343331) can0 18FEF1F8#FF0000FFFFFFFFFF
(1786744482.344543) can0 18F005F8#7EFFFF7EFFFFFFFF
(1786744482.390901) can0 1CECFFF1#20120003FF19F000
(1786744482.391677) can0 1CEBFFF1#01000B0000068300
(1786744482.392682) can0 1CEBFFF1#02000BF3FFFE0508
(1786744482.393694) can0 1CEBFFF1#03FF042325FFFFFF
(1786744482.419770) can0 18F015F1#000045534A2044F3
(1786744482.443414) can0 18FEF1F8#FF0000FFFFFFFFFF
(1786744482.444581) can0 18F005F8#7EFFFF7EFFFFFFFF
(1786744482.490717) can0 1CECFFF1#20120003FF19F000
(1786744482.493056) can0 1CEBFFF1#01000B0000068300
(1786744482.493303) can0 1CEBFFF1#02000BF3FFFE0508
(1786744482.493665) can0 1CEBFFF1#03FF042325FFFFFF
(1786744482.519647) can0 18F015F1#000045534A2044F4
(1786744482.543337) can0 18FEF1F8#FF0000FFFFFFFFFF
(1786744482.544486) can0 18F005F8#7EFFFF7EFFFFFFFF
(1786744482.591656) can0 1CECFFF1#20120003FF19F000
(1786744482.592648) can0 1CEBFFF1#01000B0000068300
(1786744482.593640) can0 1CEBFFF1#02000BF3FFFE0508
(1786744482.594643) can0 1CEBFFF1#03FF042325FFFFFF
(1786744482.620661) can0 18F015F1#000045534A2044F4
(1786744482.630560) can0 18F017F1#E75FFA1695FE
(1786744482.631026) can0 18F018F1#E4D0F360948A
(1786744482.643475) can0 18FEF1F8#FF0000FFFFFFFFFF
(1786744482.644626) can0 18F005F8#7EFFFF7EFFFFFFFF
(1786744482.691708) can0 1CECFFF1#20120003FF19F000
(1786744482.692658) can0 1CEBFFF1#01000B0000068300
(1786744482.693645) can0 1CEBFFF1#02000BF3FFFE0508
(1786744482.694646) can0 1CEBFFF1#03FF042325FFFFFF
(1786744482.720868) can0 18F015F1#000045534A2044F4
(1786744482.743503) can0 18FEF1F8#FF0000FFFFFFFFFF
(1786744482.744652) can0 18F005F8#7EFFFF7EFFFFFFFF
(1786744482.791709) can0 1CECFFF1#20120003FF19F000
(1786744482.792689) can0 1CEBFFF1#01000B0000068300
(1786744482.793792) can0 1CEBFFF1#02000BF3FFFE0508
(1786744482.794675) can0 1CEBFFF1#03FF042325FFFFFF
(1786744482.820718) can0 18F015F1#000045534A2044F4
(1786744482.843658) can0 18FEF1F8#FF0000FFFFFFFFFF
(1786744482.845086) can0 18F005F8#7EFFFF7EFFFFFFFF
(1786744482.891794) can0 1CECFFF1#20120003FF19F000
(1786744482.892726) can0 1CEBFFF1#01000B0000068300
(1786744482.896319) can0 1CEBFFF1#02000BF3FFFE0508
(1786744482.896514) can0 1CEBFFF1#03FF042325FFFFFF
(1786744482.920650) can0 18F015F1#000045534A2044F4
(1786744482.943349) can0 18FEF1F8#FF0000FFFFFFFFFF
(1786744482.944484) can0 18F005F8#7EFFFF7EFFFFFFFF
(1786744482.991665) can0 1CECFFF1#20120003FF19F000
(1786744482.992663) can0 1CEBFFF1#01000B0000068300
(1786744482.993652) can0 1CEBFFF1#02000BF3FFFE0508
(1786744482.994656) can0 1CEBFFF1#03FF042325FFFFFF
(1786744483.020642) can0 18F015F1#000045534A2044F3
(1786744483.043318) can0 18FEF1F8#FF0000FFFFFFFFFF
(1786744483.044471) can0 18F005F8#7EFFFF7EFFFFFFFF
(1786744483.091707) can0 1CECFFF1#20120003FF19F000
(1786744483.092664) can0 1CEBFFF1#01000B0000068300
(1786744483.093649) can0 1CEBFFF1#02000BF3FFFE0508
(1786744483.094658) can0 1CEBFFF1#03FF042325FFFFFF
(1786744483.121651) can0 18F015F1#000045534A2044F4
(1786744483.143394) can0 18FEF1F8#FF0000FFFFFFFFFF
(1786744483.144583) can0 18F005F8#7EFFFF7EFFFFFFFF
(1786744483.191709) can0 1CECFFF1#20120003FF19F000
(1786744483.192662) can0 1CEBFFF1#01000B0000068300
(1786744483.193649) can0 1CEBFFF1#02000BF3FFFE0508
(1786744483.194654) can0 1CEBFFF1#03FF042325FFFFFF
(1786744483.220684) can0 18F015F1#000045534A2044F4
(1786744483.243436) can0 18FEF1F8#FF0000FFFFFFFFFF
(1786744483.244642) can0 18F005F8#7EFFFF7EFFFFFFFF
(1786744483.291720) can0 1CECFFF1#20120003FF19F000
(1786744483.292661) can0 1CEBFFF1#01000B0000068300
(1786744483.293648) can0 1CEBFFF1#02000BF3FFFE0508
(1786744483.294653) can0 1CEBFFF1#03FF042325FFFFFF
(1786744483.320741) can0 18F015F1#000045534A2044F3
(1786744483.343533) can0 18FEF1F8#FF0000FFFFFFFFFF
(1786744483.344752) can0 18F005F8#7EFFFF7EFFFFFFFF
(1786744483.392832) can0 1CECFFF1#20120003FF19F000
(1786744483.393676) can0 1CEBFFF1#01000B0000068300
(1786744483.394652) can0 1CEBFFF1#02000BF3FFFE0508
(1786744483.395674) can0 1CEBFFF1#03FF042325FFFFFF
(1786744483.421666) can0 18F015F1#000045534A2044F4
(1786744483.443437) can0 18FEF1F8#FF0000FFFFFFFFFF
(1786744483.444611) can0 18F005F8#7EFFFF7EFFFFFFFF
(1786744483.492709) can0 1CECFFF1#20120003FF19F000
(1786744483.493659) can0 1CEBFFF1#01000B0000068300
(1786744483.494647) can0 1CEBFFF1#02000BF3FFFE0508
(1786744483.495653) can0 1CEBFFF1#03FF042325FFFFFF
(1786744483.521653) can0 18F015F1#000045534A2044F4
(1786744483.543368) can0 18FEF1F8#FF0000FFFFFFFFFF
(1786744483.544528) can0 18F005F8#7EFFFF7EFFFFFFFF
(1786744483.592673) can0 1CECFFF1#20120003FF19F000
(1786744483.593662) can0 1CEBFFF1#01000B0000068300
(1786744483.594654) can0 1CEBFFF1#02000BF3FFFE0508
(1786744483.595669) can0 1CEBFFF1#03FF042325FFFFFF
(1786744483.622655) can0 18F015F1#000045534A2044F3
(1786744483.631575) can0 18F017F1#E75FFA1695FE
(1786744483.632046) can0 18F018F1#E4D0F360948A
(1786744483.643380) can0 18FEF1F8#FF0000FFFFFFFFFF
(1786744483.644524) can0 18F005F8#7EFFFF7EFFFFFFFF
(1786744483.692727) can0 1CECFFF1#20120003FF19F000
(1786744483.693670) can0 1CEBFFF1#01000B0000068300
(1786744483.694661) can0 1CEBFFF1#02000BF3FFFE0508
(1786744483.695703) can0 1CEBFFF1#03FF042325FFFFFF
(1786744483.721731) can0 18F015F1#000045534A2044F4
(1786744483.743376) can0 18FEF1F8#FF0000FFFFFFFFFF
(1786744483.744550) can0 18F005F8#7EFFFF7EFFFFFFFF
(1786744483.792714) can0 1CECFFF1#20120003FF19F000
(1786744483.793661) can0 1CEBFFF1#01000B0000068300
(1786744483.794649) can0 1CEBFFF1#02000BF3FFFE0508
(1786744483.795652) can0 1CEBFFF1#03FF042325FFFFFF
(1786744483.821659) can0 18F015F1#000045534A2044F4
(1786744483.843859) can0 18FEF1F8#FF0000FFFFFFFFFF
(1786744483.845208) can0 18F005F8#7EFFFF7EFFFFFFFF
(1786744483.892916) can0 1CECFFF1#20120003FF19F000
(1786744483.893701) can0 1CEBFFF1#01000B0000068300
(1786744483.894671) can0 1CEBFFF1#02000BF3FFFE0508
(1786744483.895697) can0 1CEBFFF1#03FF042325FFFFFF
(1786744483.921890) can0 18F015F1#000045524A2044F4
(1786744483.943599) can0 18FEF1F8#FF0000FFFFFFFFFF
(1786744483.944888) can0 18F005F8#7EFFFF7EFFFFFFFF
(1786744483.992708) can0 1CECFFF1#20120003FF19F000
(1786744483.993668) can0 1CEBFFF1#01000B0000068300
(1786744483.994655) can0 1CEBFFF1#02000BF3FFFE0508
(1786744483.995659) can0 1CEBFFF1#03FF03E164FFFFFF
(1786744484.021689) can0 18F015F1#000045534A2044F4
(1786744484.043358) can0 18FEF1F8#FF0000FFFFFFFFFF
(1786744484.044509) can0 18F005F8#7EFFFF7EFFFFFFFF
(1786744484.092719) can0 1CECFFF1#20120003FF19F000
(1786744484.093668) can0 1CEBFFF1#01000B0000068300
(1786744484.094651) can0 1CEBFFF1#02000BF3FFFE0508
(1786744484.095776) can0 1CEBFFF1#03FF03E164FFFFFF
(1786744484.122652) can0 18F015F1#000045534A2044F4
(1786744484.143352) can0 18FEF1F8#FF0000FFFFFFFFFF
(1786744484.144523) can0 18F005F8#7EFFFF7EFFFFFFFF
(1786744484.193682) can0 1CECFFF1#20120003FF19F000
(1786744484.194665) can0 1CEBFFF1#01000B0000068300
(1786744484.195656) can0 1CEBFFF1#02000BF3FFFE0508
(1786744484.196665) can0 1CEBFFF1#03FF03E164FFFFFF
(1786744484.222658) can0 18F015F1#000045524A2044F3
(1786744484.243326) can0 18FEF1F8#FF0000FFFFFFFFFF
(1786744484.244482) can0 18F005F8#7EFFFF7EFFFFFFFF
(1786744484.293841) can0 1CECFFF1#20120003FF19F000
(1786744484.294673) can0 1CEBFFF1#01000B0000068300
(1786744484.295654) can0 1CEBFFF1#02000BF3FFFE0508
(1786744484.296677) can0 1CEBFFF1#03FF03E164FFFFFF
(1786744484.322667) can0 18F015F1#000045524A2044F3
(1786744484.343356) can0 18FEF1F8#FF0000FFFFFFFFFF
(1786744484.344547) can0 18F005F8#7EFFFF7EFFFFFFFF
(1786744484.393807) can0 1CECFFF1#20120003FF19F000
(1786744484.394706) can0 1CEBFFF1#01000B0000068300
(1786744484.395655) can0 1CEBFFF1#02000BF3FFFE0508
(1786744484.396666) can0 1CEBFFF1#03FF03E164FFFFFF
(1786744484.422673) can0 18F015F1#000045524A2044F4
(1786744484.443423) can0 18FEF1F8#FF0000FFFFFFFFFF
(1786744484.444583) can0 18F005F8#7EFFFF7EFFFFFFFF
(1786744484.493728) can0 1CECFFF1#20120003FF19F000
(1786744484.494684) can0 1CEBFFF1#01000B0000068300
(1786744484.495668) can0 1CEBFFF1#02000BF3FFFE0508
(1786744484.496678) can0 1CEBFFF1#03FF03E164FFFFFF
(1786744484.522666) can0 18F015F1#000045524A2044F3
(1786744484.543355) can0 18FEF1F8#FF0000FFFFFFFFFF
(1786744484.544519) can0 18F005F8#7EFFFF7EFFFFFFFF
(1786744484.593673) can0 1CECFFF1#20120003FF19F000
(1786744484.594674) can0 1CEBFFF1#01000B0000068300
(1786744484.595673) can0 1CEBFFF1#02000BF3FFFE0508
(1786744484.596677) can0 1CEBFFF1#03FF03E164FFFFFF
(1786744484.623677) can0 18F015F1#000045524A2044F3
(1786744484.632578) can0 18F017F1#E765FA63963E
(1786744484.633042) can0 18F018F1#E4DCF421943C
(1786744484.643409) can0 18FEF1F8#FF0000FFFFFFFFFF
(1786744484.644564) can0 18F005F8#7EFFFF7EFFFFFFFF
(1786744484.693742) can0 1CECFFF1#20120003FF19F000
(1786744484.694688) can0 1CEBFFF1#01000B0000068300
(1786744484.695672) can0 1CEBFFF1#02000BF3FFFE0508
(1786744484.696728) can0 1CEBFFF1#03FF03E164FFFFFF
(1786744484.722817) can0 18F015F1#000045524A2044F3
(1786744484.743373) can0 18FEF1F8#FF0000FFFFFFFFFF
(1786744484.744568) can0 18F005F8#7EFFFF7EFFFFFFFF
(1786744484.793825) can0 1CECFFF1#20120003FF19F000
(1786744484.794684) can0 1CEBFFF1#01000B0000068300
(1786744484.795660) can0 1CEBFFF1#02000BF3FFFE0508
(1786744484.796682) can0 1CEBFFF1#03FF03E164FFFFFF
(1786744484.822666) can0 18F015F1#000045524A2044F3
(1786744484.843351) can0 18FEF1F8#FF0000FFFFFFFFFF
(1786744484.844526) can0 18F005F8#7EFFFF7EFFFFFFFF
(1786744484.894762) can0 1CECFFF1#20120003FF19F000
(1786744484.895691) can0 1CEBFFF1#01000B0000068300
(1786744484.896661) can0 1CEBFFF1#02000BF3FFFE0508
(1786744484.897664) can0 1CEBFFF1#03FF03E164FFFFFF
(1786744484.923661) can0 18F015F1#000045524A2044F3
(1786744484.943337) can0 18FEF1F8#FF0000FFFFFFFFFF
(1786744484.944487) can0 18F005F8#7EFFFF7EFFFFFFFF
(1786744484.994683) can0 1CECFFF1#20120003FF19F000
(1786744484.995678) can0 1CEBFFF1#01000B0000068300
(1786744484.996672) can0 1CEBFFF1#02000BF3FFFE0508
(1786744484.997704) can0 1CEBFFF1#03FF03E164FFFFFF
(1786744485.023657) can0 18F015F1#000045524A2044F3
(1786744485.043341) can0 18FEF1F8#FF0000FFFFFFFFFF
(1786744485.044530) can0 18F005F8#7EFFFF7EFFFFFFFF
(1786744485.094717) can0 1CECFFF1#20120003FF19F000
(1786744485.095690) can0 1CEBFFF1#01000B0000068300
(1786744485.096672) can0 1CEBFFF1#02000BF3FFFE0508
(1786744485.097667) can0 1CEBFFF1#03FF03E164FFFFFF
(1786744485.124087) can0 18F015F1#000045524A2044F3
(1786744485.144123) can0 18FEF1F8#FF0000FFFFFFFFFF
(1786744485.145278) can0 18F005F8#7EFFFF7EFFFFFFFF
(1786744485.194707) can0 1CECFFF1#20120003FF19F000
(1786744485.195674) can0 1CEBFFF1#01000B0000068300
(1786744485.196775) can0 1CEBFFF1#02000BF3FFFE0508
(1786744485.197676) can0 1CEBFFF1#03FF03E164FFFFFF
(1786744485.223667) can0 18F015F1#000045524A1F44F3
(1786744485.243337) can0 18FEF1F8#FF0000FFFFFFFFFF
(1786744485.244486) can0 18F005F8#7EFFFF7EFFFFFFFF
(1786744485.294841) can0 1CECFFF1#20120003FF19F000
(1786744485.295688) can0 1CEBFFF1#01000B0000068300
(1786744485.296668) can0 1CEBFFF1#02000BF3FFFE0508
(1786744485.297692) can0 1CEBFFF1#03FF03E164FFFFFF
(1786744485.323666) can0 18F015F1#000045524A1F44F3
(1786744485.343404) can0 18FEF1F8#FF0000FFFFFFFFFF
(1786744485.344609) can0 18F005F8#7EFFFF7EFFFFFFFF
(1786744485.394942) can0 1CECFFF1#20120003FF19F000
(1786744485.395687) can0 1CEBFFF1#01000B0000068300
(1786744485.396791) can0 1CEBFFF1#02000BF3FFFE0508
(1786744485.397721) can0 1CEBFFF1#03FF03E164FFFFFF
(1786744485.423814) can0 18F015F1#000045524A1F44F3
(1786744485.444358) can0 18FEF1F8#FF0000FFFFFFFFFF
(1786744485.445626) can0 18F005F8#7EFFFF7EFFFFFFFF
(1786744485.494888) can0 1CECFFF1#20120003FF19F000
(1786744485.495676) can0 1CEBFFF1#01000B0000068300
(1786744485.496666) can0 1CEBFFF1#02000BF3FFFE0508
(1786744485.497671) can0 1CEBFFF1#03FF03E164FFFFFF
(1786744485.523691) can0 18F015F1#000045524A1F44F3
(1786744485.543532) can0 18FEF1F8#FF0000FFFFFFFFFF
(1786744485.544745) can0 18F005F8#7EFFFF7EFFFFFFFF
(1786744485.594699) can0 1CECFFF1#20120003FF19F000
(1786744485.595674) can0 1CEBFFF1#01000B0000068300
(1786744485.596665) can0 1CEBFFF1#02000BF3FFFE0508
(1786744485.597684) can0 1CEBFFF1#03FF03E164FFFFFF
(1786744485.624685) can0 18F015F1#000045524A1F44F3
(1786744485.634620) can0 18F017F1#E765FA63963E
(1786744485.635096) can0 18F018F1#E4DCF421943C
(1786744485.643417) can0 18FEF1F8#FF0000FFFFFFFFFF
(1786744485.644616) can0 18F005F8#7EFFFF7EFFFFFFFF
(1786744485.695745) can0 1CECFFF1#20120003FF19F000
(1786744485.696789) can0 1CEBFFF1#01000B0000068300
(1786744485.698538) can0 1CEBFFF1#02000BF3FFFE0508
(1786744485.698789) can0 1CEBFFF1#03FF03E164FFFFFF
(1786744485.724795) can0 18F015F1#000045524A2044F3
(1786744485.743445) can0 18FEF1F8#FF0000FFFFFFFFFF
(1786744485.744623) can0 18F005F8#7EFFFF7EFFFFFFFF
(1786744485.795797) can0 1CECFFF1#20120003FF19F000
(1786744485.796695) can0 1CEBFFF1#01000B0000068300
(1786744485.797676) can0 1CEBFFF1#02000BF3FFFE0508
(1786744485.798698) can0 1CEBFFF1#03FF03E164FFFFFF
(1786744485.824693) can0 18F015F1#000045524A1F44F3
(1786744485.843628) can0 18FEF1F8#FF0000FFFFFFFFFF
(1786744485.844905) can0 18F005F8#7EFFFF7EFFFFFFFF
(1786744485.895919) can0 1CECFFF1#20120003FF19F000
(1786744485.896709) can0 1CEBFFF1#01000B0000068300
(1786744485.897667) can0 1CEBFFF1#02000BF3FFFE0508
(1786744485.898672) can0 1CEBFFF1#03FF03E164FFFFFF
(1786744485.924681) can0 18F015F1#000045524A1F44F3
(1786744485.943358) can0 18FEF1F8#FF0000FFFFFFFFFF
(1786744485.944505) can0 18F005F8#7EFFFF7EFFFFFFFF
(1786744485.995691) can0 1CECFFF1#20120003FF19F000
(1786744485.996688) can0 1CEBFFF1#01000B0000068300
(1786744485.997680) can0 1CEBFFF1#02000BF3FFFE0508
(1786744485.998681) can0 1CEBFFF1#03FF0221A5FFFFFF
(1786744486.024728) can0 18F015F1#000045514A1F44F3
(1786744486.043358) can0 18FEF1F8#FF0000FFFFFFFFFF
(1786744486.044543) can0 18F005F8#7EFFFF7EFFFFFFFF
(1786744486.095736) can0 1CECFFF1#20120003FF19F000
(1786744486.096680) can0 1CEBFFF1#01000B0000068300
(1786744486.097672) can0 1CEBFFF1#02000BF3FFFE0508
(1786744486.098680) can0 1CEBFFF1#03FF0221A5FFFFFF
(1786744486.125677) can0 18F015F1#000045514A1F44F3
(1786744486.143361) can0 18FEF1F8#FF0000FFFFFFFFFF
(1786744486.144538) can0 18F005F8#7EFFFF7EFFFFFFFF
(1786744486.195725) can0 1CECFFF1#20120003FF19F000
(1786744486.196703) can0 1CEBFFF1#01000B0000068300
(1786744486.197669) can0 1CEBFFF1#02000BF3FFFE0508
(1786744486.198675) can0 1CEBFFF1#03FF0221A5FFFFFF
(1786744486.224686) can0 18F015F1#000045514A1F44F3
(1786744486.243347) can0 18FEF1F8#FF0000FFFFFFFFFF
(1786744486.244522) can0 18F005F8#7EFFFF7EFFFFFFFF
(1786744486.296792) can0 1CECFFF1#20120003FF19F000
(1786744486.297688) can0 1CEBFFF1#01000B0000068300
(1786744486.298693) can0 1CEBFFF1#02000BF3FFFE0508
(1786744486.299677) can0 1CEBFFF1#03FF0221A5FFFFFF
(1786744486.325679) can0 18F015F1#000045514A1F44F3
(1786744486.343348) can0 18FEF1F8#FF0000FFFFFFFFFF
(1786744486.344532) can0 18F005F8#7EFFFF7EFFFFFFFF
(1786744486.398846) can0 1CECFFF1#20120003FF19F000
(1786744486.399643) can0 1CEBFFF1#02000BF3FFFE0508
(1786744486.399947) can0 1CEBFFF1#01000B0000068300
(1786744486.400580) can0 1CEBFFF1#03FF0221A5FFFFFF
(1786744486.425689) can0 18F015F1#000045514A1F44F3
(1786744486.443410) can0 18FEF1F8#FF0000FFFFFFFFFF
(1786744486.444582) can0 18F005F8#7EFFFF7EFFFFFFFF
(1786744486.497053) can0 1CECFFF1#20120003FF19F000
(1786744486.497687) can0 1CEBFFF1#01000B0000068300
(1786744486.498672) can0 1CEBFFF1#02000BF3FFFE0508
(1786744486.499679) can0 1CEBFFF1#03FF0221A5FFFFFF
(1786744486.525677) can0 18F015F1#000045514A1F44F3
(1786744486.543354) can0 18FEF1F8#FF0000FFFFFFFFFF
(1786744486.544516) can0 18F005F8#7EFFFF7EFFFFFFFF
(1786744486.596691) can0 1CECFFF1#20120003FF19F000
(1786744486.597687) can0 1CEBFFF1#01000B0000068300
(1786744486.598679) can0 1CEBFFF1#02000BF3FFFE0508
(1786744486.599687) can0 1CEBFFF1#03FF0221A5FFFFFF
(1786744486.625679) can0 18F015F1#000045514A1F44F3
(1786744486.635661) can0 18F017F1#E78AFA879644
(1786744486.636115) can0 18F018F1#E48CF31D9430
(1786744486.643424) can0 18FEF1F8#FF0000FFFFFFFFFF
(1786744486.644659) can0 18F005F8#7EFFFF7EFFFFFFFF
(1786744486.696730) can0 1CECFFF1#20120003FF19F000
(1786744486.697683) can0 1CEBFFF1#01000B0000068300
(1786744486.698669) can0 1CEBFFF1#02000BF3FFFE0508
(1786744486.699697) can0 1CEBFFF1#03FF0221A5FFFFFF
(1786744486.726083) can0 18F015F1#000045514A1F44F3
(1786744486.743465) can0 18FEF1F8#FF0000FFFFFFFFFF
(1786744486.744627) can0 18F005F8#7EFFFF7EFFFFFFFF
(1786744486.796851) can0 1CECFFF1#20120003FF19F000
(1786744486.797695) can0 1CEBFFF1#01000B0000068300
(1786744486.798675) can0 1CEBFFF1#02000BF3FFFE0508
(1786744486.799731) can0 1CEBFFF1#03FF0221A5FFFFFF
(1786744486.825695) can0 18F015F1#000045514A1F44F3
(1786744486.843348) can0 18FEF1F8#FF0000FFFFFFFFFF
(1786744486.844503) can0 18F005F8#7EFFFF7EFFFFFFFF
(1786744486.896955) can0 1CECFFF1#20120003FF19F000
(1786744486.897701) can0 1CEBFFF1#01000B0000068300
(1786744486.898674) can0 1CEBFFF1#02000BF3FFFE0508
(1786744486.899741) can0 1CEBFFF1#03FF0221A5FFFFFF
(1786744486.925681) can0 18F015F1#000045514A1F44F3
(1786744486.943334) can0 18FEF1F8#FF0000FFFFFFFFFF
(1786744486.944482) can0 18F005F8#7EFFFF7EFFFFFFFF
(1786744486.996697) can0 1CECFFF1#20120003FF19F000
(1786744486.997686) can0 1CEBFFF1#01000B0000068300
(1786744486.998707) can0 1CEBFFF1#02000BF3FFFE0508
(1786744486.999686) can0 1CEBFFF1#03FF0221A5FFFFFF
(1786744487.025688) can0 18F015F1#000045514A1F44F3
(1786744487.043330) can0 18FEF1F8#FF0000FFFFFFFFFF
(1786744487.044446) can0 18F005F8#7EFFFF7EFFFFFFFF
(1786744487.097747) can0 1CECFFF1#20120003FF19F000
(1786744487.098691) can0 1CEBFFF1#01000B0000068300
(1786744487.099681) can0 1CEBFFF1#02000BF3FFFE0508
(1786744487.100695) can0 1CEBFFF1#03FF0221A5FFFFFF
(1786744487.126687) can0 18F015F1#000045514A2044F3
(1786744487.143367) can0 18FEF1F8#FF0000FFFFFFFFFF
(1786744487.144561) can0 18F005F8#7EFFFF7EFFFFFFFF
(1786744487.197708) can0 1CECFFF1#20120003FF19F000
(1786744487.198695) can0 1CEBFFF1#01000B0000068300
(1786744487.199687) can0 1CEBFFF1#02000BF3FFFE0508
(1786744487.200689) can0 1CEBFFF1#03FF0221A5FFFFFF
(1786744487.226677) can0 18F015F1#000045514A2044F3
(1786744487.243332) can0 18FEF1F8#FF0000FFFFFFFFFF
(1786744487.244453) can0 18F005F8#7EFFFF7EFFFFFFFF
(1786744487.297853) can0 1CECFFF1#20120003FF19F000
(1786744487.298705) can0 1CEBFFF1#01000B0000068300
(1786744487.299674) can0 1CEBFFF1#02000BF3FFFE0508
(1786744487.300694) can0 1CEBFFF1#03FF0221A5FFFFFF
(1786744487.326688) can0 18F015F1#000045514A1F44F3
(1786744487.343349) can0 18FEF1F8#FF0000FFFFFFFFFF
(1786744487.344511) can0 18F005F8#7EFFFF7EFFFFFFFF
(1786744487.397898) can0 1CECFFF1#20120003FF19F000
(1786744487.398794) can0 1CEBFFF1#01000B0000068300
(1786744487.399722) can0 1CEBFFF1#02000BF3FFFE0508
(1786744487.400756) can0 1CEBFFF1#03FF0221A5FFFFFF
(1786744487.426871) can0 18F015F1#000045514A1F44F3
(1786744487.444179) can0 18FEF1F8#FF0000FFFFFFFFFF
(1786744487.447333) can0 18F005F8#7EFFFF7EFFFFFFFF
(1786744487.497893) can0 1CECFFF1#20120003FF19F000
(1786744487.498787) can0 1CEBFFF1#01000B0000068300
(1786744487.499778) can0 1CEBFFF1#02000BF3FFFE0508
(1786744487.500718) can0 1CEBFFF1#03FF0221A5FFFFFF
(1786744487.526694) can0 18F015F1#000045514A2044F3
(1786744487.543379) can0 18FEF1F8#FF0000FFFFFFFFFF
(1786744487.544551) can0 18F005F8#7EFFFF7EFFFFFFFF
(1786744487.597756) can0 1CECFFF1#20120003FF19F000
(1786744487.598696) can0 1CEBFFF1#01000B0000068300
(1786744487.599677) can0 1CEBFFF1#02000BF3FFFE0508
(1786744487.600689) can0 1CEBFFF1#03FF0221A5FFFFFF
(1786744487.627725) can0 18F015F1#000045514A1F44F3
(1786744487.636640) can0 18F017F1#E78AFA879644
(1786744487.637051) can0 18F018F1#E48CF31D9430
(1786744487.644833) can0 18FEF1F8#FF0000FFFFFFFFFF
(1786744487.646119) can0 18F005F8#7EFFFF7EFFFFFFFF
(1786744487.697844) can0 1CECFFF1#20120003FF19F000
(1786744487.698734) can0 1CEBFFF1#01000B0000068300
(1786744487.699719) can0 1CEBFFF1#02000BF3FFFE0508
(1786744487.700699) can0 1CEBFFF1#03FF0120E5FFFFFF
(1786744487.726725) can0 18F015F1#000045504A2044F3
(1786744487.743488) can0 18FEF1F8#FF0000FFFFFFFFFF
(1786744487.744675) can0 18F005F8#7EFFFF7EFFFFFFFF
(1786744487.798745) can0 1CECFFF1#20120003FF19F000
(1786744487.799692) can0 1CEBFFF1#01000B0000068300
(1786744487.800679) can0 1CEBFFF1#02000BF3FFFE0508
(1786744487.801687) can0 1CEBFFF1#03FF0120E5FFFFFF
(1786744487.826743) can0 18F015F1#000045504A2044F3
(1786744487.843779) can0 18FEF1F8#FF0000FFFFFFFFFF
(1786744487.845171) can0 18F005F8#7EFFFF7EFFFFFFFF
(1786744487.899070) can0 1CECFFF1#20120003FF19F000
(1786744487.899722) can0 1CEBFFF1#01000B0000068300
(1786744487.900765) can0 1CEBFFF1#02000BF3FFFE0508
(1786744487.901726) can0 1CEBFFF1#03FF0120E5FFFFFF
(1786744487.927709) can0 18F015F1#000045504A1F44F4
(1786744487.943366) can0 18FEF1F8#FF0000FFFFFFFFFF
(1786744487.944527) can0 18F005F8#7EFFFF7EFFFFFFFF
(1786744487.998731) can0 1CECFFF1#20120003FF19F000
(1786744487.999698) can0 1CEBFFF1#01000B0000068300
(1786744488.000686) can0 1CEBFFF1#02000BF3FFFE0508
(1786744488.001747) can0 1CEBFFF1#03FF0120E5FFFFFF
(1786744488.027731) can0 18F015F1#000045504A1F44F3
(1786744488.043368) can0 18FEF1F8#FF0000FFFFFFFFFF
(1786744488.044549) can0 18F005F8#7EFFFF7EFFFFFFFF
(1786744488.098748) can0 1CECFFF1#20120003FF19F000
(1786744488.099695) can0 1CEBFFF1#01000B0000068300
(1786744488.100677) can0 1CEBFFF1#02000BF3FFFE0508
(1786744488.101685) can0 1CEBFFF1#03FF0120E5FFFFFF
(1786744488.128736) can0 18F015F1#000045504A2044F3
(1786744488.143388) can0 18FEF1F8#FF0000FFFFFFFFFF
(1786744488.144578) can0 18F005F8#7EFFFF7EFFFFFFFF
(1786744488.198726) can0 1CECFFF1#20120003FF19F000
(1786744488.199695) can0 1CEBFFF1#01000B0000068300
(1786744488.200682) can0 1CEBFFF1#02000BF3FFFE0508
(1786744488.201705) can0 1CEBFFF1#03FF0120E5FFFFFF
(1786744488.227692) can0 18F015F1#000045504A2044F3
(1786744488.243380) can0 18FEF1F8#FF0000FFFFFFFFFF
(1786744488.244596) can0 18F005F8#7EFFFF7EFFFFFFFF
(1786744488.298765) can0 1CECFFF1#20120003FF19F000
(1786744488.299691) can0 1CEBFFF1#01000B0000068300
(1786744488.300682) can0 1CEBFFF1#02000BF3FFFE0508
(1786744488.301687) can0 1CEBFFF1#03FF0120E5FFFFFF
(1786744488.327734) can0 18F015F1#000045504A2044F4
(1786744488.343390) can0 18FEF1F8#FF0000FFFFFFFFFF
(1786744488.344573) can0 18F005F8#7EFFFF7EFFFFFFFF
(1786744488.398811) can0 1CECFFF1#20120003FF19F000
(1786744488.399779) can0 1CEBFFF1#01000B0000068300
(1786744488.400805) can0 1CEBFFF1#02000BF3FFFE0508
(1786744488.401734) can0 1CEBFFF1#03FF0120E5FFFFFF
(1786744488.427718) can0 18F015F1#000045504A2044F3
(1786744488.443431) can0 18FEF1F8#FF0000FFFFFFFFFF
(1786744488.444591) can0 18F005F8#7EFFFF7EFFFFFFFF
(1786744488.498751) can0 1CECFFF1#20120003FF19F000
(1786744488.499735) can0 1CEBFFF1#01000B0000068300
(1786744488.500697) can0 1CEBFFF1#02000BF3FFFE0508
(1786744488.501701) can0 1CEBFFF1#03FF0120E5FFFFFF
(1786744488.527725) can0 18F015F1#000045504A1F44F3
(1786744488.543389) can0 18FEF1F8#FF0000FFFFFFFFFF
(1786744488.544547) can0 18F005F8#7EFFFF7EFFFFFFFF
(1786744488.598723) can0 1CECFFF1#20120003FF19F000
(1786744488.599790) can0 1CEBFFF1#01000B0000068300
(1786744488.600685) can0 1CEBFFF1#02000BF3FFFE0508
(1786744488.601692) can0 1CEBFFF1#03FF0120E5FFFFFF
(1786744488.628708) can0 18F015F1#000045504A2044F3
(1786744488.638647) can0 18F017F1#E84BFA719690
(1786744488.639056) can0 18F018F1#E42DF33693C3
(1786744488.643885) can0 18FEF1F8#FF0000FFFFFFFFFF
(1786744488.645027) can0 18F005F8#7EFFFF7EFFFFFFFF
(1786744488.699757) can0 1CECFFF1#20120003FF19F000
(1786744488.700724) can0 1CEBFFF1#01000B0000068300
(1786744488.701713) can0 1CEBFFF1#02000BF3FFFE0508
(1786744488.702720) can0 1CEBFFF1#03FF0120E5FFFFFF
(1786744488.728763) can0 18F015F1#000045504A1F44F3
(1786744488.743396) can0 18FEF1F8#FF0000FFFFFFFFFF
(1786744488.744517) can0 18F005F8#7EFFFF7EFFFFFFFF
(1786744488.799757) can0 1CECFFF1#20120003FF19F000
(1786744488.800705) can0 1CEBFFF1#01000B0000068300
(1786744488.801691) can0 1CEBFFF1#02000BF3FFFE0508
(1786744488.802703) can0 1CEBFFF1#03FF0120E5FFFFFF
(1786744488.828708) can0 18F015F1#000045504A1F44F4
(1786744488.843445) can0 18FEF1F8#FF0000FFFFFFFFFF
(1786744488.844586) can0 18F005F8#7EFFFF7EFFFFFFFF
(1786744488.899814) can0 1CECFFF1#20120003FF19F000
(1786744488.900704) can0 1CEBFFF1#01000B0000068300
(1786744488.901720) can0 1CEBFFF1#02000BF3FFFE0508
(1786744488.902699) can0 1CEBFFF1#03FF0120E5FFFFFF
(1786744488.928708) can0 18F015F1#0000454F4A1F44F4
(1786744488.943363) can0 18FEF1F8#FF0000FFFFFFFFFF
(1786744488.944481) can0 18F005F8#7EFFFF7EFFFFFFFF
(1786744488.999727) can0 1CECFFF1#20120003FF19F000
(1786744489.000703) can0 1CEBFFF1#01000B0000068300
(1786744489.001712) can0 1CEBFFF1#02000BF3FFFE0508
(1786744489.002696) can0 1CEBFFF1#03FF00E024FFFFFF
(1786744489.028707) can0 18F015F1#0000454F4A2044F3
(1786744489.043361) can0 18FEF1F8#FF0000FFFFFFFFFF
(1786744489.044519) can0 18F005F8#7EFFFF7EFFFFFFFF
(1786744489.099746) can0 1CECFFF1#20120003FF19F000
(1786744489.100697) can0 1CEBFFF1#01000B0000068300
(1786744489.101703) can0 1CEBFFF1#02000BF3FFFE0508
(1786744489.102738) can0 1CEBFFF1#03FF00E024FFFFFF
(1786744489.129703) can0 18F015F1#000045504A1F44F4
(1786744489.143370) can0 18FEF1F8#FF0000FFFFFFFFFF
(1786744489.144517) can0 18F005F8#7EFFFF7EFFFFFFFF
(1786744489.199735) can0 1CECFFF1#20120003FF19F000
(1786744489.200702) can0 1CEBFFF1#01000B0000068300
(1786744489.201687) can0 1CEBFFF1#02000BF3FFFE0508
(1786744489.202715) can0 1CEBFFF1#03FF00E024FFFFFF
(1786744489.228728) can0 18F015F1#0000454F4A1F44F4
(1786744489.243354) can0 18FEF1F8#FF0000FFFFFFFFFF
(1786744489.244481) can0 18F005F8#7EFFFF7EFFFFFFFF
(1786744489.299755) can0 1CECFFF1#20120003FF19F000
(1786744489.300707) can0 1CEBFFF1#01000B0000068300
(1786744489.301714) can0 1CEBFFF1#02000BF3FFFE0508
(1786744489.302714) can0 1CEBFFF1#03FF00E024FFFFFF
(1786744489.328715) can0 18F015F1#0000454F4A2044F3
(1786744489.343357) can0 18FEF1F8#FF0000FFFFFFFFFF
(1786744489.344496) can0 18F005F8#7EFFFF7EFFFFFFFF
(1786744489.400812) can0 1CECFFF1#20120003FF19F000
(1786744489.401712) can0 1CEBFFF1#01000B0000068300
(1786744489.402696) can0 1CEBFFF1#02000BF3FFFE0508
(1786744489.403764) can0 1CEBFFF1#03FF00E024FFFFFF
(1786744489.429781) can0 18F015F1#0000454F4A1F44F4
(1786744489.443510) can0 18FEF1F8#FF0000FFFFFFFFFF
(1786744489.444712) can0 18F005F8#7EFFFF7EFFFFFFFF
(1786744489.500756) can0 1CECFFF1#20120003FF19F000
(1786744489.501740) can0 1CEBFFF1#01000B0000068300
(1786744489.502721) can0 1CEBFFF1#02000BF3FFFE0508
(1786744489.503720) can0 1CEBFFF1#03FF00E024FFFFFF
(1786744489.529737) can0 18F015F1#0000454F4A2044F4
(1786744489.543357) can0 18FEF1F8#FF0000FFFFFFFFFF
(1786744489.544501) can0 18F005F8#7EFFFF7EFFFFFFFF
(1786744489.600720) can0 1CECFFF1#20120003FF19F000
(1786744489.601706) can0 1CEBFFF1#01000B0000068300
(1786744489.602698) can0 1CEBFFF1#02000BF3FFFE0508
(1786744489.603705) can0 1CEBFFF1#03FF00E024FFFFFF
(1786744489.629742) can0 18F015F1#0000454F4A2044F3
(1786744489.639687) can0 18F017F1#E84BFA719690
(1786744489.640050) can0 18F018F1#E42DF33693C3
(1786744489.643357) can0 18FEF1F8#FF0000FFFFFFFFFF
(1786744489.644462) can0 18F005F8#7EFFFF7EFFFFFFFF
(1786744489.700749) can0 1CECFFF1#20120003FF19F000
(1786744489.701795) can0 1CEBFFF1#01000B0000068300
(1786744489.702713) can0 1CEBFFF1#02000BF3FFFE0508
(1786744489.703700) can0 1CEBFFF1#03FF00E024FFFFFF
(1786744489.730025) can0 18F015F1#0000454F4A1F44F3
(1786744489.743654) can0 18FEF1F8#FF0000FFFFFFFFFF
(1786744489.745020) can0 18F005F8#7EFFFF7EFFFFFFFF
(1786744489.800754) can0 1CECFFF1#20120003FF19F000
(1786744489.801706) can0 1CEBFFF1#01000B0000068300
(1786744489.802694) can0 1CEBFFF1#02000BF3FFFE0508
(1786744489.803700) can0 1CEBFFF1#03FF00E024FFFFFF
(1786744489.829796) can0 18F015F1#0000454F4A2044F4
(1786744489.843561) can0 18FEF1F8#FF0000FFFFFFFFFF
(1786744489.844743) can0 18F005F8#7EFFFF7EFFFFFFFF
(1786744489.900847) can0 1CECFFF1#20120003FF19F000
(1786744489.901773) can0 1CEBFFF1#01000B0000068300
(1786744489.902749) can0 1CEBFFF1#02000BF3FFFE0508
(1786744489.903801) can0 1CEBFFF1#03FF00E024FFFFFF
(1786744489.929794) can0 18F015F1#0000454F4A2044F3
(1786744489.943416) can0 18FEF1F8#FF0000FFFFFFFFFF
(1786744489.944615) can0 18F005F8#7EFFFF7EFFFFFFFF
(1786744490.000823) can0 1CECFFF1#20120003FF19F000
(1786744490.001803) can0 1CEBFFF1#01000B0000068300
(1786744490.002726) can0 1CEBFFF1#02000BF3FFFE0508
(1786744490.003760) can0 1CEBFFF1#03FF00E024FFFFFF
(1786744490.029742) can0 18F015F1#0000454F4A2044F4
(1786744490.043388) can0 18FEF1F8#FF0000FFFFFFFFFF
(1786744490.044506) can0 18F005F8#7EFFFF7EFFFFFFFF
(1786744490.100762) can0 1CECFFF1#20120003FF19F000
(1786744490.101711) can0 1CEBFFF1#01000B0000068300
(1786744490.102696) can0 1CEBFFF1#02000BF3FFFE0508
(1786744490.103705) can0 1CEBFFF1#03FF00E024FFFFFF
(1786744490.130693) can0 18F015F1#0000454F4A2044F4
(1786744490.143376) can0 18FEF1F8#FF0000FFFFFFFFFF
(1786744490.144507) can0 18F005F8#7EFFFF7EFFFFFFFF
(1786744490.201749) can0 1CECFFF1#20120003FF19F000
(1786744490.202709) can0 1CEBFFF1#01000B0000068300
(1786744490.203710) can0 1CEBFFF1#02000BF3FFFE0508
(1786744490.204703) can0 1CEBFFF1#03FF00E024FFFFFF
(1786744490.230695) can0 18F015F1#0000454F4A2044F4
(1786744490.243357) can0 18FEF1F8#FF0000FFFFFFFFFF
(1786744490.244482) can0 18F005F8#7EFFFF7EFFFFFFFF
(1786744490.301861) can0 1CECFFF1#20120003FF19F000
(1786744490.302713) can0 1CEBFFF1#01000B0000068300
(1786744490.303695) can0 1CEBFFF1#02000BF3FFFE0508
(1786744490.304702) can0 1CEBFFF1#03FF00E024FFFFFF
(1786744490.330701) can0 18F015F1#0000454F4A2044F4
(1786744490.343346) can0 18FEF1F8#FF0000FFFFFFFFFF
(1786744490.344465) can0 18F005F8#7EFFFF7EFFFFFFFF
(1786744490.402021) can0 1CECFFF1#20120003FF19F000
(1786744490.402753) can0 1CEBFFF1#01000B0000068300
(1786744490.403810) can0 1CEBFFF1#02000BF3FFFE0508
(1786744490.404804) can0 1CEBFFF1#03FF00E024FFFFFF
(1786744490.430721) can0 18F015F1#0000454F4A2044F4
(1786744490.445011) can0 18FEF1F8#FF0000FFFFFFFFFF
(1786744490.446479) can0 18F005F8#7EFFFF7EFFFFFFFF
(1786744490.501757) can0 1CECFFF1#20120003FF19F000
(1786744490.502710) can0 1CEBFFF1#01000B0000068300
(1786744490.503699) can0 1CEBFFF1#02000BF3FFFE0508
(1786744490.504706) can0 1CEBFFF1#03FF00E024FFFFFF
(1786744490.530716) can0 18F015F1#0000454F4A2044F4
(1786744490.543378) can0 18FEF1F8#FF0000FFFFFFFFFF
(1786744490.544538) can0 18F005F8#7EFFFF7EFFFFFFFF
(1786744490.601758) can0 1CECFFF1#20120003FF19F000
(1786744490.602713) can0 1CEBFFF1#01000B0000068300
(1786744490.603699) can0 1CEBFFF1#02000BF3FFFE0508
(1786744490.604707) can0 1CEBFFF1#03FF00E024FFFFFF
(1786744490.631700) can0 18F015F1#0000454F4A2044F4
(1786744490.640656) can0 18F017F1#E83AFA959653
(1786744490.641103) can0 18F018F1#E43AF3ED942A
(1786744490.643476) can0 18FEF1F8#FF0000FFFFFFFFFF
(1786744490.644653) can0 18F005F8#7EFFFF7EFFFFFFFF
(1786744490.701778) can0 1CECFFF1#20120003FF19F000
(1786744490.702714) can0 1CEBFFF1#01000B0000068300
(1786744490.703704) can0 1CEBFFF1#02000BF3FFFE0508
(1786744490.704707) can0 1CEBFFF1#03FF00E024FFFFFF
(1786744490.730740) can0 18F015F1#0000454F4A2044F4
(1786744490.743419) can0 18FEF1F8#FF0000FFFFFFFFFF
(1786744490.744565) can0 18F005F8#7EFFFF7EFFFFFFFF
(1786744490.801863) can0 1CECFFF1#20120003FF19F000
(1786744490.802725) can0 1CEBFFF1#01000B0000068300
(1786744490.803700) can0 1CEBFFF1#02000BF3FFFE0508
(1786744490.804710) can0 1CEBFFF1#03FF00E024FFFFFF
(1786744490.830715) can0 18F015F1#0000454E4A2044F4
(1786744490.843425) can0 18FEF1F8#FF0000FFFFFFFFFF
(1786744490.844570) can0 18F005F8#7EFFFF7EFFFFFFFF
(1786744490.901811) can0 1CECFFF1#20120003FF19F000
(1786744490.902722) can0 1CEBFFF1#01000B0000068300
(1786744490.903701) can0 1CEBFFF1#02000BF3FFFE0508
(1786744490.904705) can0 1CEBFFF1#03FEFF3065FFFFFF
(1786744490.930703) can0 18F015F1#0000454E4A2044F4
(1786744490.943372) can0 18FEF1F8#FF0000FFFFFFFFFF
(1786744490.944493) can0 18F005F8#7EFFFF7EFFFFFFFF
(1786744491.002752) can0 1CECFFF1#20120003FF19F000
(1786744491.003727) can0 1CEBFFF1#01000B0000068300
(1786744491.004714) can0 1CEBFFF1#02000BF3FFFE0508
(1786744491.005718) can0 1CEBFFF1#03FF00E024FFFFFF
(1786744491.031723) can0 18F015F1#0000454E4A2044F4
(1786744491.043448) can0 18FEF1F8#FF0000FFFFFFFFFF
(1786744491.044586) can0 18F005F8#7EFFFF7EFFFFFFFF
(1786744491.102774) can0 1CECFFF1#20120003FF19F000
(1786744491.103717) can0 1CEBFFF1#01000B0000068300
(1786744491.104722) can0 1CEBFFF1#02000BF3FFFE0508
(1786744491.105709) can0 1CEBFFF1#03FEFF3065FFFFFF
(1786744491.131717) can0 18F015F1#0000454E4A2044F4
(1786744491.143418) can0 18FEF1F8#FF0000FFFFFFFFFF
(1786744491.144634) can0 18F005F8#7EFFFF7EFFFFFFFF
(1786744491.202755) can0 1CECFFF1#20120003FF19F000
(1786744491.203713) can0 1CEBFFF1#01000B0000068300
(1786744491.204703) can0 1CEBFFF1#02000BF3FFFE0508
(1786744491.205708) can0 1CEBFFF1#03FEFF3065FFFFFF
(1786744491.231708) can0 18F015F1#0000454E4A2044F4
(1786744491.243350) can0 18FEF1F8#FF0000FFFFFFFFFF
(1786744491.244489) can0 18F005F8#7EFFFF7EFFFFFFFF
(1786744491.302859) can0 1CECFFF1#20120003FF19F000
(1786744491.303730) can0 1CEBFFF1#01000B0000068300
(1786744491.304790) can0 1CEBFFF1#02000BF3FFFE0508
(1786744491.305742) can0 1CEBFFF1#03FEFF3065FFFFFF
(1786744491.331719) can0 18F015F1#0000454E4A2044F4
(1786744491.343345) can0 18FEF1F8#FF0000FFFFFFFFFF
(1786744491.344497) can0 18F005F8#7EFFFF7EFFFFFFFF
(1786744491.402846) can0 1CECFFF1#20120003FF19F000
(1786744491.403732) can0 1CEBFFF1#01000B0000068300
(1786744491.404708) can0 1CEBFFF1#02000BF3FFFE0508
(1786744491.405712) can0 1CEBFFF1#03FEFF3065FFFFFF
(1786744491.431720) can0 18F015F1#0000454E4A2044F4
(1786744491.443412) can0 18FEF1F8#FF0000FFFFFFFFFF
(1786744491.444712) can0 18F005F8#7EFFFF7EFFFFFFFF
(1786744491.502788) can0 1CECFFF1#20120003FF19F000
(1786744491.503719) can0 1CEBFFF1#01000B0000068300
(1786744491.504705) can0 1CEBFFF1#02000BF3FFFE0508
(1786744491.505708) can0 1CEBFFF1#03FEFF3065FFFFFF
(1786744491.531711) can0 18F015F1#0000454E4A2044F4
(1786744491.543362) can0 18FEF1F8#FF0000FFFFFFFFFF
(1786744491.544520) can0 18F005F8#7EFFFF7EFFFFFFFF
(1786744491.603750) can0 1CECFFF1#20120003FF19F000
(1786744491.604715) can0 1CEBFFF1#01000B0000068300
(1786744491.605704) can0 1CEBFFF1#02000BF3FFFE0508
(1786744491.606722) can0 1CEBFFF1#03FEFF3065FFFFFF
(1786744491.632706) can0 18F015F1#0000454E4A2044F4
(1786744491.641673) can0 18F017F1#E83AFA959653
(1786744491.642108) can0 18F018F1#E43AF3ED942A
(1786744491.643427) can0 18FEF1F8#FF0000FFFFFFFFFF
(1786744491.644572) can0 18F005F8#7EFFFF7EFFFFFFFF
(1786744491.703773) can0 1CECFFF1#20120003FF19F000
(1786744491.704719) can0 1CEBFFF1#01000B0000068300
(1786744491.705704) can0 1CEBFFF1#02000BF3FFFE0508
(1786744491.706713) can0 1CEBFFF1#03FEFF3065FFFFFF
(1786744491.732843) can0 18F015F1#0000454E4A2044F4
(1786744491.743432) can0 18FEF1F8#FF0000FFFFFFFFFF
(1786744491.744601) can0 18F005F8#7EFFFF7EFFFFFFFF
(1786744491.803774) can0 1CECFFF1#20120003FF19F000
(1786744491.804718) can0 1CEBFFF1#01000B0000068300
(1786744491.805707) can0 1CEBFFF1#02000BF3FFFE0508
(1786744491.806736) can0 1CEBFFF1#03FEFF3065FFFFFF
(1786744491.836257) can0 18F015F1#0000454E4A2044F4
(1786744491.843756) can0 18FEF1F8#FF0000FFFFFFFFFF
(1786744491.845102) can0 18F005F8#7EFFFF7EFFFFFFFF
(1786744491.903825) can0 1CECFFF1#20120003FF19F000
(1786744491.904729) can0 1CEBFFF1#01000B0000068300
(1786744491.905711) can0 1CEBFFF1#02000BF3FFFE0508
(1786744491.906714) can0 1CEBFFF1#03FEFF3065FFFFFF
(1786744491.932735) can0 18F015F1#0000454E4A2044F4
(1786744491.943361) can0 18FEF1F8#FF0000FFFFFFFFFF
(1786744491.944532) can0 18F005F8#7EFFFF7EFFFFFFFF
(1786744492.003934) can0 1CECFFF1#20120003FF19F000
(1786744492.004858) can0 1CEBFFF1#01000B0000068300
(1786744492.007307) can0 1CEBFFF1#02000BF3FFFE0508
(1786744492.007488) can0 1CEBFFF1#03FEFF3065FFFFFF
(1786744492.033176) can0 18F015F1#0000454E4A2044F3
(1786744492.043507) can0 18FEF1F8#FF0000FFFFFFFFFF
(1786744492.044748) can0 18F005F8#7EFFFF7EFFFFFFFF
(1786744492.103793) can0 1CECFFF1#20120003FF19F000
(1786744492.104776) can0 1CEBFFF1#01000B0000068300
(1786744492.105724) can0 1CEBFFF1#02000BF3FFFE0508
(1786744492.106737) can0 1CEBFFF1#03FEFF3065FFFFFF
(1786744492.133728) can0 18F015F1#0000454E4A2044F4
(1786744492.143390) can0 18FEF1F8#FF0000FFFFFFFFFF
(1786744492.144566) can0 18F005F8#7EFFFF7EFFFFFFFF
(1786744492.203771) can0 1CECFFF1#20120003FF19F000
(1786744492.204735) can0 1CEBFFF1#01000B0000068300
(1786744492.205734) can0 1CEBFFF1#02000BF3FFFE0508
(1786744492.206734) can0 1CEBFFF1#03FEFF3065FFFFFF
(1786744492.232731) can0 18F015F1#0000454E4A2044F4
(1786744492.243367) can0 18FEF1F8#FF0000FFFFFFFFFF
(1786744492.244534) can0 18F005F8#7EFFFF7EFFFFFFFF
(1786744492.303772) can0 1CECFFF1#20120003FF19F000
(1786744492.304720) can0 1CEBFFF1#01000B0000068300
(1786744492.305711) can0 1CEBFFF1#02000BF3FFFE0508
(1786744492.306732) can0 1CEBFFF1#03FEFF3065FFFFFF
(1786744492.332727) can0 18F015F1#0000454E4A2044F3
(1786744492.343351) can0 18FEF1F8#FF0000FFFFFFFFFF
(1786744492.344534) can0 18F005F8#7EFFFF7EFFFFFFFF
(1786744492.404896) can0 1CECFFF1#20120003FF19F000
(1786744492.405734) can0 1CEBFFF1#01000B0000068300
(1786744492.406715) can0 1CEBFFF1#02000BF3FFFE0508
(1786744492.407731) can0 1CEBFFF1#03FEFF3065FFFFFF
(1786744492.432731) can0 18F015F1#0000454E4A2044F4
(1786744492.443440) can0 18FEF1F8#FF0000FFFFFFFFFF
(1786744492.444636) can0 18F005F8#7EFFFF7EFFFFFFFF
(1786744492.504770) can0 1CECFFF1#20120003FF19F000
(1786744492.505725) can0 1CEBFFF1#01000B0000068300
(1786744492.506754) can0 1CEBFFF1#02000BF3FFFE0508
(1786744492.507716) can0 1CEBFFF1#03FEFF3065FFFFFF
(1786744492.533728) can0 18F015F1#0000454E4A2044F4
(1786744492.543346) can0 18FEF1F8#FF0000FFFFFFFFFF
(1786744492.544476) can0 18F005F8#7EFFFF7EFFFFFFFF
(1786744492.604757) can0 1CECFFF1#20120003FF19F000
(1786744492.605725) can0 1CEBFFF1#01000B0000068300
(1786744492.606713) can0 1CEBFFF1#02000BF3FFFE0508
(1786744492.607712) can0 1CEBFFF1#03FEFEF0A4FFFFFF
(1786744492.634757) can0 18F015F1#0000454D4A2044F4
(1786744492.643389) can0 18FEF1F8#FF0000FFFFFFFFFF
(1786744492.644026) can0 18F017F1#E760F9E295E4
(1786744492.644381) can0 18F018F1#E42CF3049479
(1786744492.644918) can0 18F005F8#7EFFFF7EFFFFFFFF
(1786744492.704812) can0 1CECFFF1#20120003FF19F000
(1786744492.705749) can0 1CEBFFF1#01000B0000068300
(1786744492.706734) can0 1CEBFFF1#02000BF3FFFE0508
(1786744492.707748) can0 1CEBFFF1#03FEFEF0A4FFFFFF
(1786744492.733739) can0 18F015F1#0000454D4A2044F4
(1786744492.743352) can0 18FEF1F8#FF0000FFFFFFFFFF
(1786744492.744501) can0 18F005F8#7EFFFF7EFFFFFFFF
(1786744492.804766) can0 1CECFFF1#20120003FF19F000
(1786744492.805728) can0 1CEBFFF1#01000B0000068300
(1786744492.806719) can0 1CEBFFF1#02000BF3FFFE0508
(1786744492.807712) can0 1CEBFFF1#03FEFEF0A4FFFFFF
(1786744492.833870) can0 18F015F1#0000454D4A2044F4
(1786744492.843339) can0 18FEF1F8#FF0000FFFFFFFFFF
(1786744492.844499) can0 18F005F8#7EFFFF7EFFFFFFFF
(1786744492.904865) can0 1CECFFF1#20120003FF19F000
(1786744492.905738) can0 1CEBFFF1#01000B0000068300
(1786744492.906718) can0 1CEBFFF1#02000BF3FFFE0508
(1786744492.907765) can0 1CEBFFF1#03FEFEF0A4FFFFFF
(1786744492.933717) can0 18F015F1#0000454D4A2044F3
(1786744492.943351) can0 18FEF1F8#FF0000FFFFFFFFFF
(1786744492.944523) can0 18F005F8#7EFFFF7EFFFFFFFF
(1786744493.004739) can0 1CECFFF1#20120003FF19F000
(1786744493.005733) can0 1CEBFFF1#01000B0000068300
(1786744493.006722) can0 1CEBFFF1#02000BF3FFFE0508
(1786744493.007723) can0 1CEBFFF1#03FEFEF0A4FFFFFF
(1786744493.033736) can0 18F015F1#0000454D4A2044F4
(1786744493.043321) can0 18FEF1F8#FF0000FFFFFFFFFF
(1786744493.044517) can0 18F005F8#7EFFFF7EFFFFFFFF
(1786744493.104782) can0 1CECFFF1#20120003FF19F000
(1786744493.105729) can0 1CEBFFF1#01000B0000068300
(1786744493.106743) can0 1CEBFFF1#02000BF3FFFE0508
(1786744493.107721) can0 1CEBFFF1#03FEFF3065FFFFFF
(1786744493.134744) can0 18F015F1#0000454D4A2044F4
(1786744493.143381) can0 18FEF1F8#FF0000FFFFFFFFFF
(1786744493.144577) can0 18F005F8#7EFFFF7EFFFFFFFF
(1786744493.205748) can0 1CECFFF1#20120003FF19F000
(1786744493.206730) can0 1CEBFFF1#01000B0000068300
(1786744493.207715) can0 1CEBFFF1#02000BF3FFFE0508
(1786744493.208726) can0 1CEBFFF1#03FEFEF0A4FFFFFF
(1786744493.234735) can0 18F015F1#0000454D4A2044F3
(1786744493.243355) can0 18FEF1F8#FF0000FFFFFFFFFF
(1786744493.244675) can0 18F005F8#7EFFFF7EFFFFFFFF
(1786744493.305803) can0 1CECFFF1#20120003FF19F000
(1786744493.306731) can0 1CEBFFF1#01000B0000068300
(1786744493.307717) can0 1CEBFFF1#02000BF3FFFE0508
(1786744493.308725) can0 1CEBFFF1#03FEFEF0A4FFFFFF
(1786744493.334718) can0 18F015F1#0000454D4A2044F4
(1786744493.343345) can0 18FEF1F8#FF0000FFFFFFFFFF
(1786744493.344478) can0 18F005F8#7EFFFF7EFFFFFFFF
(1786744493.405811) can0 1CECFFF1#20120003FF19F000
(1786744493.406730) can0 1CEBFFF1#01000B0000068300
(1786744493.407719) can0 1CEBFFF1#02000BF3FFFE0508
(1786744493.408715) can0 1CEBFFF1#03FEFEF0A4FFFFFF
(1786744493.434710) can0 18F015F1#0000454D4A2044F3
(1786744493.443934) can0 18FEF1F8#FF0000FFFFFFFFFF
(1786744493.445273) can0 18F005F8#7EFFFF7EFFFFFFFF
(1786744493.505778) can0 1CECFFF1#20120003FF19F000
(1786744493.506803) can0 1CEBFFF1#01000B0000068300
(1786744493.507717) can0 1CEBFFF1#02000BF3FFFE0508
(1786744493.508716) can0 1CEBFFF1#03FEFEF0A4FFFFFF
(1786744493.534711) can0 18F015F1#0000454D4A2044F3
(1786744493.543357) can0 18FEF1F8#FF0000FFFFFFFFFF
(1786744493.544523) can0 18F005F8#7EFFFF7EFFFFFFFF
(1786744493.605741) can0 1CECFFF1#20120003FF19F000
(1786744493.606745) can0 1CEBFFF1#01000B0000068300
(1786744493.607722) can0 1CEBFFF1#02000BF3FFFE0508
(1786744493.608721) can0 1CEBFFF1#03FEFEF0A4FFFFFF
(1786744493.635735) can0 18F015F1#0000454D4A2044F4
(1786744493.643387) can0 18FEF1F8#FF0000FFFFFFFFFF
(1786744493.644568) can0 18F005F8#7EFFFF7EFFFFFFFF
(1786744493.645054) can0 18F017F1#E760F9E295E4
(1786744493.645524) can0 18F018F1#E42CF3049479
(1786744493.705850) can0 1CECFFF1#20120003FF19F000
(1786744493.708397) can0 1CEBFFF1#01000B0000068300
(1786744493.708656) can0 1CEBFFF1#02000BF3FFFE0508
(1786744493.708970) can0 1CEBFFF1#03FEFEF0A4FFFFFF
(1786744493.734748) can0 18F015F1#0000454D4A2044F4
(1786744493.743479) can0 18FEF1F8#FF0000FFFFFFFFFF
(1786744493.744671) can0 18F005F8#7EFFFF7EFFFFFFFF
(1786744493.805775) can0 1CECFFF1#20120003FF19F000
(1786744493.806751) can0 1CEBFFF1#01000B0000068300
(1786744493.807732) can0 1CEBFFF1#02000BF3FFFE0508
(1786744493.808727) can0 1CEBFFF1#03FEFEF0A4FFFFFF
(1786744493.834751) can0 18F015F1#0000454D4A2044F3
(1786744493.843460) can0 18FEF1F8#FF0000FFFFFFFFFF
(1786744493.844708) can0 18F005F8#7EFFFF7EFFFFFFFF
(1786744493.907013) can0 1CECFFF1#20120003FF19F000
(1786744493.907788) can0 1CEBFFF1#01000B0000068300
(1786744493.908729) can0 1CEBFFF1#02000BF3FFFE0508
(1786744493.909769) can0 1CEBFFF1#03FEFEF0A4FFFFFF
(1786744493.935728) can0 18F015F1#0000454D4A2044F4
(1786744493.943338) can0 18FEF1F8#FF0000FFFFFFFFFF
(1786744493.944489) can0 18F005F8#7EFFFF7EFFFFFFFF
(1786744494.006780) can0 1CECFFF1#20120003FF19F000
(1786744494.007734) can0 1CEBFFF1#01000B0000068300
(1786744494.008746) can0 1CEBFFF1#02000BF3FFFE0508
(1786744494.009719) can0 1CEBFFF1#03FEFEF0A4FFFFFF
(1786744494.035726) can0 18F015F1#0000454D4A2044F4
(1786744494.043347) can0 18FEF1F8#FF0000FFFFFFFFFF
(1786744494.044520) can0 18F005F8#7EFFFF7EFFFFFFFF
(1786744494.106787) can0 1CECFFF1#20120003FF19F000
(1786744494.107743) can0 1CEBFFF1#01000B0000068300
(1786744494.108739) can0 1CEBFFF1#02000BF3FFFE0508
(1786744494.109727) can0 1CEBFFF1#03FEFEF0A4FFFFFF
(1786744494.135718) can0 18F015F1#0000454D4A2044F3
(1786744494.143354) can0 18FEF1F8#FF0000FFFFFFFFFF
(1786744494.144548) can0 18F005F8#7EFFFF7EFFFFFFFF
(1786744494.206759) can0 1CECFFF1#20120003FF19F000
(1786744494.207739) can0 1CEBFFF1#01000B0000068300
(1786744494.208729) can0 1CEBFFF1#02000BF3FFFE0508
(1786744494.209730) can0 1CEBFFF1#03FEFEF0A4FFFFFF
(1786744494.235728) can0 18F015F1#0000454D4A2044F4
(1786744494.243361) can0 18FEF1F8#FF0000FFFFFFFFFF
(1786744494.244543) can0 18F005F8#7EFFFF7EFFFFFFFF
(1786744494.306843) can0 1CECFFF1#20120003FF19F000
(1786744494.307783) can0 1CEBFFF1#01000B0000068300
(1786744494.308758) can0 1CEBFFF1#02000BF3FFFE0508
(1786744494.309765) can0 1CEBFFF1#03FEFEF0A4FFFFFF
(1786744494.335924) can0 18F015F1#0000454D4A2044F4
(1786744494.345042) can0 18FEF1F8#FF0000FFFFFFFFFF
(1786744494.346477) can0 18F005F8#7EFFFF7EFFFFFFFF
(1786744494.406963) can0 1CECFFF1#20120003FF19F000
(1786744494.407765) can0 1CEBFFF1#01000B0000068300
(1786744494.408767) can0 1CEBFFF1#02000BF3FFFE0508
(1786744494.409765) can0 1CEBFFF1#03FEFEF0A4FFFFFF
(1786744494.435726) can0 18F015F1#0000454D4A2044F3
(1786744494.443436) can0 18FEF1F8#FF0000FFFFFFFFFF
(1786744494.444777) can0 18F005F8#7EFFFF7EFFFFFFFF
(1786744494.506789) can0 1CECFFF1#20120003FF19F000
(1786744494.507741) can0 1CEBFFF1#01000B0000068300
(1786744494.508728) can0 1CEBFFF1#02000BF3FFFE0508
(1786744494.509734) can0 1CEBFFF1#03FEFEF0A4FFFFFF
(1786744494.535741) can0 18F015F1#0000454D4A2044F4
(1786744494.543382) can0 18FEF1F8#FF0000FFFFFFFFFF
(1786744494.544563) can0 18F005F8#7EFFFF7EFFFFFFFF
(1786744494.606771) can0 1CECFFF1#20120003FF19F000
(1786744494.607740) can0 1CEBFFF1#01000B0000068300
(1786744494.608731) can0 1CEBFFF1#02000BF3FFFE0508
(1786744494.609747) can0 1CEBFFF1#03FEFEF0A4FFFFFF
(1786744494.614684) can0 18FF09D1#01000A00CFD4E6
(1786744494.636749) can0 18F015F1#0000454D4A2044F4
(1786744494.643453) can0 18FEF1F8#FF0000FFFFFFFFFF
(1786744494.644655) can0 18F005F8#7EFFFF7EFFFFFFFF
(1786744494.645663) can0 18F017F1#E7FEFA7D9617
(1786744494.646125) can0 18F018F1#E40CF3939494
(1786744494.707804) can0 1CECFFF1#20120003FF19F000
(1786744494.708771) can0 1CEBFFF1#01000B0000068300
(1786744494.709757) can0 1CEBFFF1#02000BF3FFFE0508
(1786744494.710771) can0 1CEBFFF1#03FEFEF0A4FFFFFF
(1786744494.736778) can0 18F015F1#0000454D4A2044F4
(1786744494.743401) can0 18FEF1F8#FF0000FFFFFFFFFF
(1786744494.744596) can0 18F005F8#7EFFFF7EFFFFFFFF
(1786744494.807804) can0 1CECFFF1#20120003FF19F000
(1786744494.808738) can0 1CEBFFF1#01000B0000068300
(1786744494.809727) can0 1CEBFFF1#02000BF3FFFE0508
(1786744494.810726) can0 1CEBFFF1#03FEFEF0A4FFFFFF
(1786744494.836735) can0 18F015F1#0000454D4A2044F4
(1786744494.843333) can0 18FEF1F8#FF0000FFFFFFFFFF
(1786744494.844488) can0 18F005F8#7EFFFF7EFFFFFFFF
(1786744494.907852) can0 1CECFFF1#20120003FF19F000
(1786744494.908754) can0 1CEBFFF1#01000B0000068300
(1786744494.909757) can0 1CEBFFF1#02000BF3FFFE0508
(1786744494.910730) can0 1CEBFFF1#03FEFEF0A4FFFFFF
(1786744494.936743) can0 18F015F1#0000454D4A2044F4
(1786744494.943349) can0 18FEF1F8#FF0000FFFFFFFFFF
(1786744494.944533) can0 18F005F8#7EFFFF7EFFFFFFFF
(1786744495.007751) can0 1CECFFF1#20120003FF19F000
(1786744495.008748) can0 1CEBFFF1#01000B0000068300
(1786744495.009736) can0 1CEBFFF1#02000BF3FFFE0508
(1786744495.010735) can0 1CEBFFF1#03FEFEF0A4FFFFFF
(1786744495.036736) can0 18F015F1#0000454D4A2044F4
(1786744495.043356) can0 18FEF1F8#FF0000FFFFFFFFFF
(1786744495.044534) can0 18F005F8#7EFFFF7EFFFFFFFF
(1786744495.107789) can0 1CECFFF1#20120003FF19F000
(1786744495.108750) can0 1CEBFFF1#01000B0000068300
(1786744495.109763) can0 1CEBFFF1#02000BF3FFFE0508
(1786744495.110728) can0 1CEBFFF1#03FEFEF0A4FFFFFF
(1786744495.137813) can0 18F015F1#0000454D4A2044F4
(1786744495.138977) can0 18FF09D1#01000B00CFD4E6
(1786744495.143359) can0 18FEF1F8#FF0000FFFFFFFFFF
(1786744495.144533) can0 18F005F8#7EFFFF7EFFFFFFFF
(1786744495.176043) can0 18F020F8#002054FD00000000
(1786744495.177185) can0 18F020F8#0100000000001F4E
(1786744495.178292) can0 18F020F8#02394FB70112D2B3
(1786744495.179409) can0 18F020F8#0333589C00001F4E
(1786744495.207757) can0 1CECFFF1#20120003FF19F000
(1786744495.208740) can0 1CEBFFF1#01000B0000068300
(1786744495.209729) can0 1CEBFFF1#02000BF3FFFE0508
(1786744495.210730) can0 1CEBFFF1#03FEFEF0A4FFFFFF
(1786744495.236728) can0 18F015F1#0000454D4A2044F4
(1786744495.243319) can0 18FEF1F8#FF0000FFFFFFFFFF
(1786744495.244490) can0 18F005F8#7EFFFF7EFFFFFFFF
(1786744495.307799) can0 1CECFFF1#20120003FF19F000
(1786744495.308739) can0 1CEBFFF1#01000B0000068300
(1786744495.309734) can0 1CEBFFF1#02000BF3FFFE0508
(1786744495.310743) can0 1CEBFFF1#03FEFEF0A4FFFFFF
(1786744495.336733) can0 18F015F1#0000454D4A2044F4
(1786744495.343381) can0 18FEF1F8#FF0000FFFFFFFFFF
(1786744495.344554) can0 18F005F8#7EFFFF7EFFFFFFFF
(1786744495.407852) can0 1CECFFF1#20120003FF19F000
(1786744495.408770) can0 1CEBFFF1#01000B0000068300
(1786744495.409826) can0 1CEBFFF1#02000BF3FFFE0508
(1786744495.410752) can0 1CEBFFF1#03FEFEF0A4FFFFFF
(1786744495.436812) can0 18F015F1#0000454D4A2044F4
(1786744495.443399) can0 18FEF1F8#FF0000FFFFFFFFFF
(1786744495.444798) can0 18F005F8#7EFFFF7EFFFFFFFF
(1786744495.508796) can0 1CECFFF1#20120003FF19F000
(1786744495.509746) can0 1CEBFFF1#01000B0000068300
(1786744495.510742) can0 1CEBFFF1#02000BF3FFFE0508
(1786744495.511753) can0 1CEBFFF1#03FEFEF0A4FFFFFF
(1786744495.537745) can0 18F015F1#0000454D4A2044F4
(1786744495.543346) can0 18FEF1F8#FF0000FFFFFFFFFF
(1786744495.544500) can0 18F005F8#7EFFFF7EFFFFFFFF
(1786744495.608756) can0 1CECFFF1#20120003FF19F000
(1786744495.609749) can0 1CEBFFF1#01000B0000068300
(1786744495.610736) can0 1CEBFFF1#02000BF3FFFE0508
(1786744495.611748) can0 1CEBFFF1#03FEFEF0A4FFFFFF
(1786744495.637752) can0 18F015F1#0000454C4A2044F4
(1786744495.643482) can0 18FEF1F8#FF0000FFFFFFFFFF
(1786744495.644772) can0 18F005F8#7EFFFF7EFFFFFFFF
(1786744495.646012) can0 18ECFFFF#20100003FF13FF00
(1786744495.647195) can0 18EBFFFF#0100330F5EFA6010
(1786744495.647846) can0 18F017F1#E7FEFA7D9617
(1786744495.648206) can0 18F018F1#E40CF3939494
(1786744495.649368) can0 18EBFFFF#02515D4400000000
(1786744495.650472) can0 18EBFFFF#03010BFFFFFFFFFF
(1786744495.676026) can0 18F020F8#00394FB70112D2B3
(1786744495.677158) can0 18F020F8#0133589C0000124C
(1786744495.678267) can0 18F020F8#02C236B70145C6B3
(1786744495.679391) can0 18F020F8#0333929D0000124C
(1786744495.680335) can0 18DEF1F8#16000B
(1786744495.708773) can0 1CECFFF1#20120003FF19F000
(1786744495.709756) can0 1CEBFFF1#01000B0000000000
(1786744495.710761) can0 1CEBFFF1#0200000000000000
(1786744495.712013) can0 1CEBFFF1#03FEFE1734FFFFFF
(1786744495.737816) can0 18F015F1#0000454D4A2044F4
(1786744495.743442) can0 18FEF1F8#FF0000FFFFFFFFFF
(1786744495.744647) can0 18F005F8#7EFFFF7EFFFFFFFF
(1786744495.808800) can0 1CECFFF1#20120003FF19F000
(1786744495.809757) can0 1CEBFFF1#01000B0000000000
(1786744495.810767) can0 1CEBFFF1#0200000000000000
(1786744495.811781) can0 1CEBFFF1#03FEFD1674FFFFFF
(1786744495.838020) can0 18F015F1#0000454C4A2044F4
(1786744495.843898) can0 18FEF1F8#FF0000FFFFFFFFFF
(1786744495.845208) can0 18F005F8#7EFFFF7EFFFFFFFF
(1786744495.909076) can0 1CECFFF1#20120003FF19F000
(1786744495.909784) can0 1CEBFFF1#01000B0000000000
(1786744495.910787) can0 1CEBFFF1#0200000000000000
(1786744495.911761) can0 1CEBFFF1#03FEFD1674FFFFFF
(1786744495.937772) can0 18F015F1#0000454C4A2044F4
(1786744495.943420) can0 18FEF1F8#FF0000FFFFFFFFFF
(1786744495.944658) can0 18F005F8#7EFFFF7EFFFFFFFF
(1786744496.008848) can0 1CECFFF1#20120003FF19F000
(1786744496.009799) can0 1CEBFFF1#01000B0000000000
(1786744496.010812) can0 1CEBFFF1#0200000000000000
(1786744496.011749) can0 1CEBFFF1#03FEFD1674FFFFFF
(1786744496.037743) can0 18F015F1#0000454C4A2044F4
(1786744496.043353) can0 18FEF1F8#FF0000FFFFFFFFFF
(1786744496.044498) can0 18F005F8#7EFFFF7EFFFFFFFF
(1786744496.108797) can0 1CECFFF1#20120003FF19F000
(1786744496.109764) can0 1CEBFFF1#01000B0000000000
(1786744496.110754) can0 1CEBFFF1#0200000000000000
(1786744496.111733) can0 1CEBFFF1#03FEFD1674FFFFFF
(1786744496.138728) can0 18F015F1#0000454C4A2044F4
(1786744496.143852) can0 18FEF1F8#FF0000FFFFFFFFFF
(1786744496.144997) can0 18F005F8#7EFFFF7EFFFFFFFF
(1786744496.146125) can0 18ECFFFF#20100003FF13FF00
(1786744496.147239) can0 18EBFFFF#0100330F5EE0AD10
(1786744496.148334) can0 18EBFFFF#0251666F00000000
(1786744496.149441) can0 18EBFFFF#03010BFFFFFFFFFF
(1786744496.209764) can0 1CECFFF1#20120003FF19F000
(1786744496.210761) can0 1CEBFFF1#01000B0000000000
(1786744496.211757) can0 1CEBFFF1#0200000000000000
(1786744496.212736) can0 1CEBFFF1#03FEFD1674FFFFFF
(1786744496.238732) can0 18F015F1#0000454C4A2044F3
(1786744496.243335) can0 18FEF1F8#FF0000FFFFFFFFFF
(1786744496.244488) can0 18F005F8#7EFFFF7EFFFFFFFF
(1786744496.309821) can0 1CECFFF1#20120003FF19F000
(1786744496.310760) can0 1CEBFFF1#01000B0000000000
(1786744496.311755) can0 1CEBFFF1#0200000000000000
(1786744496.312737) can0 1CEBFFF1#03FEFD1674FFFFFF
(1786744496.338741) can0 18F015F1#0000454C4A2044F4
(1786744496.343348) can0 18FEF1F8#FF0000FFFFFFFFFF
(1786744496.344527) can0 18F005F8#7EFFFF7EFFFFFFFF
(1786744496.409854) can0 1CECFFF1#20120003FF19F000
(1786744496.410776) can0 1CEBFFF1#01000B0000000000
(1786744496.411767) can0 1CEBFFF1#0200000000000000
(1786744496.412745) can0 1CEBFFF1#03FEFD1674FFFFFF
(1786744496.438744) can0 18F015F1#0000454C4A2044F4
(1786744496.444382) can0 18FEF1F8#FF0000FFFFFFFFFF
(1786744496.445729) can0 18F005F8#7EFFFF7EFFFFFFFF
(1786744496.509812) can0 1CECFFF1#20120003FF19F000
(1786744496.510763) can0 1CEBFFF1#01000B0000000000
(1786744496.511760) can0 1CEBFFF1#0200000000000000
(1786744496.512773) can0 1CEBFFF1#03FEFD1674FFFFFF
(1786744496.538759) can0 18F015F1#0000454C4A2044F3
(1786744496.543499) can0 18FEF1F8#FF0000FFFFFFFFFF
(1786744496.544689) can0 18F005F8#7EFFFF7EFFFFFFFF
(1786744496.609866) can0 1CECFFF1#20120003FF19F000
(1786744496.610828) can0 1CEBFFF1#01000B0000000000
(1786744496.611790) can0 1CEBFFF1#0200000000000000
(1786744496.612764) can0 1CEBFFF1#03FEFD1674FFFFFF
(1786744496.640198) can0 18F015F1#0000454C4A2044F4
(1786744496.644049) can0 18FEF1F8#FF0000FFFFFFFFFF
(1786744496.646096) can0 18F005F8#7EFFFF7EFFFFFFFF
(1786744496.649061) can0 18F017F1#E7D7FAA39678
(1786744496.656331) can0 18F018F1#E42CF3A99438
(1786744496.660078) can0 18ECFFFF#20100003FF13FF00
(1786744496.662362) can0 18EBFFFF#0100330F5EE0AD10
(1786744496.664022) can0 18EBFFFF#0251666F00000000
(1786744496.665392) can0 18EBFFFF#03010BFFFFFFFFFF
(1786744496.709914) can0 1CECFFF1#20120003FF19F000
(1786744496.710785) can0 1CEBFFF1#01000B0000000000
(1786744496.711778) can0 1CEBFFF1#0200000000000000
(1786744496.712778) can0 1CEBFFF1#03FEFD1674FFFFFF
(1786744496.738812) can0 18F015F1#0000454C4A2044F4
(1786744496.743651) can0 18FEF1F8#FF0000FFFFFFFFFF
(1786744496.744844) can0 18F005F8#7EFFFF7EFFFFFFFF
(1786744496.810023) can0 1CECFFF1#20120003FF19F000
(1786744496.810771) can0 1CEBFFF1#01000B0000000000
(1786744496.811761) can0 1CEBFFF1#0200000000000000
(1786744496.812747) can0 1CEBFFF1#03FEFCD6B5FFFFFF
(1786744496.838879) can0 18F015F1#0000454B4A2044F4
(1786744496.843352) can0 18FEF1F8#FF0000FFFFFFFFFF
(1786744496.844513) can0 18F005F8#7EFFFF7EFFFFFFFF
(1786744496.909817) can0 1CECFFF1#20120003FF19F000
(1786744496.910773) can0 1CEBFFF1#01000B0000000000
(1786744496.911763) can0 1CEBFFF1#0200000000000000
(1786744496.912753) can0 1CEBFFF1#03FEFCD6B5FFFFFF
(1786744496.938743) can0 18F015F1#0000454C4A2044F4
(1786744496.943340) can0 18FEF1F8#FF0000FFFFFFFFFF
(1786744496.944470) can0 18F005F8#7EFFFF7EFFFFFFFF
(1786744497.010762) can0 1CECFFF1#20120003FF19F000
(1786744497.011771) can0 1CEBFFF1#01000B0000000000
(1786744497.012769) can0 1CEBFFF1#0200000000000000
