(1786745768.698813) can0 1CECFFF1#20120003FF19F000
(1786745768.699659) can0 1CEBFFF1#01000B0000030400
(1786745768.700604) can0 1CEBFFF1#02000634FFFFEC81
(1786745768.701597) can0 1CEBFFF1#03FD8179F5FFFFFF
(1786745768.727638) can0 18F015F1#000043D04A3E4644
(1786745768.798633) can0 1CECFFF1#20120003FF19F000
(1786745768.799571) can0 1CEBFFF1#01000B0000030400
(1786745768.800570) can0 1CEBFFF1#02000634FFFFEC81
(1786745768.801563) can0 1CEBFFF1#03FD8179F5FFFFFF
(1786745768.828632) can0 18F015F1#000043D04A3E4644
(1786745768.898855) can0 1CECFFF1#20120003FF19F000
(1786745768.900984) can0 1CEBFFF1#01000B0000030400
(1786745768.901689) can0 1CEBFFF1#03FD8179F5FFFFFF
(1786745768.901861) can0 1CEBFFF1#02000634FFFFEC81
(1786745768.929406) can0 18F015F1#000043D04A3E4644
(1786745768.999629) can0 1CECFFF1#20120003FF19F000
(1786745769.000591) can0 1CEBFFF1#01000B0000030400
(1786745769.001569) can0 1CEBFFF1#02000634FFFFEC81
(1786745769.002576) can0 1CEBFFF1#03FD8179F5FFFFFF
(1786745769.028585) can0 18F015F1#000043D04A3E4644
(1786745769.043906) can0 18FEF1F8#FF0000FFFFFFFFFF
(1786745769.045015) can0 18F005F8#7CFFFF7CFFFFFFFF
(1786745769.098579) can0 1CECFFF1#20120003FF19F000
(1786745769.099572) can0 1CEBFFF1#01000B0000030400
(1786745769.100558) can0 1CEBFFF1#02000634FFFFEC81
(1786745769.101560) can0 1CEBFFF1#03FD8179F5FFFFFF
(1786745769.127604) can0 18F015F1#000043D04A3E4644
(1786745769.143956) can0 18FEF1F8#FF0000FFFFFFFFFF
(1786745769.145111) can0 18F005F8#7CFFFF7CFFFFFFFF
(1786745769.199588) can0 1CECFFF1#20120003FF19F000
(1786745769.200579) can0 1CEBFFF1#01000B0000030400
(1786745769.201561) can0 1CEBFFF1#02000634FFFFEC81
(1786745769.202563) can0 1CEBFFF1#03FD8179F5FFFFFF
(1786745769.228568) can0 18F015F1#000043D04A3E4644
(1786745769.243896) can0 18FEF1F8#FF0000FFFFFFFFFF
(1786745769.245003) can0 18F005F8#7CFFFF7CFFFFFFFF
(1786745769.299602) can0 1CECFFF1#20120003FF19F000
(1786745769.300572) can0 1CEBFFF1#01000B0000030400
(1786745769.301567) can0 1CEBFFF1#02000634FFFFEC81
(1786745769.302562) can0 1CEBFFF1#03FD8179F5FFFFFF
(1786745769.328591) can0 18F015F1#000043D04A3E4644
(1786745769.338495) can0 18F017F1#E66B02CF9666
(1786745769.338951) can0 18F018F1#E498FDA8943A
(1786745769.343921) can0 18FEF1F8#FF0000FFFFFFFFFF
(1786745769.345070) can0 18F005F8#7CFFFF7CFFFFFFFF
(1786745769.399605) can0 1CECFFF1#20120003FF19F000
(1786745769.400576) can0 1CEBFFF1#01000B0000030400
(1786745769.401564) can0 1CEBFFF1#02000634FFFFEC81
(1786745769.402571) can0 1CEBFFF1#03FD8179F5FFFFFF
(1786745769.428586) can0 18F015F1#000043D04A3E4644
(1786745769.444198) can0 18FEF1F8#FF0000FFFFFFFFFF
(1786745769.445394) can0 18F005F8#7CFFFF7CFFFFFFFF
(1786745769.499596) can0 1CECFFF1#20120003FF19F000
(1786745769.500578) can0 1CEBFFF1#01000B0000030400
(1786745769.501561) can0 1CEBFFF1#02000634FFFFEC81
(1786745769.502564) can0 1CEBFFF1#03FD8179F5FFFFFF
(1786745769.528565) can0 18F015F1#000043D04A3E4644
(1786745769.543915) can0 18FEF1F8#FF0000FFFFFFFFFF
(1786745769.545099) can0 18F005F8#7CFFFF7CFFFFFFFF
(1786745769.599656) can0 1CECFFF1#20120003FF19F000
(1786745769.600691) can0 1CEBFFF1#01000B0000030400
(1786745769.601570) can0 1CEBFFF1#02000634FFFFEC81
(1786745769.602569) can0 1CEBFFF1#03FD8179F5FFFFFF
(1786745769.628707) can0 18F015F1#000043D04A3E4644
(1786745769.644165) can0 18FEF1F8#FF0000FFFFFFFFFF
(1786745769.645313) can0 18F005F8#7CFFFF7CFFFFFFFF
(1786745769.699593) can0 1CECFFF1#20120003FF19F000
(1786745769.700585) can0 1CEBFFF1#01000B0000030400
(1786745769.701569) can0 1CEBFFF1#02000634FFFFEC81
(1786745769.702568) can0 1CEBFFF1#03FD8179F5FFFFFF
(1786745769.728569) can0 18F015F1#000043D04A3E4644
(1786745769.743884) can0 18FEF1F8#FF0000FFFFFFFFFF
(1786745769.744998) can0 18F005F8#7CFFFF7CFFFFFFFF
(1786745769.800606) can0 1CECFFF1#20120003FF19F000
(1786745769.801595) can0 1CEBFFF1#01000B0000030400
(1786745769.802612) can0 1CEBFFF1#02000634FFFFEC81
(1786745769.803581) can0 1CEBFFF1#03FD8179F5FFFFFF
(1786745769.829618) can0 18F015F1#000043D04A3E4644
(1786745769.844295) can0 18FEF1F8#FF0000FFFFFFFFFF
(1786745769.845496) can0 18F005F8#7CFFFF7CFFFFFFFF
(1786745769.901590) can0 1CECFFF1#20120003FF19F000
(1786745769.902977) can0 1CEBFFF1#01000B0000030400
(1786745769.903438) can0 1CEBFFF1#02000634FFFFEC81
(1786745769.903693) can0 1CEBFFF1#03FD80B934FFFFFF
(1786745769.929838) can0 18F015F1#000043CF4A3E4645
(1786745769.945113) can0 18FEF1F8#FF0000FFFFFFFFFF
(1786745769.946373) can0 18F005F8#7CFFFF7CFFFFFFFF
(1786745770.001223) can0 1CECFFF1#20120003FF19F000
(1786745770.001986) can0 1CEBFFF1#01000B0000030400
(1786745770.002604) can0 1CEBFFF1#02000634FFFFEC81
(1786745770.003608) can0 1CEBFFF1#03FD80B934FFFFFF
(1786745770.029620) can0 18F015F1#000043CF4A3E4644
(1786745770.043924) can0 18FEF1F8#FF0000FFFFFFFFFF
(1786745770.045060) can0 18F005F8#7CFFFF7CFFFFFFFF
(1786745770.100604) can0 1CECFFF1#20120003FF19F000
(1786745770.101588) can0 1CEBFFF1#01000B0000030400
(1786745770.102571) can0 1CEBFFF1#02000634FFFFEC81
(1786745770.103589) can0 1CEBFFF1#03FD80B934FFFFFF
(1786745770.129616) can0 18F015F1#000043CF4A3E4644
(1786745770.143955) can0 18FEF1F8#FF0000FFFFFFFFFF
(1786745770.145081) can0 18F005F8#7CFFFF7CFFFFFFFF
(1786745770.200598) can0 1CECFFF1#20120003FF19F000
(1786745770.201587) can0 1CEBFFF1#01000B0000030400
(1786745770.202571) can0 1CEBFFF1#02000634FFFFEC81
(1786745770.203569) can0 1CEBFFF1#03FD80B934FFFFFF
(1786745770.229590) can0 18F015F1#000043CF4A3E4644
(1786745770.243913) can0 18FEF1F8#FF0000FFFFFFFFFF
(1786745770.245041) can0 18F005F8#7CFFFF7CFFFFFFFF
(1786745770.300599) can0 1CECFFF1#20120003FF19F000
(1786745770.301612) can0 1CEBFFF1#01000B0000030400
(1786745770.302567) can0 1CEBFFF1#02000634FFFFEC81
(1786745770.303567) can0 1CEBFFF1#03FD80B934FFFFFF
(1786745770.330573) can0 18F015F1#000043CF4A3E4644
(1786745770.339479) can0 18F017F1#E654028B9633
(1786745770.339952) can0 18F018F1#E438FD5F949F
(1786745770.343869) can0 18FEF1F8#FF0000FFFFFFFFFF
(1786745770.344988) can0 18F005F8#7CFFFF7CFFFFFFFF
(1786745770.400650) can0 1CECFFF1#20120003FF19F000
(1786745770.401596) can0 1CEBFFF1#01000B0000030400
(1786745770.402585) can0 1CEBFFF1#02000634FFFFEC81
(1786745770.403585) can0 1CEBFFF1#03FD80B934FFFFFF
(1786745770.429651) can0 18F015F1#000043CF4A3F4643
(1786745770.444342) can0 18FEF1F8#FF0000FFFFFFFFFF
(1786745770.445556) can0 18F005F8#7CFFFF7CFFFFFFFF
(1786745770.500598) can0 1CECFFF1#20120003FF19F000
(1786745770.501588) can0 1CEBFFF1#01000B0000030400
(1786745770.502574) can0 1CEBFFF1#02000634FFFFEC81
(1786745770.503573) can0 1CEBFFF1#03FD80B934FFFFFF
(1786745770.529568) can0 18F015F1#000043CF4A3E4643
(1786745770.543906) can0 18FEF1F8#FF0000FFFFFFFFFF
(1786745770.545625) can0 18F005F8#7CFFFF7CFFFFFFFF
(1786745770.601659) can0 1CECFFF1#20120003FF19F000
(1786745770.602624) can0 1CEBFFF1#01000B0000030400
(1786745770.603614) can0 1CEBFFF1#02000634FFFFEC81
(1786745770.604587) can0 1CEBFFF1#03FD80B934FFFFFF
(1786745770.630652) can0 18F015F1#000043CF4A3E4643
(1786745770.644191) can0 18FEF1F8#FF0000FFFFFFFFFF
(1786745770.645348) can0 18F005F8#7CFFFF7CFFFFFFFF
(1786745770.701606) can0 1CECFFF1#20120003FF19F000
(1786745770.702594) can0 1CEBFFF1#01000B0000030400
(1786745770.703585) can0 1CEBFFF1#02000634FFFFEC81
(1786745770.704585) can0 1CEBFFF1#03FD80B934FFFFFF
(1786745770.730582) can0 18F015F1#000043CF4A3E4644
(1786745770.743890) can0 18FEF1F8#FF0000FFFFFFFFFF
(1786745770.745015) can0 18F005F8#7CFFFF7CFFFFFFFF
(1786745770.801601) can0 1CECFFF1#20120003FF19F000
(1786745770.802598) can0 1CEBFFF1#01000B0000030400
(1786745770.803583) can0 1CEBFFF1#02000634FFFFEC81
(1786745770.804582) can0 1CEBFFF1#03FD80B934FFFFFF
(1786745770.830615) can0 18F015F1#000043CF4A3E4644
(1786745770.844004) can0 18FEF1F8#FF0000FFFFFFFFFF
(1786745770.845143) can0 18F005F8#7CFFFF7CFFFFFFFF
(1786745770.901687) can0 1CECFFF1#20120003FF19F000
(1786745770.902642) can0 1CEBFFF1#01000B0000030400
(1786745770.903636) can0 1CEBFFF1#02000634FFFFEC81
(1786745770.904617) can0 1CEBFFF1#03FD80B934FFFFFF
(1786745770.930649) can0 18F015F1#000043CF4A3E4643
(1786745770.944676) can0 18FEF1F8#FF0000FFFFFFFFFF
(1786745770.946175) can0 18F005F8#7CFFFF7CFFFFFFFF
(1786745771.001681) can0 1CECFFF1#20120003FF19F000
(1786745771.002604) can0 1CEBFFF1#01000B0000030400
(1786745771.003590) can0 1CEBFFF1#02000634FFFFEC81
(1786745771.004577) can0 1CEBFFF1#03FD80B934FFFFFF
(1786745771.030600) can0 18F015F1#000043CF4A3E4644
(1786745771.043903) can0 18FEF1F8#FF0000FFFFFFFFFF
(1786745771.045024) can0 18F005F8#7CFFFF7CFFFFFFFF
(1786745771.101601) can0 1CECFFF1#20120003FF19F000
(1786745771.102595) can0 1CEBFFF1#01000B0000030400
(1786745771.103583) can0 1CEBFFF1#02000634FFFFEC81
(1786745771.104581) can0 1CEBFFF1#03FD80B934FFFFFF
(1786745771.130609) can0 18F015F1#000043CF4A3F4644
(1786745771.143974) can0 18FEF1F8#FF0000FFFFFFFFFF
(1786745771.145110) can0 18F005F8#7CFFFF7CFFFFFFFF
(1786745771.201609) can0 1CECFFF1#20120003FF19F000
(1786745771.202596) can0 1CEBFFF1#01000B0000030400
(1786745771.203584) can0 1CEBFFF1#02000634FFFFEC81
(1786745771.204582) can0 1CEBFFF1#03FD80B934FFFFFF
(1786745771.230581) can0 18F015F1#000043CF4A3E4643
(1786745771.243894) can0 18FEF1F8#FF0000FFFFFFFFFF
(1786745771.245030) can0 18F005F8#7CFFFF7CFFFFFFFF
(1786745771.301602) can0 1CECFFF1#20120003FF19F000
(1786745771.302585) can0 1CEBFFF1#01000B0000030400
(1786745771.303571) can0 1CEBFFF1#02000634FFFFEC81
(1786745771.304572) can0 1CEBFFF1#03FD80B934FFFFFF
(1786745771.331571) can0 18F015F1#000043CF4A3E4644
(1786745771.341491) can0 18F017F1#E654028B9633
(1786745771.341966) can0 18F018F1#E438FD5F949F
(1786745771.343887) can0 18FEF1F8#FF0000FFFFFFFFFF
(1786745771.345020) can0 18F005F8#7CFFFF7CFFFFFFFF
(1786745771.402600) can0 1CECFFF1#20120003FF19F000
(1786745771.403598) can0 1CEBFFF1#01000B0000030400
(1786745771.404584) can0 1CEBFFF1#02000634FFFFEC81
(1786745771.405583) can0 1CEBFFF1#03FD80B934FFFFFF
(1786745771.431579) can0 18F015F1#000043CF4A3E4644
(1786745771.443929) can0 18FEF1F8#FF0000FFFFFFFFFF
(1786745771.445034) can0 18F005F8#7CFFFF7CFFFFFFFF
(1786745771.502609) can0 1CECFFF1#20120003FF19F000
(1786745771.503590) can0 1CEBFFF1#01000B0000030400
(1786745771.504575) can0 1CEBFFF1#02000634FFFFEC81
(1786745771.505573) can0 1CEBFFF1#03FD80B934FFFFFF
(1786745771.531582) can0 18F015F1#000043CE4A3E4643
(1786745771.543926) can0 18FEF1F8#FF0000FFFFFFFFFF
(1786745771.545189) can0 18F005F8#7CFFFF7CFFFFFFFF
(1786745771.602841) can0 1CECFFF1#20120003FF19F000
(1786745771.603617) can0 1CEBFFF1#01000B0000030400
(1786745771.604692) can0 1CEBFFF1#02000634FFFFEC81
(1786745771.605607) can0 1CEBFFF1#03FD80B934FFFFFF
(1786745771.631699) can0 18F015F1#000043CF4A3E4643
(1786745771.644013) can0 18FEF1F8#FF0000FFFFFFFFFF
(1786745771.645261) can0 18F005F8#7CFFFF7CFFFFFFFF
(1786745771.702639) can0 1CECFFF1#20120003FF19F000
(1786745771.703602) can0 1CEBFFF1#01000B0000030400
(1786745771.704584) can0 1CEBFFF1#02000634FFFFEC81
(1786745771.705585) can0 1CEBFFF1#03FD80B934FFFFFF
(1786745771.731581) can0 18F015F1#000043CF4A3E4644
(1786745771.743906) can0 18FEF1F8#FF0000FFFFFFFFFF
(1786745771.745047) can0 18F005F8#7CFFFF7CFFFFFFFF
(1786745771.802618) can0 1CECFFF1#20120003FF19F000
(1786745771.803605) can0 1CEBFFF1#01000B0000030400
(1786745771.804595) can0 1CEBFFF1#02000634FFFFEC81
(1786745771.805595) can0 1CEBFFF1#03FD80B934FFFFFF
(1786745771.832638) can0 18F015F1#000043CF4A3E4644
(1786745771.843917) can0 18FEF1F8#FF0000FFFFFFFFFF
(1786745771.845062) can0 18F005F8#7CFFFF7CFFFFFFFF
(1786745771.902706) can0 1CECFFF1#20120003FF19F000
(1786745771.903599) can0 1CEBFFF1#01000B0000030400
(1786745771.904577) can0 1CEBFFF1#02000634FFFFEC81
(1786745771.905587) can0 1CEBFFF1#03FD80B934FFFFFF
(1786745771.931664) can0 18F015F1#000043CF4A3E4644
(1786745771.944860) can0 18FEF1F8#FF0000FFFFFFFFFF
(1786745771.946039) can0 18F005F8#7CFFFF7CFFFFFFFF
(1786745772.002993) can0 1CECFFF1#20120003FF19F000
(1786745772.003792) can0 1CEBFFF1#01000B0000030400
(1786745772.004603) can0 1CEBFFF1#02000634FFFFEC81
(1786745772.005580) can0 1CEBFFF1#03FD80B934FFFFFF
(1786745772.031608) can0 18F015F1#000043CE4A3E4643
(1786745772.043970) can0 18FEF1F8#FF0000FFFFFFFFFF
(1786745772.045121) can0 18F005F8#7CFFFF7CFFFFFFFF
(1786745772.102600) can0 1CECFFF1#20120003FF19F000
(1786745772.103599) can0 1CEBFFF1#01000B0000030400
(1786745772.104577) can0 1CEBFFF1#02000634FFFFEC81
(1786745772.105575) can0 1CEBFFF1#03FD80B934FFFFFF
(1786745772.131627) can0 18F015F1#000043CF4A3E4644
(1786745772.144036) can0 18FEF1F8#FF0000FFFFFFFFFF
(1786745772.145407) can0 18F005F8#7CFFFF7CFFFFFFFF
(1786745772.203612) can0 1CECFFF1#20120003FF19F000
(1786745772.204595) can0 1CEBFFF1#01000B0000030400
(1786745772.205580) can0 1CEBFFF1#02000634FFFFEC81
(1786745772.206583) can0 1CEBFFF1#03FD80B934FFFFFF
(1786745772.232620) can0 18F015F1#000043CF4A3E4644
(1786745772.243931) can0 18FEF1F8#FF0000FFFFFFFFFF
(1786745772.245120) can0 18F005F8#7CFFFF7CFFFFFFFF
(1786745772.303613) can0 1CECFFF1#20120003FF19F000
(1786745772.304605) can0 1CEBFFF1#01000B0000030400
(1786745772.305597) can0 1CEBFFF1#02000634FFFFEC81
(1786745772.306598) can0 1CEBFFF1#03FD80B934FFFFFF
(1786745772.332590) can0 18F015F1#000043CE4A3E4644
(1786745772.342498) can0 18F017F1#E72903B996A6
(1786745772.342976) can0 18F018F1#E31EFC9493D6
(1786745772.344148) can0 18FEF1F8#FF0000FFFFFFFFFF
(1786745772.345264) can0 18F005F8#7CFFFF7CFFFFFFFF
(1786745772.403605) can0 1CECFFF1#20120003FF19F000
(1786745772.404592) can0 1CEBFFF1#01000B0000030400
(1786745772.405579) can0 1CEBFFF1#02000634FFFFEC81
(1786745772.406603) can0 1CEBFFF1#03FD7FF974FFFFFF
(1786745772.432571) can0 18F015F1#000043CE4A3E4643
(1786745772.443957) can0 18FEF1F8#FF0000FFFFFFFFFF
(1786745772.445121) can0 18F005F8#7CFFFF7CFFFFFFFF
(1786745772.503617) can0 1CECFFF1#20120003FF19F000
(1786745772.504596) can0 1CEBFFF1#01000B0000030400
(1786745772.505580) can0 1CEBFFF1#02000634FFFFEC81
(1786745772.506586) can0 1CEBFFF1#03FD7FF974FFFFFF
(1786745772.532571) can0 18F015F1#000043CE4A3E4644
(1786745772.543887) can0 18FEF1F8#FF0000FFFFFFFFFF
(1786745772.545343) can0 18F005F8#7CFFFF7CFFFFFFFF
(1786745772.603776) can0 1CECFFF1#20120003FF19F000
(1786745772.604606) can0 1CEBFFF1#01000B0000030400
(1786745772.605585) can0 1CEBFFF1#02000634FFFFEC81
(1786745772.606589) can0 1CEBFFF1#03FD7FF974FFFFFF
(1786745772.632682) can0 18F015F1#000043CE4A3E4644
(1786745772.644463) can0 18FEF1F8#FF0000FFFFFFFFFF
(1786745772.645788) can0 18F005F8#7CFFFF7CFFFFFFFF
(1786745772.703619) can0 1CECFFF1#20120003FF19F000
(1786745772.704600) can0 1CEBFFF1#01000B0000030400
(1786745772.705583) can0 1CEBFFF1#02000634FFFFEC81
(1786745772.706587) can0 1CEBFFF1#03FD7FF974FFFFFF
(1786745772.732576) can0 18F015F1#000043CE4A3E4643
(1786745772.743887) can0 18FEF1F8#FF0000FFFFFFFFFF
(1786745772.745016) can0 18F005F8#7CFFFF7CFFFFFFFF
(1786745772.803625) can0 1CECFFF1#20120003FF19F000
(1786745772.804602) can0 1CEBFFF1#01000B0000030400
(1786745772.805591) can0 1CEBFFF1#02000634FFFFEC81
(1786745772.806595) can0 1CEBFFF1#03FD7FF974FFFFFF
(1786745772.833636) can0 18F015F1#000043CE4A3E4644
(1786745772.843908) can0 18FEF1F8#FF0000FFFFFFFFFF
(1786745772.845050) can0 18F005F8#7CFFFF7CFFFFFFFF
(1786745772.903691) can0 1CECFFF1#20120003FF19F000
(1786745772.904616) can0 1CEBFFF1#01000B0000030400
(1786745772.905583) can0 1CEBFFF1#02000634FFFFEC81
(1786745772.906589) can0 1CEBFFF1#03FD7FF974FFFFFF
(1786745772.933694) can0 18F015F1#000043CE4A3E4644
(1786745772.946243) can0 18FEF1F8#FF0000FFFFFFFFFF
(1786745772.947571) can0 18F005F8#7CFFFF7CFFFFFFFF
(1786745773.004652) can0 1CECFFF1#20120003FF19F000
(1786745773.005611) can0 1CEBFFF1#01000B0000030400
(1786745773.006599) can0 1CEBFFF1#02000634FFFFEC81
(1786745773.007591) can0 1CEBFFF1#03FD7FF974FFFFFF
(1786745773.033618) can0 18F015F1#000043CE4A3F4644
(1786745773.043972) can0 18FEF1F8#FF0000FFFFFFFFFF
(1786745773.045168) can0 18F005F8#7CFFFF7CFFFFFFFF
(1786745773.104624) can0 1CECFFF1#20120003FF19F000
(1786745773.105614) can0 1CEBFFF1#01000B0000030400
(1786745773.106596) can0 1CEBFFF1#02000634FFFFEC81
(1786745773.107610) can0 1CEBFFF1#03FD7FF974FFFFFF
(1786745773.133630) can0 18F015F1#000043CE4A3F4643
(1786745773.143928) can0 18FEF1F8#FF0000FFFFFFFFFF
(1786745773.146077) can0 18F005F8#7CFFFF7CFFFFFFFF
(1786745773.204635) can0 1CECFFF1#20120003FF19F000
(1786745773.205616) can0 1CEBFFF1#01000B0000030400
(1786745773.206596) can0 1CEBFFF1#02000634FFFFEC81
(1786745773.207591) can0 1CEBFFF1#03FD7FF974FFFFFF
(1786745773.233646) can0 18F015F1#000043CE4A3F4643
(1786745773.244171) can0 18FEF1F8#FF0000FFFFFFFFFF
(1786745773.246224) can0 18F005F8#7CFFFF7CFFFFFFFF
(1786745773.304713) can0 1CECFFF1#20120003FF19F000
(1786745773.305604) can0 1CEBFFF1#01000B0000030400
(1786745773.306599) can0 1CEBFFF1#02000634FFFFEC81
(1786745773.307593) can0 1CEBFFF1#03FD7FF974FFFFFF
(1786745773.334624) can0 18F015F1#000043CE4A3F4644
(1786745773.343508) can0 18F017F1#E72903B996A6
(1786745773.343974) can0 18F018F1#E31EFC9493D6
(1786745773.344526) can0 18FEF1F8#FF0000FFFFFFFFFF
(1786745773.345674) can0 18F005F8#7CFFFF7CFFFFFFFF
(1786745773.404631) can0 1CECFFF1#20120003FF19F000
(1786745773.405612) can0 1CEBFFF1#01000B0000030400
(1786745773.406599) can0 1CEBFFF1#02000634FFFFEC81
(1786745773.407593) can0 1CEBFFF1#03FD7FF974FFFFFF
(1786745773.433603) can0 18F015F1#000043CE4A3E4643
(1786745773.443999) can0 18FEF1F8#FF0000FFFFFFFFFF
(1786745773.445121) can0 18F005F8#7CFFFF7CFFFFFFFF
(1786745773.504631) can0 1CECFFF1#20120003FF19F000
(1786745773.505615) can0 1CEBFFF1#01000B0000030400
(1786745773.506597) can0 1CEBFFF1#02000634FFFFEC81
(1786745773.507600) can0 1CEBFFF1#03FD7E39B5FFFFFF
(1786745773.534614) can0 18F015F1#000043CE4A3F4643
(1786745773.543885) can0 18FEF1F8#FF0000FFFFFFFFFF
(1786745773.545024) can0 18F005F8#7CFFFF7CFFFFFFFF
(1786745773.604667) can0 1CECFFF1#20120003FF19F000
(1786745773.605617) can0 1CEBFFF1#01000B0000030400
(1786745773.606600) can0 1CEBFFF1#02000634FFFFEC81
(1786745773.607599) can0 1CEBFFF1#03FD7FF974FFFFFF
(1786745773.633711) can0 18F015F1#000043CE4A3E4643
(1786745773.643936) can0 18FEF1F8#FF0000FFFFFFFFFF
(1786745773.645159) can0 18F005F8#7CFFFF7CFFFFFFFF
(1786745773.705678) can0 1CECFFF1#20120003FF19F000
(1786745773.706616) can0 1CEBFFF1#01000B0000030400
(1786745773.707601) can0 1CEBFFF1#02000634FFFFEC81
(1786745773.708599) can0 1CEBFFF1#03FD7FF974FFFFFF
(1786745773.734618) can0 18F015F1#000043CD4A3F4643
(1786745773.743968) can0 18FEF1F8#FF0000FFFFFFFFFF
(1786745773.745115) can0 18F005F8#7CFFFF7CFFFFFFFF
(1786745773.805719) can0 1CECFFF1#20120003FF19F000
(1786745773.806629) can0 1CEBFFF1#01000B0000030400
(1786745773.807600) can0 1CEBFFF1#02000634FFFFEC81
(1786745773.808601) can0 1CEBFFF1#03FD7E39B5FFFFFF
(1786745773.834665) can0 18F015F1#000043CE4A3F4643
(1786745773.843936) can0 18FEF1F8#FF0000FFFFFFFFFF
(1786745773.845069) can0 18F005F8#7CFFFF7CFFFFFFFF
(1786745773.905733) can0 1CECFFF1#20120003FF19F000
(1786745773.906653) can0 1CEBFFF1#01000B0000030400
(1786745773.907660) can0 1CEBFFF1#02000634FFFFEC81
(1786745773.908609) can0 1CEBFFF1#03FD7FF974FFFFFF
(1786745773.934782) can0 18F015F1#000043CE4A3F4643
(1786745773.944799) can0 18FEF1F8#FF0000FFFFFFFFFF
(1786745773.946149) can0 18F005F8#7CFFFF7CFFFFFFFF
(1786745774.005967) can0 1CECFFF1#20120003FF19F000
(1786745774.006641) can0 1CEBFFF1#01000B0000030400
(1786745774.007645) can0 1CEBFFF1#02000634FFFFEC81
(1786745774.008624) can0 1CEBFFF1#03FD7FF974FFFFFF
(1786745774.034611) can0 18F015F1#000043CD4A3F4643
(1786745774.043904) can0 18FEF1F8#FF0000FFFFFFFFFF
(1786745774.045088) can0 18F005F8#7CFFFF7CFFFFFFFF
(1786745774.105640) can0 1CECFFF1#20120003FF19F000
(1786745774.106614) can0 1CEBFFF1#01000B0000030400
(1786745774.107591) can0 1CEBFFF1#02000634FFFFEC81
(1786745774.108596) can0 1CEBFFF1#03FD7E39B5FFFFFF
(1786745774.134669) can0 18F015F1#000043CD4A3F4643
(1786745774.143947) can0 18FEF1F8#FF0000FFFFFFFFFF
(1786745774.145099) can0 18F005F8#7CFFFF7CFFFFFFFF
(1786745774.205649) can0 1CECFFF1#20120003FF19F000
(1786745774.206622) can0 1CEBFFF1#01000B0000030400
(1786745774.207600) can0 1CEBFFF1#02000634FFFFEC81
(1786745774.208616) can0 1CEBFFF1#03FD7E39B5FFFFFF
(1786745774.234611) can0 18F015F1#000043CD4A3F4643
(1786745774.243915) can0 18FEF1F8#FF0000FFFFFFFFFF
(1786745774.245087) can0 18F005F8#7CFFFF7CFFFFFFFF
(1786745774.306628) can0 1CECFFF1#20120003FF19F000
(1786745774.307608) can0 1CEBFFF1#01000B0000030400
(1786745774.308593) can0 1CEBFFF1#02000634FFFFEC81
(1786745774.309595) can0 1CEBFFF1#03FD7FF974FFFFFF
(1786745774.335669) can0 18F015F1#000043CE4A3F4643
(1786745774.344018) can0 18FEF1F8#FF0000FFFFFFFFFF
(1786745774.344772) can0 18F017F1#E93F039C9814
(1786745774.345039) can0 18F018F1#E1BFFCA493EF
(1786745774.345541) can0 18F005F8#7CFFFF7CFFFFFFFF
(1786745774.405641) can0 1CECFFF1#20120003FF19F000
(1786745774.406622) can0 1CEBFFF1#01000B0000030400
(1786745774.407608) can0 1CEBFFF1#02000634FFFFEC81
(1786745774.408659) can0 1CEBFFF1#03FD7FF974FFFFFF
(1786745774.434622) can0 18F015F1#000043CD4A3F4644
(1786745774.443934) can0 18FEF1F8#FF0000FFFFFFFFFF
(1786745774.445101) can0 18F005F8#7CFFFF7CFFFFFFFF
(1786745774.506643) can0 1CECFFF1#20120003FF19F000
(1786745774.507631) can0 1CEBFFF1#01000B0000030400
(1786745774.508594) can0 1CEBFFF1#02000634FFFFEC81
(1786745774.509600) can0 1CEBFFF1#03FD7E39B5FFFFFF
(1786745774.535615) can0 18F015F1#000043CD4A3F4643
(1786745774.543892) can0 18FEF1F8#FF0000FFFFFFFFFF
(1786745774.545125) can0 18F005F8#7CFFFF7CFFFFFFFF
(1786745774.606841) can0 1CECFFF1#20120003FF19F000
(1786745774.607612) can0 1CEBFFF1#01000B0000030400
(1786745774.608598) can0 1CEBFFF1#02000634FFFFEC81
(1786745774.609601) can0 1CEBFFF1#03FD7E39B5FFFFFF
(1786745774.636027) can0 18F015F1#000043CD4A3F4643
(1786745774.644080) can0 18FEF1F8#FF0000FFFFFFFFFF
(1786745774.645230) can0 18F005F8#7CFFFF7CFFFFFFFF
(1786745774.706642) can0 1CECFFF1#20120003FF19F000
(1786745774.707618) can0 1CEBFFF1#01000B0000030400
(1786745774.708606) can0 1CEBFFF1#02000634FFFFEC81
(1786745774.709609) can0 1CEBFFF1#03FD7E39B5FFFFFF
(1786745774.735602) can0 18F015F1#000043CD4A3F4643
(1786745774.743911) can0 18FEF1F8#FF0000FFFFFFFFFF
(1786745774.745071) can0 18F005F8#7CFFFF7CFFFFFFFF
(1786745774.806633) can0 1CECFFF1#20120003FF19F000
(1786745774.807611) can0 1CEBFFF1#01000B0000030400
(1786745774.808597) can0 1CEBFFF1#02000634FFFFEC81
(1786745774.809601) can0 1CEBFFF1#03FD7E39B5FFFFFF
(1786745774.836654) can0 18F015F1#000043CD4A3F4643
(1786745774.843930) can0 18FEF1F8#FF0000FFFFFFFFFF
(1786745774.845101) can0 18F005F8#7CFFFF7CFFFFFFFF
(1786745774.906675) can0 1CECFFF1#20120003FF19F000
(1786745774.907620) can0 1CEBFFF1#01000B0000030400
(1786745774.908602) can0 1CEBFFF1#02000634FFFFEC81
(1786745774.909612) can0 1CEBFFF1#03FD7E39B5FFFFFF
(1786745774.935794) can0 18F015F1#000043CD4A3F4643
(1786745774.944273) can0 18FEF1F8#FF0000FFFFFFFFFF
(1786745774.945439) can0 18F005F8#7CFFFF7CFFFFFFFF
(1786745775.006648) can0 1CECFFF1#20120003FF19F000
(1786745775.007635) can0 1CEBFFF1#01000B0000030400
(1786745775.008617) can0 1CEBFFF1#02000634FFFFEC81
(1786745775.009621) can0 1CEBFFF1#03FD7E39B5FFFFFF
(1786745775.035651) can0 18F015F1#000043CD4A3F4643
(1786745775.043899) can0 18FEF1F8#FF0000FFFFFFFFFF
(1786745775.045047) can0 18F005F8#7CFFFF7CFFFFFFFF
(1786745775.107657) can0 1CECFFF1#20120003FF19F000
(1786745775.108617) can0 1CEBFFF1#01000B0000030400
(1786745775.109647) can0 1CEBFFF1#02000634FFFFEC81
(1786745775.110607) can0 1CEBFFF1#03FD7E39B5FFFFFF
(1786745775.137410) can0 18F015F1#000043CD4A3F4643
(1786745775.143985) can0 18FEF1F8#FF0000FFFFFFFFFF
(1786745775.145167) can0 18F005F8#7CFFFF7CFFFFFFFF
(1786745775.207651) can0 1CECFFF1#20120003FF19F000
(1786745775.208625) can0 1CEBFFF1#01000B0000030400
(1786745775.209610) can0 1CEBFFF1#02000634FFFFEC81
(1786745775.210614) can0 1CEBFFF1#03FD7E39B5FFFFFF
(1786745775.236601) can0 18F015F1#000043CD4A3F4643
(1786745775.243896) can0 18FEF1F8#FF0000FFFFFFFFFF
(1786745775.245079) can0 18F005F8#7CFFFF7CFFFFFFFF
(1786745775.307649) can0 1CECFFF1#20120003FF19F000
(1786745775.308621) can0 1CEBFFF1#01000B0000030400
(1786745775.309607) can0 1CEBFFF1#02000634FFFFEC81
(1786745775.310608) can0 1CEBFFF1#03FD7E39B5FFFFFF
(1786745775.336614) can0 18F015F1#000043CD4A3F4643
(1786745775.343902) can0 18FEF1F8#FF0000FFFFFFFFFF
(1786745775.345077) can0 18F005F8#7CFFFF7CFFFFFFFF
(1786745775.346536) can0 18F017F1#E93F039C9814
(1786745775.347013) can0 18F018F1#E1BFFCA493EF
(1786745775.407699) can0 1CECFFF1#20120003FF19F000
(1786745775.408633) can0 1CEBFFF1#01000B0000030400
(1786745775.410288) can0 1CEBFFF1#02000634FFFFEC81
(1786745775.410655) can0 1CEBFFF1#03FD7E39B5FFFFFF
(1786745775.436690) can0 18F015F1#000043CD4A3F4643
(1786745775.444770) can0 18FEF1F8#FF0000FFFFFFFFFF
(1786745775.446126) can0 18F005F8#7CFFFF7CFFFFFFFF
(1786745775.507646) can0 1CECFFF1#20120003FF19F000
(1786745775.508760) can0 1CEBFFF1#01000B0000030400
(1786745775.509641) can0 1CEBFFF1#02000634FFFFEC81
(1786745775.510613) can0 1CEBFFF1#03FD7E39B5FFFFFF
(1786745775.536633) can0 18F015F1#000043CD4A3F4643
(1786745775.544227) can0 18FEF1F8#FF0000FFFFFFFFFF
(1786745775.545393) can0 18F005F8#7CFFFF7CFFFFFFFF
(1786745775.608030) can0 1CECFFF1#20120003FF19F000
(1786745775.608704) can0 1CEBFFF1#01000B0000030400
(1786745775.609685) can0 1CEBFFF1#02000634FFFFEC81
(1786745775.610668) can0 1CEBFFF1#03FD7E39B5FFFFFF
(1786745775.636742) can0 18F015F1#000043CD4A3F4643
(1786745775.644376) can0 18FEF1F8#FF0000FFFFFFFFFF
(1786745775.645796) can0 18F005F8#7CFFFF7CFFFFFFFF
(1786745775.707677) can0 1CECFFF1#20120003FF19F000
(1786745775.708645) can0 1CEBFFF1#01000B0000030400
(1786745775.709614) can0 1CEBFFF1#02000634FFFFEC81
(1786745775.710619) can0 1CEBFFF1#03FD7E39B5FFFFFF
(1786745775.736612) can0 18F015F1#000043CD4A3F4643
(1786745775.743914) can0 18FEF1F8#FF0000FFFFFFFFFF
(1786745775.745044) can0 18F005F8#7CFFFF7CFFFFFFFF
(1786745775.807652) can0 1CECFFF1#20120003FF19F000
(1786745775.808627) can0 1CEBFFF1#01000B0000030400
(1786745775.809611) can0 1CEBFFF1#02000634FFFFEC81
(1786745775.810613) can0 1CEBFFF1#03FD7E39B5FFFFFF
(1786745775.837652) can0 18F015F1#000043CD4A3F4643
(1786745775.843920) can0 18FEF1F8#FF0000FFFFFFFFFF
(1786745775.845023) can0 18F005F8#7CFFFF7CFFFFFFFF
(1786745775.908811) can0 1CECFFF1#20120003FF19F000
(1786745775.909652) can0 1CEBFFF1#01000B0000030400
(1786745775.910649) can0 1CEBFFF1#02000634FFFFEC81
(1786745775.911632) can0 1CEBFFF1#03FD7E39B5FFFFFF
(1786745775.937739) can0 18F015F1#000043CD4A3F4643
(1786745775.944332) can0 18FEF1F8#FF0000FFFFFFFFFF
(1786745775.945629) can0 18F005F8#7CFFFF7CFFFFFFFF
(1786745776.008761) can0 1CECFFF1#20120003FF19F000
(1786745776.009723) can0 1CEBFFF1#01000B0000030400
(1786745776.010788) can0 1CEBFFF1#02000634FFFFEC81
(1786745776.011823) can0 1CEBFFF1#03FD7E39B5FFFFFF
(1786745776.037667) can0 18F015F1#000043CD4A3F4643
(1786745776.044105) can0 18FEF1F8#FF0000FFFFFFFFFF
(1786745776.045329) can0 18F005F8#7CFFFF7CFFFFFFFF
(1786745776.108668) can0 1CECFFF1#20120003FF19F000
(1786745776.109624) can0 1CEBFFF1#01000B0000030400
(1786745776.110611) can0 1CEBFFF1#02000634FFFFEC81
(1786745776.111614) can0 1CEBFFF1#03FD7E39B5FFFFFF
(1786745776.137963) can0 18F015F1#000043CD4A3F4643
(1786745776.144052) can0 18FEF1F8#FF0000FFFFFFFFFF
(1786745776.145379) can0 18F005F8#7CFFFF7CFFFFFFFF
(1786745776.208644) can0 1CECFFF1#20120003FF19F000
(1786745776.209640) can0 1CEBFFF1#01000B0000030400
(1786745776.210631) can0 1CEBFFF1#02000634FFFFEC81
(1786745776.211625) can0 1CEBFFF1#03FD7E39B5FFFFFF
(1786745776.237643) can0 18F015F1#000043CC4A3F4643
(1786745776.243944) can0 18FEF1F8#FF0000FFFFFFFFFF
(1786745776.245097) can0 18F005F8#7CFFFF7CFFFFFFFF
(1786745776.308641) can0 1CECFFF1#20120003FF19F000
(1786745776.309621) can0 1CEBFFF1#01000B0000030400
(1786745776.310606) can0 1CEBFFF1#02000634FFFFEC81
(1786745776.311609) can0 1CEBFFF1#03FD7D38F5FFFFFF
(1786745776.338617) can0 18F015F1#000043CC4A3F4643
(1786745776.343906) can0 18FEF1F8#FF0000FFFFFFFFFF
(1786745776.345047) can0 18F005F8#7CFFFF7CFFFFFFFF
(1786745776.347522) can0 18F017F1#E844034E975A
(1786745776.347988) can0 18F018F1#E18BFC379369
(1786745776.408654) can0 1CECFFF1#20120003FF19F000
(1786745776.409631) can0 1CEBFFF1#01000B0000030400
(1786745776.410625) can0 1CEBFFF1#02000634FFFFEC81
(1786745776.411618) can0 1CEBFFF1#03FD7D38F5FFFFFF
(1786745776.437608) can0 18F015F1#000043CC4A3F4643
(1786745776.443946) can0 18FEF1F8#FF0000FFFFFFFFFF
(1786745776.445097) can0 18F005F8#7CFFFF7CFFFFFFFF
(1786745776.508642) can0 1CECFFF1#20120003FF19F000
(1786745776.509626) can0 1CEBFFF1#01000B0000030400
(1786745776.510610) can0 1CEBFFF1#02000634FFFFEC81
(1786745776.511613) can0 1CEBFFF1#03FD7D38F5FFFFFF
(1786745776.537626) can0 18F015F1#000043CC4A3F4643
(1786745776.543882) can0 18FEF1F8#FF0000FFFFFFFFFF
(1786745776.545035) can0 18F005F8#7CFFFF7CFFFFFFFF
(1786745776.609735) can0 1CECFFF1#20120003FF19F000
(1786745776.610818) can0 1CEBFFF1#01000B0000030400
(1786745776.616157) can0 1CEBFFF1#02000634FFFFEC81
(1786745776.616829) can0 1CEBFFF1#03FD7D38F5FFFFFF
(1786745776.637668) can0 18F015F1#000043CC4A3F4643
(1786745776.644223) can0 18FEF1F8#FF0000FFFFFFFFFF
(1786745776.645469) can0 18F005F8#7CFFFF7CFFFFFFFF
(1786745776.709667) can0 1CECFFF1#20120003FF19F000
(1786745776.710638) can0 1CEBFFF1#01000B0000030400
(1786745776.711624) can0 1CEBFFF1#02000634FFFFEC81
(1786745776.712623) can0 1CEBFFF1#03FD7D38F5FFFFFF
(1786745776.738623) can0 18F015F1#000043CC4A3F4643
(1786745776.743909) can0 18FEF1F8#FF0000FFFFFFFFFF
(1786745776.745070) can0 18F005F8#7CFFFF7CFFFFFFFF
(1786745776.809662) can0 1CECFFF1#20120003FF19F000
(1786745776.810637) can0 1CEBFFF1#01000B0000030400
(1786745776.811621) can0 1CEBFFF1#02000634FFFFEC81
(1786745776.812626) can0 1CEBFFF1#03FD7D38F5FFFFFF
(1786745776.838649) can0 18F015F1#000043CC4A3F4643
(1786745776.843927) can0 18FEF1F8#FF0000FFFFFFFFFF
(1786745776.845102) can0 18F005F8#7CFFFF7CFFFFFFFF
(1786745776.909767) can0 1CECFFF1#20120003FF19F000
(1786745776.910686) can0 1CEBFFF1#01000B0000030400
(1786745776.911675) can0 1CEBFFF1#02000634FFFFEC81
(1786745776.912758) can0 1CEBFFF1#03FD7D38F5FFFFFF
(1786745776.938643) can0 18F015F1#000043CC4A3F4643
(1786745776.944344) can0 18FEF1F8#FF0000FFFFFFFFFF
(1786745776.946221) can0 18F005F8#7CFFFF7CFFFFFFFF
(1786745777.009668) can0 1CECFFF1#20120003FF19F000
(1786745777.010640) can0 1CEBFFF1#01000B0000030400
(1786745777.011616) can0 1CEBFFF1#02000634FFFFEC81
(1786745777.012616) can0 1CEBFFF1#03FD7D38F5FFFFFF
(1786745777.038628) can0 18F015F1#000043CC4A3F4643
(1786745777.044005) can0 18FEF1F8#FF0000FFFFFFFFFF
(1786745777.045115) can0 18F005F8#7CFFFF7CFFFFFFFF
(1786745777.109654) can0 1CECFFF1#20120003FF19F000
(1786745777.110653) can0 1CEBFFF1#01000B0000030400
(1786745777.111652) can0 1CEBFFF1#02000634FFFFEC81
(1786745777.112673) can0 1CEBFFF1#03FD7D38F5FFFFFF
(1786745777.138636) can0 18F015F1#000043CC4A3F4643
(1786745777.144743) can0 18FEF1F8#FF0000FFFFFFFFFF
(1786745777.145994) can0 18F005F8#7CFFFF7CFFFFFFFF
(1786745777.209657) can0 1CECFFF1#20120003FF19F000
(1786745777.210647) can0 1CEBFFF1#01000B0000030400
(1786745777.211616) can0 1CEBFFF1#02000634FFFFEC81
(1786745777.212615) can0 1CEBFFF1#03FD7D38F5FFFFFF
(1786745777.238621) can0 18F015F1#000043CC4A3F4643
(1786745777.243912) can0 18FEF1F8#FF0000FFFFFFFFFF
(1786745777.245065) can0 18F005F8#7CFFFF7CFFFFFFFF
(1786745777.309663) can0 1CECFFF1#20120003FF19F000
(1786745777.310636) can0 1CEBFFF1#01000B0000030400
(1786745777.311625) can0 1CEBFFF1#02000634FFFFEC81
(1786745777.312616) can0 1CEBFFF1#03FD7D38F5FFFFFF
(1786745777.339624) can0 18F015F1#000043CC4A3F4643
(1786745777.343917) can0 18FEF1F8#FF0000FFFFFFFFFF
(1786745777.345079) can0 18F005F8#7CFFFF7CFFFFFFFF
(1786745777.348524) can0 18F017F1#E844034E975A
(1786745777.348987) can0 18F018F1#E18BFC379369
(1786745777.410653) can0 1CECFFF1#20120003FF19F000
(1786745777.411643) can0 1CEBFFF1#01000B0000030400
(1786745777.412624) can0 1CEBFFF1#02000634FFFFEC81
(1786745777.413626) can0 1CEBFFF1#03FD7D38F5FFFFFF
(1786745777.438629) can0 18F015F1#000043CC4A3F4643
(1786745777.443917) can0 18FEF1F8#FF0000FFFFFFFFFF
(1786745777.445060) can0 18F005F8#7CFFFF7CFFFFFFFF
(1786745777.510756) can0 1CECFFF1#20120003FF19F000
(1786745777.511682) can0 1CEBFFF1#01000B0000030400
(1786745777.512626) can0 1CEBFFF1#02000634FFFFEC81
(1786745777.513622) can0 1CEBFFF1#03FD7D38F5FFFFFF
(1786745777.539637) can0 18F015F1#000043CC4A3F4643
(1786745777.543904) can0 18FEF1F8#FF0000FFFFFFFFFF
(1786745777.545116) can0 18F005F8#7CFFFF7CFFFFFFFF
(1786745777.610688) can0 1CECFFF1#20120003FF19F000
(1786745777.611633) can0 1CEBFFF1#01000B0000030400
(1786745777.612661) can0 1CEBFFF1#02000634FFFFEC81
(1786745777.613646) can0 1CEBFFF1#03FD7D38F5FFFFFF
(1786745777.639661) can0 18F015F1#000043CC4A3F4643
(1786745777.644004) can0 18FEF1F8#FF0000FFFFFFFFFF
(1786745777.645121) can0 18F005F8#7CFFFF7CFFFFFFFF
(1786745777.710671) can0 1CECFFF1#20120003FF19F000
(1786745777.711635) can0 1CEBFFF1#01000B0000030400
(1786745777.712651) can0 1CEBFFF1#02000634FFFFEC81
(1786745777.713640) can0 1CEBFFF1#03FD7CF834FFFFFF
(1786745777.739631) can0 18F015F1#000043CB4A3F4643
(1786745777.743892) can0 18FEF1F8#FF0000FFFFFFFFFF
(1786745777.745011) can0 18F005F8#7CFFFF7CFFFFFFFF
(1786745777.810669) can0 1CECFFF1#20120003FF19F000
(1786745777.811633) can0 1CEBFFF1#01000B0000030400
(1786745777.812618) can0 1CEBFFF1#02000634FFFFEC81
(1786745777.813637) can0 1CEBFFF1#03FD7CF834FFFFFF
(1786745777.840838) can0 18F015F1#000043CC4A3F4643
(1786745777.843964) can0 18FEF1F8#FF0000FFFFFFFFFF
(1786745777.845118) can0 18F005F8#7CFFFF7CFFFFFFFF
(1786745777.910779) can0 1CECFFF1#20120003FF19F000
(1786745777.911687) can0 1CEBFFF1#01000B0000030400
(1786745777.912666) can0 1CEBFFF1#02000634FFFFEC81
(1786745777.913733) can0 1CEBFFF1#03FD7D38F5FFFFFF
(1786745777.939808) can0 18F015F1#000043CC4A3F4644
(1786745777.944464) can0 18FEF1F8#FF0000FFFFFFFFFF
(1786745777.945608) can0 18F005F8#7CFFFF7CFFFFFFFF
(1786745778.010717) can0 1CECFFF1#20120003FF19F000
(1786745778.011655) can0 1CEBFFF1#01000B0000030400
(1786745778.012633) can0 1CEBFFF1#02000634FFFFEC81
(1786745778.013679) can0 1CEBFFF1#03FD7D38F5FFFFFF
(1786745778.039656) can0 18F015F1#000043CC4A3E4643
(1786745778.043985) can0 18FEF1F8#FF0000FFFFFFFFFF
(1786745778.045179) can0 18F005F8#7CFFFF7CFFFFFFFF
(1786745778.110667) can0 1CECFFF1#20120003FF19F000
(1786745778.111641) can0 1CEBFFF1#01000B0000030400
(1786745778.112623) can0 1CEBFFF1#02000634FFFFEC81
(1786745778.113643) can0 1CEBFFF1#03FD7CF834FFFFFF
(1786745778.139635) can0 18F015F1#000043CB4A3F4643
(1786745778.143893) can0 18FEF1F8#FF0000FFFFFFFFFF
(1786745778.145074) can0 18F005F8#7CFFFF7CFFFFFFFF
(1786745778.211697) can0 1CECFFF1#20120003FF19F000
(1786745778.212644) can0 1CEBFFF1#01000B0000030400
(1786745778.213654) can0 1CEBFFF1#02000634FFFFEC81
(1786745778.214656) can0 1CEBFFF1#03FD7CF834FFFFFF
(1786745778.240696) can0 18F015F1#000043CC4A3F4643
(1786745778.243917) can0 18FEF1F8#FF0000FFFFFFFFFF
(1786745778.245032) can0 18F005F8#7CFFFF7CFFFFFFFF
(1786745778.311672) can0 1CECFFF1#20120003FF19F000
(1786745778.312640) can0 1CEBFFF1#01000B0000030400
(1786745778.313624) can0 1CEBFFF1#02000634FFFFEC81
(1786745778.314636) can0 1CEBFFF1#03FD7CF834FFFFFF
(1786745778.340682) can0 18F015F1#000043CB4A3F4644
(1786745778.343899) can0 18FEF1F8#FF0000FFFFFFFFFF
(1786745778.345053) can0 18F005F8#7CFFFF7CFFFFFFFF
(1786745778.350558) can0 18F017F1#E8B002AB97C4
(1786745778.351012) can0 18F018F1#DFDCFC8493B7
(1786745778.411656) can0 1CECFFF1#20120003FF19F000
(1786745778.412650) can0 1CEBFFF1#01000B0000030400
(1786745778.413636) can0 1CEBFFF1#02000634FFFFEC81
(1786745778.414643) can0 1CEBFFF1#03FD7CF834FFFFFF
(1786745778.440627) can0 18F015F1#000043CB4A3F4643
(1786745778.443924) can0 18FEF1F8#FF0000FFFFFFFFFF
(1786745778.445089) can0 18F005F8#7CFFFF7CFFFFFFFF
(1786745778.511664) can0 1CECFFF1#20120003FF19F000
(1786745778.512644) can0 1CEBFFF1#01000B0000030400
(1786745778.513631) can0 1CEBFFF1#02000634FFFFEC81
(1786745778.514647) can0 1CEBFFF1#03FD7CF834FFFFFF
(1786745778.540633) can0 18F015F1#000043CB4A3F4643
(1786745778.543903) can0 18FEF1F8#FF0000FFFFFFFFFF
(1786745778.545070) can0 18F005F8#7CFFFF7CFFFFFFFF
(1786745778.611681) can0 1CECFFF1#20120003FF19F000
(1786745778.612646) can0 1CEBFFF1#01000B0000030400
(1786745778.613622) can0 1CEBFFF1#02000634FFFFEC81
(1786745778.614633) can0 1CEBFFF1#03FD7CF834FFFFFF
(1786745778.640745) can0 18F015F1#000043CB4A3F4643
(1786745778.643948) can0 18FEF1F8#FF0000FFFFFFFFFF
(1786745778.645066) can0 18F005F8#7CFFFF7CFFFFFFFF
(1786745778.711666) can0 1CECFFF1#20120003FF19F000
(1786745778.712648) can0 1CEBFFF1#01000B0000030400
(1786745778.713639) can0 1CEBFFF1#02000634FFFFEC81
(1786745778.714649) can0 1CEBFFF1#03FD7CF834FFFFFF
(1786745778.740633) can0 18F015F1#000043CB4A3F4643
(1786745778.743879) can0 18FEF1F8#FF0000FFFFFFFFFF
(1786745778.744999) can0 18F005F8#7CFFFF7CFFFFFFFF
(1786745778.812653) can0 1CECFFF1#20120003FF19F000
(1786745778.813643) can0 1CEBFFF1#01000B0000030400
(1786745778.814630) can0 1CEBFFF1#02000634FFFFEC81
(1786745778.815646) can0 1CEBFFF1#03FD7CF834FFFFFF
(1786745778.841689) can0 18F015F1#000043CB4A3F4643
(1786745778.843903) can0 18FEF1F8#FF0000FFFFFFFFFF
(1786745778.845012) can0 18F005F8#7CFFFF7CFFFFFFFF
(1786745778.912952) can0 1CECFFF1#20120003FF19F000
(1786745778.913644) can0 1CEBFFF1#01000B0000030400
(1786745778.914625) can0 1CEBFFF1#02000634FFFFEC81
(1786745778.915636) can0 1CEBFFF1#03FD7CF834FFFFFF
(1786745778.940720) can0 18F015F1#000043CB4A3E4643
(1786745778.944274) can0 18FEF1F8#FF0000FFFFFFFFFF
(1786745778.945390) can0 18F005F8#7CFFFF7CFFFFFFFF
(1786745779.012665) can0 1CECFFF1#20120003FF19F000
(1786745779.013657) can0 1CEBFFF1#01000B0000030400
(1786745779.014645) can0 1CEBFFF1#02000634FFFFEC81
(1786745779.015655) can0 1CEBFFF1#03FD7CF834FFFFFF
(1786745779.041634) can0 18F015F1#000043CB4A3F4643
(1786745779.043890) can0 18FEF1F8#FF0000FFFFFFFFFF
(1786745779.045024) can0 18F005F8#7CFFFF7CFFFFFFFF
(1786745779.112659) can0 1CECFFF1#20120003FF19F000
(1786745779.113656) can0 1CEBFFF1#01000B0000030400
(1786745779.114641) can0 1CEBFFF1#02000634FFFFEC81
(1786745779.115657) can0 1CEBFFF1#03FD7CF834FFFFFF
(1786745779.141663) can0 18F015F1#000043CB4A3F4643
(1786745779.143906) can0 18FEF1F8#FF0000FFFFFFFFFF
(1786745779.145037) can0 18F005F8#7CFFFF7CFFFFFFFF
(1786745779.212667) can0 1CECFFF1#20120003FF19F000
(1786745779.213651) can0 1CEBFFF1#01000B0000030400
(1786745779.214635) can0 1CEBFFF1#02000634FFFFEC81
(1786745779.215647) can0 1CEBFFF1#03FD7CF834FFFFFF
(1786745779.241623) can0 18F015F1#000043CB4A3E4643
(1786745779.243894) can0 18FEF1F8#FF0000FFFFFFFFFF
(1786745779.245024) can0 18F005F8#7CFFFF7CFFFFFFFF
(1786745779.312659) can0 1CECFFF1#20120003FF19F000
(1786745779.313645) can0 1CEBFFF1#01000B0000030400
(1786745779.314628) can0 1CEBFFF1#02000634FFFFEC81
(1786745779.315640) can0 1CEBFFF1#03FD7CF834FFFFFF
(1786745779.342629) can0 18F015F1#000043CB4A3F4643
(1786745779.343872) can0 18FEF1F8#FF0000FFFFFFFFFF
(1786745779.344989) can0 18F005F8#7CFFFF7CFFFFFFFF
(1786745779.351544) can0 18F017F1#E8B002AB97C4
(1786745779.352017) can0 18F018F1#DFDCFC8493B7
(1786745779.412654) can0 1CECFFF1#20120003FF19F000
(1786745779.413650) can0 1CEBFFF1#01000B0000030400
(1786745779.414637) can0 1CEBFFF1#02000634FFFFEC81
(1786745779.415650) can0 1CEBFFF1#03FD7CF834FFFFFF
(1786745779.441627) can0 18F015F1#000043CB4A3F4643
(1786745779.443916) can0 18FEF1F8#FF0000FFFFFFFFFF
(1786745779.445051) can0 18F005F8#7CFFFF7CFFFFFFFF
(1786745779.512667) can0 1CECFFF1#20120003FF19F000
(1786745779.513664) can0 1CEBFFF1#01000B0000030400
(1786745779.514647) can0 1CEBFFF1#02000634FFFFEC81
(1786745779.515660) can0 1CEBFFF1#03FD7CF834FFFFFF
(1786745779.541639) can0 18F015F1#000043CB4A3F4643
(1786745779.543893) can0 18FEF1F8#FF0000FFFFFFFFFF
(1786745779.545034) can0 18F005F8#7CFFFF7CFFFFFFFF
(1786745779.613701) can0 1CECFFF1#20120003FF19F000
(1786745779.614650) can0 1CEBFFF1#01000B0000030400
(1786745779.615630) can0 1CEBFFF1#02000634FFFFEC81
(1786745779.616763) can0 1CEBFFF1#03FD7CF834FFFFFF
(1786745779.642768) can0 18F015F1#000043CB4A3F4643
(1786745779.644157) can0 18FEF1F8#FF0000FFFFFFFFFF
(1786745779.645306) can0 18F005F8#7CFFFF7CFFFFFFFF
(1786745779.713657) can0 1CECFFF1#20120003FF19F000
(1786745779.714650) can0 1CEBFFF1#01000B0000030400
(1786745779.715640) can0 1CEBFFF1#02000634FFFFEC81
(1786745779.716652) can0 1CEBFFF1#03FD7CF834FFFFFF
(1786745779.742626) can0 18F015F1#000043CA4A3F4643
(1786745779.743872) can0 18FEF1F8#FF0000FFFFFFFFFF
(1786745779.744984) can0 18F005F8#7CFFFF7CFFFFFFFF
(1786745779.813663) can0 1CECFFF1#20120003FF19F000
(1786745779.814661) can0 1CEBFFF1#01000B0000030400
(1786745779.815646) can0 1CEBFFF1#02000634FFFFEC81
(1786745779.816659) can0 1CEBFFF1#03FD7CF834FFFFFF
(1786745779.842695) can0 18F015F1#000043CB4A3F4643
(1786745779.843942) can0 18FEF1F8#FF0000FFFFFFFFFF
(1786745779.845051) can0 18F005F8#7CFFFF7CFFFFFFFF
(1786745779.914228) can0 1CECFFF1#20120003FF19F000
(1786745779.914692) can0 1CEBFFF1#01000B0000030400
(1786745779.915675) can0 1CEBFFF1#02000634FFFFEC81
(1786745779.916680) can0 1CEBFFF1#03FD7CF834FFFFFF
(1786745779.942716) can0 18F015F1#000043CB4A3E4643
(1786745779.944191) can0 18FEF1F8#FF0000FFFFFFFFFF
(1786745779.945334) can0 18F005F8#7CFFFF7CFFFFFFFF
(1786745780.013693) can0 1CECFFF1#20120003FF19F000
(1786745780.014649) can0 1CEBFFF1#01000B0000030400
(1786745780.015639) can0 1CEBFFF1#02000634FFFFEC81
(1786745780.016657) can0 1CEBFFF1#03FD7B3A75FFFFFF
(1786745780.042676) can0 18F015F1#000043CA4A3E4643
(1786745780.043936) can0 18FEF1F8#FF0000FFFFFFFFFF
(1786745780.045045) can0 18F005F8#7CFFFF7CFFFFFFFF
(1786745780.113693) can0 1CECFFF1#20120003FF19F000
(1786745780.114673) can0 1CEBFFF1#01000B0000030400
(1786745780.115648) can0 1CEBFFF1#02000634FFFFEC81
(1786745780.116648) can0 1CEBFFF1#03FD7B3A75FFFFFF
(1786745780.143009) can0 18F015F1#000043CA4A3E4643
(1786745780.145099) can0 18FEF1F8#FF0000FFFFFFFFFF
(1786745780.146389) can0 18F005F8#7CFFFF7CFFFFFFFF
(1786745780.213761) can0 1CECFFF1#20120003FF19F000
(1786745780.214656) can0 1CEBFFF1#01000B0000030400
(1786745780.215710) can0 1CEBFFF1#02000634FFFFEC81
(1786745780.216638) can0 1CEBFFF1#03FD7B3A75FFFFFF
(1786745780.242660) can0 18F015F1#000043CA4A3E4643
(1786745780.243909) can0 18FEF1F8#FF0000FFFFFFFFFF
(1786745780.245051) can0 18F005F8#7CFFFF7CFFFFFFFF
(1786745780.313663) can0 1CECFFF1#20120003FF19F000
(1786745780.314649) can0 1CEBFFF1#01000B0000030400
(1786745780.315632) can0 1CEBFFF1#02000634FFFFEC81
(1786745780.316636) can0 1CEBFFF1#03FD7B3A75FFFFFF
(1786745780.343628) can0 18F015F1#000043CA4A3E4643
(1786745780.344181) can0 18FEF1F8#FF0000FFFFFFFFFF
(1786745780.345290) can0 18F005F8#7CFFFF7CFFFFFFFF
(1786745780.353543) can0 18F017F1#E8EF03B29771
(1786745780.354011) can0 18F018F1#E1C4FCAD936E
(1786745780.414777) can0 1CECFFF1#20120003FF19F000
(1786745780.415672) can0 1CEBFFF1#01000B0000030400
(1786745780.416660) can0 1CEBFFF1#02000634FFFFEC81
(1786745780.417653) can0 1CEBFFF1#03FD7B3A75FFFFFF
(1786745780.444652) can0 18F015F1#000043CA4A3F4643
(1786745780.445996) can0 18FEF1F8#FF0000FFFFFFFFFF
(1786745780.447125) can0 18F005F8#7CFFFF7CFFFFFFFF
(1786745780.514691) can0 1CECFFF1#20120003FF19F000
(1786745780.515655) can0 1CEBFFF1#01000B0000030400
(1786745780.516647) can0 1CEBFFF1#02000634FFFFEC81
(1786745780.517639) can0 1CEBFFF1#03FD7B3A75FFFFFF
(1786745780.543636) can0 18F015F1#000043CA4A3E4643
(1786745780.544192) can0 18FEF1F8#FF0000FFFFFFFFFF
(1786745780.545313) can0 18F005F8#7CFFFF7CFFFFFFFF
(1786745780.614727) can0 1CECFFF1#20120003FF19F000
(1786745780.615716) can0 1CEBFFF1#01000B0000030400
(1786745780.616696) can0 1CEBFFF1#02000634FFFFEC81
(1786745780.617666) can0 1CEBFFF1#03FD7B3A75FFFFFF
(1786745780.643649) can0 18F015F1#000043CA4A3E4643
(1786745780.644196) can0 18FEF1F8#FF0000FFFFFFFFFF
(1786745780.645326) can0 18F005F8#7CFFFF7CFFFFFFFF
(1786745780.714688) can0 1CECFFF1#20120003FF19F000
(1786745780.715655) can0 1CEBFFF1#01000B0000030400
(1786745780.716643) can0 1CEBFFF1#02000634FFFFEC81
(1786745780.717638) can0 1CEBFFF1#03FD7B3A75FFFFFF
(1786745780.743633) can0 18F015F1#000043CA4A3F4643
(1786745780.744186) can0 18FEF1F8#FF0000FFFFFFFFFF
(1786745780.745291) can0 18F005F8#7CFFFF7CFFFFFFFF
(1786745780.814677) can0 1CECFFF1#20120003FF19F000
(1786745780.815671) can0 1CEBFFF1#01000B0000030400
(1786745780.816653) can0 1CEBFFF1#02000634FFFFEC81
(1786745780.817655) can0 1CEBFFF1#03FD7B3A75FFFFFF
(1786745780.843969) can0 18FEF1F8#FF0000FFFFFFFFFF
(1786745780.844638) can0 18F015F1#000043CA4A3F4643
(1786745780.845194) can0 18F005F8#7CFFFF7CFFFFFFFF
(1786745780.914775) can0 1CECFFF1#20120003FF19F000
(1786745780.915716) can0 1CEBFFF1#01000B0000030400
(1786745780.916679) can0 1CEBFFF1#02000634FFFFEC81
(1786745780.917682) can0 1CEBFFF1#03FD7B3A75FFFFFF
(1786745780.944301) can0 18F015F1#000043CA4A3F4643
(1786745780.944776) can0 18FEF1F8#FF0000FFFFFFFFFF
(1786745780.946048) can0 18F005F8#7CFFFF7CFFFFFFFF
(1786745781.014689) can0 1CECFFF1#20120003FF19F000
(1786745781.015660) can0 1CEBFFF1#01000B0000030400
(1786745781.016673) can0 1CEBFFF1#02000634FFFFEC81
(1786745781.017657) can0 1CEBFFF1#03FD7B3A75FFFFFF
(1786745781.043641) can0 18F015F1#000043CA4A3F4643
(1786745781.044194) can0 18FEF1F8#FF0000FFFFFFFFFF
(1786745781.045324) can0 18F005F8#7CFFFF7CFFFFFFFF
(1786745781.114676) can0 1CECFFF1#20120003FF19F000
(1786745781.115663) can0 1CEBFFF1#01000B0000030400
(1786745781.116654) can0 1CEBFFF1#02000634FFFFEC81
(1786745781.117650) can0 1CEBFFF1#03FD7B3A75FFFFFF
(1786745781.143653) can0 18F015F1#000043CA4A3F4643
(1786745781.144228) can0 18FEF1F8#FF0000FFFFFFFFFF
(1786745781.145415) can0 18F005F8#7CFFFF7CFFFFFFFF
(1786745781.215678) can0 1CECFFF1#20120003FF19F000
(1786745781.216665) can0 1CEBFFF1#01000B0000030400
(1786745781.217649) can0 1CEBFFF1#02000634FFFFEC81
(1786745781.218651) can0 1CEBFFF1#03FD7B3A75FFFFFF
(1786745781.243894) can0 18FEF1F8#FF0000FFFFFFFFFF
(1786745781.244638) can0 18F015F1#000043CA4A3F4643
(1786745781.245199) can0 18F005F8#7CFFFF7CFFFFFFFF
(1786745781.315696) can0 1CECFFF1#20120003FF19F000
(1786745781.316672) can0 1CEBFFF1#01000B0000030400
(1786745781.317660) can0 1CEBFFF1#02000634FFFFEC81
(1786745781.318658) can0 1CEBFFF1#03FD7B3A75FFFFFF
(1786745781.343889) can0 18FEF1F8#FF0000FFFFFFFFFF
(1786745781.344640) can0 18F015F1#000043CA4A3F4643
(1786745781.345199) can0 18F005F8#7CFFFF7CFFFFFFFF
(1786745781.354579) can0 18F017F1#E8EF03B29771
(1786745781.355030) can0 18F018F1#E1C4FCAD936E
(1786745781.415678) can0 1CECFFF1#20120003FF19F000
(1786745781.416669) can0 1CEBFFF1#01000B0000030400
(1786745781.417652) can0 1CEBFFF1#02000634FFFFEC81
(1786745781.418651) can0 1CEBFFF1#03FD7B3A75FFFFFF
(1786745781.443899) can0 18FEF1F8#FF0000FFFFFFFFFF
(1786745781.444633) can0 18F015F1#000043C94A3F4643
(1786745781.445194) can0 18F005F8#7CFFFF7CFFFFFFFF
(1786745781.515682) can0 1CECFFF1#20120003FF19F000
(1786745781.516662) can0 1CEBFFF1#01000B0000030400
(1786745781.517650) can0 1CEBFFF1#02000634FFFFEC81
(1786745781.518649) can0 1CEBFFF1#03FD7AFAB4FFFFFF
(1786745781.543881) can0 18FEF1F8#FF0000FFFFFFFFFF
(1786745781.544642) can0 18F015F1#000043CA4A3F4643
(1786745781.545199) can0 18F005F8#7CFFFF7CFFFFFFFF
(1786745781.615741) can0 1CECFFF1#20120003FF19F000
(1786745781.616677) can0 1CEBFFF1#01000B0000030400
(1786745781.617656) can0 1CEBFFF1#02000634FFFFEC81
(1786745781.618661) can0 1CEBFFF1#03FD7B3A75FFFFFF
(1786745781.644053) can0 18FEF1F8#FF0000FFFFFFFFFF
(1786745781.644701) can0 18F015F1#000043CA4A3F4643
(1786745781.645209) can0 18F005F8#7CFFFF7CFFFFFFFF
(1786745781.715693) can0 1CECFFF1#20120003FF19F000
(1786745781.716674) can0 1CEBFFF1#01000B0000030400
(1786745781.717656) can0 1CEBFFF1#02000634FFFFEC81
(1786745781.718656) can0 1CEBFFF1#03FD7AFAB4FFFFFF
(1786745781.743903) can0 18FEF1F8#FF0000FFFFFFFFFF
(1786745781.744644) can0 18F015F1#000043C94A3F4643
(1786745781.745195) can0 18F005F8#7CFFFF7CFFFFFFFF
(1786745781.815674) can0 1CECFFF1#20120003FF19F000
(1786745781.816666) can0 1CEBFFF1#01000B0000030400
(1786745781.817647) can0 1CEBFFF1#02000634FFFFEC81
(1786745781.818644) can0 1CEBFFF1#03FD7AFAB4FFFFFF
(1786745781.843960) can0 18FEF1F8#FF0000FFFFFFFFFF
(1786745781.845091) can0 18F005F8#7CFFFF7CFFFFFFFF
(1786745781.845667) can0 18F015F1#000043C94A3F4643
(1786745781.916943) can0 1CECFFF1#20120003FF19F000
(1786745781.917724) can0 1CEBFFF1#01000B0000030400
(1786745781.918690) can0 1CEBFFF1#02000634FFFFEC81
(1786745781.919732) can0 1CEBFFF1#03FD7AFAB4FFFFFF
(1786745781.944825) can0 18FEF1F8#FF0000FFFFFFFFFF
(1786745781.945667) can0 18F015F1#000043C94A3F4643
(1786745781.946246) can0 18F005F8#7CFFFF7CFFFFFFFF
(1786745782.016729) can0 1CECFFF1#20120003FF19F000
(1786745782.017677) can0 1CEBFFF1#01000B0000030400
(1786745782.018660) can0 1CEBFFF1#02000634FFFFEC81
(1786745782.019657) can0 1CEBFFF1#03FD7AFAB4FFFFFF
(1786745782.043992) can0 18FEF1F8#FF0000FFFFFFFFFF
(1786745782.045162) can0 18F005F8#7CFFFF7CFFFFFFFF
(1786745782.045738) can0 18F015F1#000043C94A3F4643
(1786745782.116706) can0 1CECFFF1#20120003FF19F000
(1786745782.117675) can0 1CEBFFF1#01000B0000030400
(1786745782.118658) can0 1CEBFFF1#02000634FFFFEC81
(1786745782.119657) can0 1CEBFFF1#03FD7AFAB4FFFFFF
(1786745782.143916) can0 18FEF1F8#FF0000FFFFFFFFFF
(1786745782.145017) can0 18F005F8#7CFFFF7CFFFFFFFF
(1786745782.145637) can0 18F015F1#000043C94A3F4643
(1786745782.216697) can0 1CECFFF1#20120003FF19F000
(1786745782.217669) can0 1CEBFFF1#01000B0000030400
(1786745782.218646) can0 1CEBFFF1#02000634FFFFEC81
(1786745782.219663) can0 1CEBFFF1#03FD7AFAB4FFFFFF
(1786745782.243916) can0 18FEF1F8#FF0000FFFFFFFFFF
(1786745782.245047) can0 18F005F8#7CFFFF7CFFFFFFFF
(1786745782.245636) can0 18F015F1#000043C94A3F4643
(1786745782.316712) can0 1CECFFF1#20120003FF19F000
(1786745782.317677) can0 1CEBFFF1#01000B0000030400
(1786745782.318659) can0 1CEBFFF1#02000634FFFFEC81
(1786745782.319655) can0 1CEBFFF1#03FD7AFAB4FFFFFF
(1786745782.343908) can0 18FEF1F8#FF0000FFFFFFFFFF
(1786745782.345023) can0 18F005F8#7CFFFF7CFFFFFFFF
(1786745782.346647) can0 18F015F1#000043C94A3F4643
(1786745782.355575) can0 18F017F1#E90202BE9815
(1786745782.356072) can0 18F018F1#E1B6FC4D9351
(1786745782.416707) can0 1CECFFF1#20120003FF19F000
(1786745782.417665) can0 1CEBFFF1#01000B0000030400
(1786745782.418677) can0 1CEBFFF1#02000634FFFFEC81
(1786745782.419683) can0 1CEBFFF1#03FD7AFAB4FFFFFF
(1786745782.444279) can0 18FEF1F8#FF0000FFFFFFFFFF
(1786745782.445584) can0 18F005F8#7CFFFF7CFFFFFFFF
(1786745782.446177) can0 18F015F1#000043C94A3F4643
(1786745782.516694) can0 1CECFFF1#20120003FF19F000
(1786745782.517669) can0 1CEBFFF1#01000B0000030400
(1786745782.518652) can0 1CEBFFF1#02000634FFFFEC81
(1786745782.519650) can0 1CEBFFF1#03FD7AFAB4FFFFFF
(1786745782.543919) can0 18FEF1F8#FF0000FFFFFFFFFF
(1786745782.545038) can0 18F005F8#7CFFFF7CFFFFFFFF
(1786745782.545658) can0 18F015F1#000043C94A3F4643
(1786745782.616773) can0 1CECFFF1#20120003FF19F000
(1786745782.617690) can0 1CEBFFF1#01000B0000030400
(1786745782.618696) can0 1CEBFFF1#02000634FFFFEC81
(1786745782.619669) can0 1CEBFFF1#03FD7AFAB4FFFFFF
(1786745782.644160) can0 18FEF1F8#FF0000FFFFFFFFFF
(1786745782.645332) can0 18F005F8#7CFFFF7CFFFFFFFF
(1786745782.645932) can0 18F015F1#000043C94A3F4643
(1786745782.717731) can0 1CECFFF1#20120003FF19F000
(1786745782.718685) can0 1CEBFFF1#01000B0000030400
(1786745782.719670) can0 1CEBFFF1#02000634FFFFEC81
(1786745782.720669) can0 1CEBFFF1#03FD7AFAB4FFFFFF
(1786745782.743966) can0 18FEF1F8#FF0000FFFFFFFFFF
(1786745782.745196) can0 18F005F8#7CFFFF7CFFFFFFFF
(1786745782.746662) can0 18F015F1#000043C94A3F4643
(1786745782.817708) can0 1CECFFF1#20120003FF19F000
(1786745782.818684) can0 1CEBFFF1#01000B0000030400
(1786745782.819663) can0 1CEBFFF1#02000634FFFFEC81
(1786745782.820660) can0 1CEBFFF1#03FD7AFAB4FFFFFF
(1786745782.843952) can0 18FEF1F8#FF0000FFFFFFFFFF
(1786745782.845089) can0 18F005F8#7CFFFF7CFFFFFFFF
(1786745782.846657) can0 18F015F1#000043C94A3F4643
(1786745782.917793) can0 1CECFFF1#20120003FF19F000
(1786745782.918720) can0 1CEBFFF1#01000B0000030400
(1786745782.919726) can0 1CEBFFF1#02000634FFFFEC81
(1786745782.920695) can0 1CEBFFF1#03FD7AFAB4FFFFFF
(1786745782.944582) can0 18FEF1F8#FF0000FFFFFFFFFF
(1786745782.945713) can0 18F005F8#7CFFFF7CFFFFFFFF
(1786745782.946645) can0 18F015F1#000043C94A3F4643
(1786745783.017696) can0 1CECFFF1#20120003FF19F000
(1786745783.018680) can0 1CEBFFF1#01000B0000030400
(1786745783.019663) can0 1CEBFFF1#02000634FFFFEC81
(1786745783.020663) can0 1CEBFFF1#03FD7AFAB4FFFFFF
(1786745783.043912) can0 18FEF1F8#FF0000FFFFFFFFFF
(1786745783.045046) can0 18F005F8#7CFFFF7CFFFFFFFF
(1786745783.046648) can0 18F015F1#000043C94A3F4643
(1786745783.117694) can0 1CECFFF1#20120003FF19F000
(1786745783.118680) can0 1CEBFFF1#01000B0000030400
(1786745783.119664) can0 1CEBFFF1#02000634FFFFEC81
(1786745783.120665) can0 1CEBFFF1#03FD7AFAB4FFFFFF
(1786745783.143921) can0 18FEF1F8#FF0000FFFFFFFFFF
(1786745783.145059) can0 18F005F8#7CFFFF7CFFFFFFFF
(1786745783.146650) can0 18F015F1#000043C94A3F4643
(1786745783.217690) can0 1CECFFF1#20120003FF19F000
(1786745783.218676) can0 1CEBFFF1#01000B0000030400
(1786745783.219664) can0 1CEBFFF1#02000634FFFFEC81
(1786745783.220661) can0 1CEBFFF1#03FD7AFAB4FFFFFF
(1786745783.243915) can0 18FEF1F8#FF0000FFFFFFFFFF
(1786745783.245084) can0 18F005F8#7CFFFF7CFFFFFFFF
(1786745783.246666) can0 18F015F1#000043C94A3F4643
(1786745783.317690) can0 1CECFFF1#20120003FF19F000
(1786745783.318675) can0 1CEBFFF1#01000B0000030400
(1786745783.319666) can0 1CEBFFF1#02000634FFFFEC81
(1786745783.320706) can0 1CEBFFF1#03FD7AFAB4FFFFFF
(1786745783.343891) can0 18FEF1F8#FF0000FFFFFFFFFF
(1786745783.344996) can0 18F005F8#7CFFFF7CFFFFFFFF
(1786745783.347643) can0 18F015F1#000043C94A3F4643
(1786745783.356578) can0 18F017F1#E90202BE9815
(1786745783.357043) can0 18F018F1#E1B6FC4D9351
(1786745783.417685) can0 1CECFFF1#20120003FF19F000
(1786745783.418674) can0 1CEBFFF1#01000B0000030400
(1786745783.419664) can0 1CEBFFF1#02000634FFFFEC81
(1786745783.420663) can0 1CEBFFF1#03FD7AFAB4FFFFFF
(1786745783.443969) can0 18FEF1F8#FF0000FFFFFFFFFF
(1786745783.445084) can0 18F005F8#7CFFFF7CFFFFFFFF
(1786745783.447652) can0 18F015F1#000043C84A3F4643
(1786745783.518691) can0 1CECFFF1#20120003FF19F000
(1786745783.519681) can0 1CEBFFF1#01000B0000030400
(1786745783.520657) can0 1CEBFFF1#02000634FFFFEC81
(1786745783.521664) can0 1CEBFFF1#03FD79FBF4FFFFFF
(1786745783.543902) can0 18FEF1F8#FF0000FFFFFFFFFF
(1786745783.545010) can0 18F005F8#7CFFFF7CFFFFFFFF
(1786745783.547683) can0 18F015F1#000043C84A3F4643
(1786745783.618717) can0 1CECFFF1#20120003FF19F000
(1786745783.619690) can0 1CEBFFF1#01000B0000030400
(1786745783.620710) can0 1CEBFFF1#02000634FFFFEC81
(1786745783.622129) can0 1CEBFFF1#03FD79FBF4FFFFFF
(1786745783.644100) can0 18FEF1F8#FF0000FFFFFFFFFF
(1786745783.645238) can0 18F005F8#7CFFFF7CFFFFFFFF
(1786745783.647684) can0 18F015F1#000043C84A3F4643
(1786745783.718723) can0 1CECFFF1#20120003FF19F000
(1786745783.719695) can0 1CEBFFF1#01000B0000030400
(1786745783.720688) can0 1CEBFFF1#02000634FFFFEC81
(1786745783.721684) can0 1CEBFFF1#03FD79FBF4FFFFFF
(1786745783.743936) can0 18FEF1F8#FF0000FFFFFFFFFF
(1786745783.745082) can0 18F005F8#7CFFFF7CFFFFFFFF
(1786745783.747666) can0 18F015F1#000043C84A3F4643
(1786745783.818708) can0 1CECFFF1#20120003FF19F000
(1786745783.819690) can0 1CEBFFF1#01000B0000030400
(1786745783.820680) can0 1CEBFFF1#02000634FFFFEC81
(1786745783.821706) can0 1CEBFFF1#03FD79FBF4FFFFFF
(1786745783.844002) can0 18FEF1F8#FF0000FFFFFFFFFF
(1786745783.845222) can0 18F005F8#7CFFFF7CFFFFFFFF
(1786745783.848663) can0 18F015F1#000043C84A3F4643
(1786745783.918707) can0 1CECFFF1#20120003FF19F000
(1786745783.919675) can0 1CEBFFF1#01000B0000030400
(1786745783.920661) can0 1CEBFFF1#02000634FFFFEC81
(1786745783.921711) can0 1CEBFFF1#03FD79FBF4FFFFFF
(1786745783.944404) can0 18FEF1F8#FF0000FFFFFFFFFF
(1786745783.945525) can0 18F005F8#7CFFFF7CFFFFFFFF
(1786745783.947678) can0 18F015F1#000043C84A3F4643
(1786745784.018748) can0 1CECFFF1#20120003FF19F000
(1786745784.019687) can0 1CEBFFF1#01000B0000030400
(1786745784.020670) can0 1CEBFFF1#02000634FFFFEC81
(1786745784.021675) can0 1CEBFFF1#03FD79FBF4FFFFFF
(1786745784.043967) can0 18FEF1F8#FF0000FFFFFFFFFF
(1786745784.045109) can0 18F005F8#7CFFFF7CFFFFFFFF
(1786745784.047706) can0 18F015F1#000043C84A3F4643
(1786745784.119701) can0 1CECFFF1#20120003FF19F000
(1786745784.120687) can0 1CEBFFF1#01000B0000030400
(1786745784.121671) can0 1CEBFFF1#02000634FFFFEC81
(1786745784.122680) can0 1CEBFFF1#03FD79FBF4FFFFFF
(1786745784.143928) can0 18FEF1F8#FF0000FFFFFFFFFF
(1786745784.145063) can0 18F005F8#7CFFFF7CFFFFFFFF
(1786745784.148677) can0 18F015F1#000043C84A3F4643
(1786745784.219715) can0 1CECFFF1#20120003FF19F000
(1786745784.220725) can0 1CEBFFF1#01000B0000030400
(1786745784.221666) can0 1CEBFFF1#02000634FFFFEC81
(1786745784.222675) can0 1CEBFFF1#03FD79FBF4FFFFFF
(1786745784.243914) can0 18FEF1F8#FF0000FFFFFFFFFF
(1786745784.245070) can0 18F005F8#7CFFFF7CFFFFFFFF
(1786745784.248663) can0 18F015F1#000043C84A3F4643
(1786745784.319692) can0 1CECFFF1#20120003FF19F000
(1786745784.320685) can0 1CEBFFF1#01000B0000030400
(1786745784.321670) can0 1CEBFFF1#02000634FFFFEC81
(1786745784.322681) can0 1CEBFFF1#03FD79FBF4FFFFFF
(1786745784.343879) can0 18FEF1F8#FF0000FFFFFFFFFF
(1786745784.345004) can0 18F005F8#7CFFFF7CFFFFFFFF
(1786745784.348661) can0 18F015F1#000043C84A3F4643
(1786745784.358586) can0 18F017F1#E95302F59804
(1786745784.359064) can0 18F018F1#E0FFFC7A9365
(1786745784.419686) can0 1CECFFF1#20120003FF19F000
(1786745784.420676) can0 1CEBFFF1#01000B0000030400
(1786745784.421673) can0 1CEBFFF1#02000634FFFFEC81
(1786745784.422670) can0 1CEBFFF1#03FD79FBF4FFFFFF
(1786745784.443933) can0 18FEF1F8#FF0000FFFFFFFFFF
(1786745784.445047) can0 18F005F8#7CFFFF7CFFFFFFFF
(1786745784.448657) can0 18F015F1#000043C84A3F4643
(1786745784.519697) can0 1CECFFF1#20120003FF19F000
(1786745784.520681) can0 1CEBFFF1#01000B0000030400
(1786745784.521666) can0 1CEBFFF1#02000634FFFFEC81
(1786745784.522672) can0 1CEBFFF1#03FD79FBF4FFFFFF
(1786745784.543904) can0 18FEF1F8#FF0000FFFFFFFFFF
(1786745784.545040) can0 18F005F8#7CFFFF7CFFFFFFFF
(1786745784.548691) can0 18F015F1#000043C84A3F4643
(1786745784.619927) can0 1CECFFF1#20120003FF19F000
(1786745784.620711) can0 1CEBFFF1#01000B0000030400
(1786745784.621694) can0 1CEBFFF1#02000634FFFFEC81
(1786745784.622710) can0 1CEBFFF1#03FD79FBF4FFFFFF
(1786745784.644051) can0 18FEF1F8#FF0000FFFFFFFFFF
(1786745784.645201) can0 18F005F8#7CFFFF7CFFFFFFFF
(1786745784.648664) can0 18F015F1#000043C84A3F4643
(1786745784.719712) can0 1CECFFF1#20120003FF19F000
(1786745784.720702) can0 1CEBFFF1#01000B0000030400
(1786745784.721679) can0 1CEBFFF1#02000634FFFFEC81
(1786745784.722705) can0 1CEBFFF1#03FD79FBF4FFFFFF
(1786745784.744005) can0 18FEF1F8#FF0000FFFFFFFFFF
(1786745784.745170) can0 18F005F8#7CFFFF7CFFFFFFFF
(1786745784.748725) can0 18F015F1#000043C84A3F4643
(1786745784.819734) can0 1CECFFF1#20120003FF19F000
(1786745784.820682) can0 1CEBFFF1#01000B0000030400
(1786745784.821698) can0 1CEBFFF1#02000634FFFFEC81
(1786745784.822731) can0 1CEBFFF1#03FD79FBF4FFFFFF
(1786745784.843969) can0 18FEF1F8#FF0000FFFFFFFFFF
(1786745784.845112) can0 18F005F8#7CFFFF7CFFFFFFFF
(1786745784.849674) can0 18F015F1#000043C84A3F4643
(1786745784.920725) can0 1CECFFF1#20120003FF19F000
(1786745784.921680) can0 1CEBFFF1#01000B0000030400
(1786745784.922667) can0 1CEBFFF1#02000634FFFFEC81
(1786745784.923675) can0 1CEBFFF1#03FD79FBF4FFFFFF
(1786745784.945363) can0 18FEF1F8#FF0000FFFFFFFFFF
(1786745784.946604) can0 18F005F8#7CFFFF7CFFFFFFFF
(1786745784.949660) can0 18F015F1#000043C84A3F4643
(1786745785.020761) can0 1CECFFF1#20120003FF19F000
(1786745785.021727) can0 1CEBFFF1#01000B0000030400
(1786745785.022687) can0 1CEBFFF1#02000634FFFFEC81
(1786745785.023685) can0 1CEBFFF1#03FD79FBF4FFFFFF
(1786745785.043896) can0 18FEF1F8#FF0000FFFFFFFFFF
(1786745785.045007) can0 18F005F8#7CFFFF7CFFFFFFFF
(1786745785.049665) can0 18F015F1#000043C84A3F4643
(1786745785.120701) can0 1CECFFF1#20120003FF19F000
(1786745785.121686) can0 1CEBFFF1#01000B0000030400
(1786745785.122669) can0 1CEBFFF1#02000634FFFFEC81
(1786745785.123671) can0 1CEBFFF1#03FD783B35FFFFFF
(1786745785.144218) can0 18FEF1F8#FF0000FFFFFFFFFF
(1786745785.145349) can0 18F005F8#7CFFFF7CFFFFFFFF
(1786745785.149665) can0 18F015F1#000043C74A3F4643
(1786745785.220714) can0 1CECFFF1#20120003FF19F000
(1786745785.221691) can0 1CEBFFF1#01000B0000030400
(1786745785.222675) can0 1CEBFFF1#02000634FFFFEC81
(1786745785.223678) can0 1CEBFFF1#03FD783B35FFFFFF
(1786745785.243890) can0 18FEF1F8#FF0000FFFFFFFFFF
(1786745785.244998) can0 18F005F8#7CFFFF7CFFFFFFFF
(1786745785.249663) can0 18F015F1#000043C74A3F4643
(1786745785.320709) can0 1CECFFF1#20120003FF19F000
(1786745785.321695) can0 1CEBFFF1#01000B0000030400
(1786745785.322679) can0 1CEBFFF1#02000634FFFFEC81
(1786745785.323683) can0 1CEBFFF1#03FD783B35FFFFFF
(1786745785.343901) can0 18FEF1F8#FF0000FFFFFFFFFF
(1786745785.345039) can0 18F005F8#7CFFFF7CFFFFFFFF
(1786745785.350664) can0 18F015F1#000043C74A3F4643
(1786745785.359593) can0 18F017F1#E95302F59804
(1786745785.360065) can0 18F018F1#E0FFFC7A9365
(1786745785.420874) can0 1CECFFF1#20120003FF19F000
(1786745785.421743) can0 1CEBFFF1#01000B0000030400
(1786745785.422705) can0 1CEBFFF1#02000634FFFFEC81
(1786745785.423706) can0 1CEBFFF1#03FD783B35FFFFFF
(1786745785.444172) can0 18FEF1F8#FF0000FFFFFFFFFF
(1786745785.445558) can0 18F005F8#7CFFFF7CFFFFFFFF
(1786745785.449686) can0 18F015F1#000043C74A3F4643
(1786745785.520710) can0 1CECFFF1#20120003FF19F000
(1786745785.521693) can0 1CEBFFF1#01000B0000030400
(1786745785.522679) can0 1CEBFFF1#02000634FFFFEC81
(1786745785.523690) can0 1CEBFFF1#03FD783B35FFFFFF
(1786745785.543891) can0 18FEF1F8#FF0000FFFFFFFFFF
(1786745785.545023) can0 18F005F8#7CFFFF7CFFFFFFFF
(1786745785.549702) can0 18F015F1#000043C74A3F4643
(1786745785.620880) can0 1CECFFF1#20120003FF19F000
(1786745785.621717) can0 1CEBFFF1#01000B0000030400
(1786745785.622752) can0 1CEBFFF1#02000634FFFFEC81
(1786745785.623679) can0 1CEBFFF1#03FD783B35FFFFFF
(1786745785.644260) can0 18FEF1F8#FF0000FFFFFFFFFF
(1786745785.645540) can0 18F005F8#7CFFFF7CFFFFFFFF
(1786745785.649805) can0 18F015F1#000043C74A3F4643
(1786745785.721712) can0 1CECFFF1#20120003FF19F000
(1786745785.722687) can0 1CEBFFF1#01000B0000030400
(1786745785.723670) can0 1CEBFFF1#02000634FFFFEC81
(1786745785.724672) can0 1CEBFFF1#03FD783B35FFFFFF
(1786745785.743903) can0 18FEF1F8#FF0000FFFFFFFFFF
(1786745785.745025) can0 18F005F8#7CFFFF7CFFFFFFFF
(1786745785.750668) can0 18F015F1#000043C74A3F4643
(1786745785.821795) can0 1CECFFF1#20120003FF19F000
(1786745785.822739) can0 1CEBFFF1#01000B0000030400
(1786745785.823707) can0 1CEBFFF1#02000634FFFFEC81
(1786745785.824680) can0 1CEBFFF1#03FD783B35FFFFFF
(1786745785.843940) can0 18FEF1F8#FF0000FFFFFFFFFF
(1786745785.845052) can0 18F005F8#7CFFFF7CFFFFFFFF
(1786745785.850664) can0 18F015F1#000043C74A3F4643
(1786745785.921803) can0 1CECFFF1#20120003FF19F000
(1786745785.922708) can0 1CEBFFF1#01000B0000030400
(1786745785.923708) can0 1CEBFFF1#02000634FFFFEC81
(1786745785.924748) can0 1CEBFFF1#03FD783B35FFFFFF
(1786745785.943976) can0 18FEF1F8#FF0000FFFFFFFFFF
(1786745785.945191) can0 18F005F8#7CFFFF7CFFFFFFFF
(1786745785.950771) can0 18F015F1#000043C74A3F4643
(1786745786.021745) can0 1CECFFF1#20120003FF19F000
(1786745786.022701) can0 1CEBFFF1#01000B0000030400
(1786745786.023683) can0 1CEBFFF1#02000634FFFFEC81
(1786745786.024682) can0 1CEBFFF1#03FD783B35FFFFFF
(1786745786.043939) can0 18FEF1F8#FF0000FFFFFFFFFF
(1786745786.045065) can0 18F005F8#7CFFFF7CFFFFFFFF
(1786745786.050677) can0 18F015F1#000043C74A3F4643
(1786745786.121718) can0 1CECFFF1#20120003FF19F000
(1786745786.122700) can0 1CEBFFF1#01000B0000030400
(1786745786.123688) can0 1CEBFFF1#02000634FFFFEC81
(1786745786.124689) can0 1CEBFFF1#03FD783B35FFFFFF
(1786745786.143893) can0 18FEF1F8#FF0000FFFFFFFFFF
(1786745786.145016) can0 18F005F8#7CFFFF7CFFFFFFFF
(1786745786.150886) can0 18F015F1#000043C74A3F4643
(1786745786.221730) can0 1CECFFF1#20120003FF19F000
(1786745786.222707) can0 1CEBFFF1#01000B0000030400
(1786745786.223681) can0 1CEBFFF1#02000634FFFFEC81
(1786745786.224687) can0 1CEBFFF1#03FD783B35FFFFFF
(1786745786.243911) can0 18FEF1F8#FF0000FFFFFFFFFF
(1786745786.245023) can0 18F005F8#7CFFFF7CFFFFFFFF
(1786745786.250667) can0 18F015F1#000043C74A3F4643
(1786745786.321719) can0 1CECFFF1#20120003FF19F000
(1786745786.322695) can0 1CEBFFF1#01000B0000030400
(1786745786.323682) can0 1CEBFFF1#02000634FFFFEC81
(1786745786.324687) can0 1CEBFFF1#03FD783B35FFFFFF
(1786745786.343887) can0 18FEF1F8#FF0000FFFFFFFFFF
(1786745786.344999) can0 18F005F8#7CFFFF7CFFFFFFFF
(1786745786.351664) can0 18F015F1#000043C74A3F4643
(1786745786.360598) can0 18F017F1#E86102F19838
(1786745786.361066) can0 18F018F1#E161FC7E934A
(1786745786.421711) can0 1CECFFF1#20120003FF19F000
(1786745786.422700) can0 1CEBFFF1#01000B0000030400
(1786745786.423687) can0 1CEBFFF1#02000634FFFFEC81
(1786745786.424690) can0 1CEBFFF1#03FD783B35FFFFFF
(1786745786.443926) can0 18FEF1F8#FF0000FFFFFFFFFF
(1786745786.445068) can0 18F005F8#7CFFFF7CFFFFFFFF
(1786745786.451681) can0 18F015F1#000043C74A3F4643
(1786745786.522710) can0 1CECFFF1#20120003FF19F000
(1786745786.523701) can0 1CEBFFF1#01000B0000030400
(1786745786.524687) can0 1CEBFFF1#02000634FFFFEC81
(1786745786.525693) can0 1CEBFFF1#03FD783B35FFFFFF
(1786745786.543883) can0 18FEF1F8#FF0000FFFFFFFFFF
(1786745786.545017) can0 18F005F8#7CFFFF7CFFFFFFFF
(1786745786.551737) can0 18F015F1#000043C74A3F4643
(1786745786.622883) can0 1CECFFF1#20120003FF19F000
(1786745786.623718) can0 1CEBFFF1#01000B0000030400
(1786745786.624706) can0 1CEBFFF1#02000634FFFFEC81
(1786745786.625723) can0 1CEBFFF1#03FD783B35FFFFFF
(1786745786.643983) can0 18FEF1F8#FF0000FFFFFFFFFF
(1786745786.645243) can0 18F005F8#7CFFFF7CFFFFFFFF
(1786745786.651976) can0 18F015F1#000043C74A3F4644
(1786745786.722724) can0 1CECFFF1#20120003FF19F000
(1786745786.723708) can0 1CEBFFF1#01000B0000030400
(1786745786.724697) can0 1CEBFFF1#02000634FFFFEC81
(1786745786.725699) can0 1CEBFFF1#03FD783B35FFFFFF
(1786745786.743915) can0 18FEF1F8#FF0000FFFFFFFFFF
(1786745786.745052) can0 18F005F8#7CFFFF7CFFFFFFFF
(1786745786.751691) can0 18F015F1#000043C64A3F4643
(1786745786.822775) can0 1CECFFF1#20120003FF19F000
(1786745786.823731) can0 1CEBFFF1#01000B0000030400
(1786745786.824689) can0 1CEBFFF1#02000634FFFFEC81
(1786745786.825694) can0 1CEBFFF1#03FD773F75FFFFFF
(1786745786.843946) can0 18FEF1F8#FF0000FFFFFFFFFF
(1786745786.845078) can0 18F005F8#7CFFFF7CFFFFFFFF
(1786745786.852686) can0 18F015F1#000043C64A3F4643
(1786745786.922901) can0 1CECFFF1#20120003FF19F000
(1786745786.923719) can0 1CEBFFF1#01000B0000030400
(1786745786.924755) can0 1CEBFFF1#02000634FFFFEC81
(1786745786.925711) can0 1CEBFFF1#03FD773F75FFFFFF
(1786745786.944557) can0 18FEF1F8#FF0000FFFFFFFFFF
(1786745786.945726) can0 18F005F8#7CFFFF7CFFFFFFFF
(1786745786.951706) can0 18F015F1#000043C64A3F4643
(1786745787.022744) can0 1CECFFF1#20120003FF19F000
(1786745787.023729) can0 1CEBFFF1#01000B0000030400
(1786745787.024699) can0 1CEBFFF1#02000634FFFFEC81
(1786745787.025702) can0 1CEBFFF1#03FD773F75FFFFFF
(1786745787.044081) can0 18FEF1F8#FF0000FFFFFFFFFF
(1786745787.045470) can0 18F005F8#7CFFFF7CFFFFFFFF
(1786745787.051899) can0 18F015F1#000043C64A3F4643
(1786745787.122761) can0 1CECFFF1#20120003FF19F000
(1786745787.123710) can0 1CEBFFF1#01000B0000030400
(1786745787.124693) can0 1CEBFFF1#02000634FFFFEC81
(1786745787.125695) can0 1CEBFFF1#03FD773F75FFFFFF
(1786745787.144041) can0 18FEF1F8#FF0000FFFFFFFFFF
(1786745787.145252) can0 18F005F8#7CFFFF7CFFFFFFFF
(1786745787.151768) can0 18F015F1#000043C64A3F4643
(1786745787.223762) can0 1CECFFF1#20120003FF19F000
(1786745787.224710) can0 1CEBFFF1#01000B0000030400
(1786745787.225708) can0 1CEBFFF1#02000634FFFFEC81
(1786745787.226713) can0 1CEBFFF1#03FD773F75FFFFFF
(1786745787.243950) can0 18FEF1F8#FF0000FFFFFFFFFF
(1786745787.245140) can0 18F005F8#7CFFFF7CFFFFFFFF
(1786745787.252683) can0 18F015F1#000043C64A3F4644
(1786745787.323720) can0 1CECFFF1#20120003FF19F000
(1786745787.324700) can0 1CEBFFF1#01000B0000030400
(1786745787.325688) can0 1CEBFFF1#02000634FFFFEC81
(1786745787.326696) can0 1CEBFFF1#03FD773F75FFFFFF
(1786745787.343882) can0 18FEF1F8#FF0000FFFFFFFFFF
(1786745787.344990) can0 18F005F8#7CFFFF7CFFFFFFFF
(1786745787.352677) can0 18F015F1#000043C64A3F4644
(1786745787.362632) can0 18F017F1#E86102F19838
(1786745787.363105) can0 18F018F1#E161FC7E934A
(1786745787.423720) can0 1CECFFF1#20120003FF19F000
(1786745787.424721) can0 1CEBFFF1#01000B0000030400
(1786745787.425743) can0 1CEBFFF1#02000634FFFFEC81
(1786745787.426709) can0 1CEBFFF1#03FD773F75FFFFFF
(1786745787.443919) can0 18FEF1F8#FF0000FFFFFFFFFF
(1786745787.445077) can0 18F005F8#7CFFFF7CFFFFFFFF
(1786745787.452679) can0 18F015F1#000043C64A3F4644
(1786745787.523726) can0 1CECFFF1#20120003FF19F000
(1786745787.524740) can0 1CEBFFF1#01000B0000030400
(1786745787.525696) can0 1CEBFFF1#02000634FFFFEC81
(1786745787.526703) can0 1CEBFFF1#03FD773F75FFFFFF
(1786745787.543879) can0 18FEF1F8#FF0000FFFFFFFFFF
(1786745787.544987) can0 18F005F8#7CFFFF7CFFFFFFFF
(1786745787.552751) can0 18F015F1#000043C64A3F4643
(1786745787.623806) can0 1CECFFF1#20120003FF19F000
(1786745787.624720) can0 1CEBFFF1#01000B0000030400
(1786745787.625702) can0 1CEBFFF1#02000634FFFFEC81
(1786745787.626728) can0 1CEBFFF1#03FD773F75FFFFFF
(1786745787.644050) can0 18FEF1F8#FF0000FFFFFFFFFF
(1786745787.645181) can0 18F005F8#7CFFFF7CFFFFFFFF
(1786745787.652778) can0 18F015F1#000043C64A3F4644
(1786745787.723734) can0 1CECFFF1#20120003FF19F000
(1786745787.724715) can0 1CEBFFF1#01000B0000030400
(1786745787.725706) can0 1CEBFFF1#02000634FFFFEC81
(1786745787.726703) can0 1CEBFFF1#03FD773F75FFFFFF
(1786745787.743889) can0 18FEF1F8#FF0000FFFFFFFFFF
(1786745787.745002) can0 18F005F8#7CFFFF7CFFFFFFFF
(1786745787.752686) can0 18F015F1#000043C64A3F4643
(1786745787.824765) can0 1CECFFF1#20120003FF19F000
(1786745787.825714) can0 1CEBFFF1#01000B0000030400
(1786745787.826711) can0 1CEBFFF1#02000634FFFFEC81
(1786745787.827692) can0 1CEBFFF1#03FD773F75FFFFFF
(1786745787.843957) can0 18FEF1F8#FF0000FFFFFFFFFF
(1786745787.845075) can0 18F005F8#7CFFFF7CFFFFFFFF
(1786745787.853685) can0 18F015F1#000043C64A3F4643
(1786745787.923763) can0 1CECFFF1#20120003FF19F000
(1786745787.924743) can0 1CEBFFF1#01000B0000030400
(1786745787.925705) can0 1CEBFFF1#02000634FFFFEC81
(1786745787.926818) can0 1CEBFFF1#03FD773F75FFFFFF
(1786745787.944376) can0 18FEF1F8#FF0000FFFFFFFFFF
(1786745787.945528) can0 18F005F8#7CFFFF7CFFFFFFFF
(1786745787.952719) can0 18F015F1#000043C64A3F4644
(1786745788.024791) can0 1CECFFF1#20120003FF19F000
(1786745788.025729) can0 1CEBFFF1#01000B0000030400
(1786745788.026775) can0 1CEBFFF1#02000634FFFFEC81
(1786745788.027702) can0 1CEBFFF1#03FD773F75FFFFFF
(1786745788.043954) can0 18FEF1F8#FF0000FFFFFFFFFF
(1786745788.045064) can0 18F005F8#7CFFFF7CFFFFFFFF
(1786745788.053695) can0 18F015F1#000043C64A3F4644
(1786745788.124744) can0 1CECFFF1#20120003FF19F000
(1786745788.125722) can0 1CEBFFF1#01000B0000030400
(1786745788.126707) can0 1CEBFFF1#02000634FFFFEC81
(1786745788.127722) can0 1CEBFFF1#03FD773F75FFFFFF
(1786745788.143903) can0 18FEF1F8#FF0000FFFFFFFFFF
(1786745788.145071) can0 18F005F8#7CFFFF7CFFFFFFFF
(1786745788.153717) can0 18F015F1#000043C54A3F4644
(1786745788.224745) can0 1CECFFF1#20120003FF19F000
(1786745788.225716) can0 1CEBFFF1#01000B0000030400
(1786745788.226703) can0 1CEBFFF1#02000634FFFFEC81
(1786745788.227694) can0 1CEBFFF1#03FD76FFB4FFFFFF
(1786745788.243930) can0 18FEF1F8#FF0000FFFFFFFFFF
(1786745788.245062) can0 18F005F8#7CFFFF7CFFFFFFFF
(1786745788.253687) can0 18F015F1#000043C64A3F4643
(1786745788.324724) can0 1CECFFF1#20120003FF19F000
(1786745788.325711) can0 1CEBFFF1#01000B0000030400
(1786745788.326707) can0 1CEBFFF1#02000634FFFFEC81
(1786745788.327704) can0 1CEBFFF1#03FD773F75FFFFFF
(1786745788.343889) can0 18FEF1F8#FF0000FFFFFFFFFF
(1786745788.345039) can0 18F005F8#7CFFFF7CFFFFFFFF
(1786745788.354687) can0 18F015F1#000043C54A3F4644
(1786745788.363612) can0 18F017F1#E84603009769
(1786745788.364077) can0 18F018F1#E246FC209389
(1786745788.424715) can0 1CECFFF1#20120003FF19F000
(1786745788.425706) can0 1CEBFFF1#01000B0000030400
(1786745788.426694) can0 1CEBFFF1#02000634FFFFEC81
(1786745788.427694) can0 1CEBFFF1#03FD773F75FFFFFF
(1786745788.443921) can0 18FEF1F8#FF0000FFFFFFFFFF
(1786745788.445038) can0 18F005F8#7CFFFF7CFFFFFFFF
(1786745788.453682) can0 18F015F1#000043C54A3F4644
(1786745788.508068) can0 18FF09D1#01000A00CFD4E6
(1786745788.524729) can0 1CECFFF1#20120003FF19F000
(1786745788.525705) can0 1CEBFFF1#01000B0000030400
(1786745788.526694) can0 1CEBFFF1#02000634FFFFEC81
(1786745788.527687) can0 1CEBFFF1#03FD76FFB4FFFFFF
(1786745788.543871) can0 18FEF1F8#FF0000FFFFFFFFFF
(1786745788.544976) can0 18F005F8#7CFFFF7CFFFFFFFF
(1786745788.553729) can0 18F015F1#000043C54A3F4644
(1786745788.625953) can0 1CECFFF1#20120003FF19F000
(1786745788.626719) can0 1CEBFFF1#01000B0000030400
(1786745788.627695) can0 1CEBFFF1#02000634FFFFEC81
(1786745788.628687) can0 1CEBFFF1#03FD76FFB4FFFFFF
(1786745788.643990) can0 18FEF1F8#FF0000FFFFFFFFFF
(1786745788.645141) can0 18F005F8#7CFFFF7CFFFFFFFF
(1786745788.654711) can0 18F015F1#000043C54A3F4644
(1786745788.725739) can0 1CECFFF1#20120003FF19F000
(1786745788.726709) can0 1CEBFFF1#01000B0000030400
(1786745788.727691) can0 1CEBFFF1#02000634FFFFEC81
(1786745788.728686) can0 1CEBFFF1#03FD76FFB4FFFFFF
(1786745788.743907) can0 18FEF1F8#FF0000FFFFFFFFFF
(1786745788.745032) can0 18F005F8#7CFFFF7CFFFFFFFF
(1786745788.754703) can0 18F015F1#000043C54A3F4643
(1786745788.825795) can0 1CECFFF1#20120003FF19F000
(1786745788.826720) can0 1CEBFFF1#01000B0000030400
(1786745788.827729) can0 1CEBFFF1#02000634FFFFEC81
(1786745788.828692) can0 1CEBFFF1#03FD76FFB4FFFFFF
(1786745788.843893) can0 18FEF1F8#FF0000FFFFFFFFFF
(1786745788.845004) can0 18F005F8#7CFFFF7CFFFFFFFF
(1786745788.854687) can0 18F015F1#000043C54A3F4644
(1786745788.925777) can0 1CECFFF1#20120003FF19F000
(1786745788.926717) can0 1CEBFFF1#01000B0000030400
(1786745788.927715) can0 1CEBFFF1#02000634FFFFEC81
(1786745788.928729) can0 1CEBFFF1#03FD76FFB4FFFFFF
(1786745788.946008) can0 18FEF1F8#FF0000FFFFFFFFFF
(1786745788.947159) can0 18F005F8#7CFFFF7CFFFFFFFF
(1786745788.954690) can0 18F015F1#000043C54A3F4644
(1786745788.974244) can0 18FF09D1#01000B00CFD4E6
(1786745789.025742) can0 1CECFFF1#20120003FF19F000
(1786745789.026720) can0 1CEBFFF1#01000B0000030400
(1786745789.027702) can0 1CEBFFF1#02000634FFFFEC81
(1786745789.028698) can0 1CEBFFF1#03FD76FFB4FFFFFF
(1786745789.043892) can0 18FEF1F8#FF0000FFFFFFFFFF
(1786745789.045040) can0 18F005F8#7CFFFF7CFFFFFFFF
(1786745789.054699) can0 18F015F1#000043C54A3F4644
(1786745789.074937) can0 18F020F8#002054FD00000000
(1786745789.076090) can0 18F020F8#0100000000001F4E
(1786745789.077203) can0 18F020F8#02394FB70112D2B3
(1786745789.078330) can0 18F020F8#0333589C00001F4E
(1786745789.125728) can0 1CECFFF1#20120003FF19F000
(1786745789.126731) can0 1CEBFFF1#01000B0000030400
(1786745789.127713) can0 1CEBFFF1#02000634FFFFEC81
(1786745789.128709) can0 1CEBFFF1#03FD76FFB4FFFFFF
(1786745789.143893) can0 18FEF1F8#FF0000FFFFFFFFFF
(1786745789.145037) can0 18F005F8#7CFFFF7CFFFFFFFF
(1786745789.154715) can0 18F015F1#000043C54A3F4643
(1786745789.225758) can0 1CECFFF1#20120003FF19F000
(1786745789.226728) can0 1CEBFFF1#01000B0000030400
(1786745789.227711) can0 1CEBFFF1#02000634FFFFEC81
(1786745789.228710) can0 1CEBFFF1#03FD76FFB4FFFFFF
(1786745789.244735) can0 18FEF1F8#FF0000FFFFFFFFFF
(1786745789.245949) can0 18F005F8#7CFFFF7CFFFFFFFF
(1786745789.254715) can0 18F015F1#000043C54A3F4644
(1786745789.326565) can0 1CECFFF1#20120003FF19F000
(1786745789.327317) can0 1CEBFFF1#01000B0000030400
(1786745789.327710) can0 1CEBFFF1#02000634FFFFEC81
(1786745789.328700) can0 1CEBFFF1#03FD76FFB4FFFFFF
(1786745789.344102) can0 18FEF1F8#FF0000FFFFFFFFFF
(1786745789.345364) can0 18F005F8#7CFFFF7CFFFFFFFF
(1786745789.355799) can0 18F015F1#000043C54A3F4644
(1786745789.364798) can0 18F017F1#E84603009769
(1786745789.365336) can0 18F018F1#E246FC209389
(1786745789.426756) can0 1CECFFF1#20120003FF19F000
(1786745789.427716) can0 1CEBFFF1#01000B0000030400
(1786745789.428699) can0 1CEBFFF1#02000634FFFFEC81
(1786745789.429693) can0 1CEBFFF1#03FD76FFB4FFFFFF
(1786745789.444814) can0 18FEF1F8#FF0000FFFFFFFFFF
(1786745789.446015) can0 18F005F8#7CFFFF7CFFFFFFFF
(1786745789.447170) can0 18ECFFFF#20100003FF13FF00
(1786745789.448280) can0 18EBFFFF#0100330F5EFA6010
(1786745789.449396) can0 18EBFFFF#02515D4400000000
(1786745789.450511) can0 18EBFFFF#03020BFFFFFFFFFF
(1786745789.455701) can0 18F015F1#000043C54A3F4644
(1786745789.526744) can0 1CECFFF1#20120003FF19F000
(1786745789.527734) can0 1CEBFFF1#01000B0000030400
(1786745789.528714) can0 1CEBFFF1#02000634FFFFEC81
(1786745789.529710) can0 1CEBFFF1#03FD76FFB4FFFFFF
(1786745789.543902) can0 18FEF1F8#FF0000FFFFFFFFFF
(1786745789.545087) can0 18F005F8#7CFFFF7CFFFFFFFF
(1786745789.555737) can0 18F015F1#000043C54A3F4644
(1786745789.575106) can0 18F020F8#00394FB70112D2B3
(1786745789.576455) can0 18F020F8#0133589C0000124C
(1786745789.577703) can0 18F020F8#02C236B70145C6B3
(1786745789.578871) can0 18F020F8#0333929D0000124C
(1786745789.579890) can0 18DEF1F8#16000B
(1786745789.626838) can0 1CECFFF1#20120003FF19F000
(1786745789.627873) can0 1CEBFFF1#01000B0000000000
(1786745789.628806) can0 1CEBFFF1#0200000000000000
(1786745789.629786) can0 1CEBFFF1#03FD758074FFFFFF
(1786745789.644047) can0 18FEF1F8#FF0000FFFFFFFFFF
(1786745789.645189) can0 18F005F8#7CFFFF7CFFFFFFFF
(1786745789.655714) can0 18F015F1#000043C54A3F4644
(1786745789.726754) can0 1CECFFF1#20120003FF19F000
(1786745789.727732) can0 1CEBFFF1#01000B0000000000
(1786745789.728728) can0 1CEBFFF1#0200000000000000
(1786745789.729713) can0 1CEBFFF1#03FD758074FFFFFF
(1786745789.743904) can0 18FEF1F8#FF0000FFFFFFFFFF
(1786745789.745026) can0 18F005F8#7CFFFF7CFFFFFFFF
(1786745789.755696) can0 18F015F1#000043C44A3F4644
(1786745789.826772) can0 1CECFFF1#20120003FF19F000
(1786745789.827733) can0 1CEBFFF1#01000B0000000000
(1786745789.828768) can0 1CEBFFF1#0200000000000000
(1786745789.829736) can0 1CEBFFF1#03FD758074FFFFFF
(1786745789.843941) can0 18FEF1F8#FF0000FFFFFFFFFF
(1786745789.845093) can0 18F005F8#7CFFFF7CFFFFFFFF
(1786745789.856704) can0 18F015F1#000043C44A3F4644
(1786745789.926890) can0 1CECFFF1#20120003FF19F000
(1786745789.927781) can0 1CEBFFF1#01000B0000000000
(1786745789.928769) can0 1CEBFFF1#0200000000000000
(1786745789.929764) can0 1CEBFFF1#03FD758074FFFFFF
(1786745789.944788) can0 18FEF1F8#FF0000FFFFFFFFFF
(1786745789.946143) can0 18F005F8#7CFFFF7CFFFFFFFF
(1786745789.947764) can0 18ECFFFF#20100003FF13FF00
(1786745789.949323) can0 18EBFFFF#0100330F5EE0AD10
(1786745789.950601) can0 18EBFFFF#0251666F00000000
(1786745789.951749) can0 18EBFFFF#03020BFFFFFFFFFF
(1786745789.955799) can0 18F015F1#000043C44A3F4644
(1786745790.027617) can0 1CECFFF1#20120003FF19F000
(1786745790.028413) can0 1CEBFFF1#01000B0000000000
(1786745790.028745) can0 1CEBFFF1#0200000000000000
(1786745790.029840) can0 1CEBFFF1#03FD758074FFFFFF
(1786745790.044284) can0 18FEF1F8#FF0000FFFFFFFFFF
(1786745790.045604) can0 18F005F8#7CFFFF7CFFFFFFFF
(1786745790.055872) can0 18F015F1#000043C44A3F4644
(1786745790.126778) can0 1CECFFF1#20120003FF19F000
(1786745790.127728) can0 1CEBFFF1#01000B0000000000
(1786745790.128726) can0 1CEBFFF1#0200000000000000
(1786745790.129704) can0 1CEBFFF1#03FD758074FFFFFF
(1786745790.143935) can0 18FEF1F8#FF0000FFFFFFFFFF
(1786745790.145133) can0 18F005F8#7CFFFF7CFFFFFFFF
(1786745790.155736) can0 18F015F1#000043C44A3F4644
(1786745790.227772) can0 1CECFFF1#20120003FF19F000
(1786745790.228738) can0 1CEBFFF1#01000B0000000000
(1786745790.229735) can0 1CEBFFF1#0200000000000000
(1786745790.230717) can0 1CEBFFF1#03FD758074FFFFFF
(1786745790.243919) can0 18FEF1F8#FF0000FFFFFFFFFF
(1786745790.245070) can0 18F005F8#7CFFFF7CFFFFFFFF
(1786745790.256706) can0 18F015F1#000043C44A3F4644
(1786745790.327742) can0 1CECFFF1#20120003FF19F000
(1786745790.328736) can0 1CEBFFF1#01000B0000000000
(1786745790.329734) can0 1CEBFFF1#0200000000000000
(1786745790.330715) can0 1CEBFFF1#03FD758074FFFFFF
(1786745790.343892) can0 18FEF1F8#FF0000FFFFFFFFFF
(1786745790.345023) can0 18F005F8#7CFFFF7CFFFFFFFF
(1786745790.356700) can0 18F015F1#000043C44A3F4644
(1786745790.366638) can0 18F017F1#E8B702DE9745
(1786745790.367154) can0 18F018F1#E12AFBB5939E
(1786745790.427890) can0 1CECFFF1#20120003FF19F000
(1786745790.428770) can0 1CEBFFF1#01000B0000000000
(1786745790.429758) can0 1CEBFFF1#0200000000000000
(1786745790.430786) can0 1CEBFFF1#03FD758074FFFFFF
(1786745790.444337) can0 18FEF1F8#FF0000FFFFFFFFFF
(1786745790.445606) can0 18F005F8#7CFFFF7CFFFFFFFF
(1786745790.447409) can0 18ECFFFF#20100003FF13FF00
(1786745790.448730) can0 18EBFFFF#0100330F5EE0AD10
(1786745790.449949) can0 18EBFFFF#0251666F00000000
(1786745790.451093) can0 18EBFFFF#03020BFFFFFFFFFF
(1786745790.456725) can0 18F015F1#000043C44A3F4644
(1786745790.527747) can0 1CECFFF1#20120003FF19F000
(1786745790.528733) can0 1CEBFFF1#01000B0000000000
(1786745790.529727) can0 1CEBFFF1#0200000000000000
(1786745790.530711) can0 1CEBFFF1#03FD758074FFFFFF
(1786745790.543884) can0 18FEF1F8#FF0000FFFFFFFFFF
(1786745790.545027) can0 18F005F8#7CFFFF7CFFFFFFFF
(1786745790.556772) can0 18F015F1#000043C44A3F4644
(1786745790.627875) can0 1CECFFF1#20120003FF19F000
(1786745790.628741) can0 1CEBFFF1#01000B0000000000
(1786745790.629735) can0 1CEBFFF1#0200000000000000
(1786745790.630719) can0 1CEBFFF1#03FD758074FFFFFF
(1786745790.644031) can0 18FEF1F8#FF0000FFFFFFFFFF
(1786745790.645195) can0 18F005F8#7CFFFF7CFFFFFFFF
(1786745790.656777) can0 18F015F1#000043C44A3F4644
(1786745790.727758) can0 1CECFFF1#20120003FF19F000
(1786745790.728731) can0 1CEBFFF1#01000B0000000000
(1786745790.729727) can0 1CEBFFF1#0200000000000000
(1786745790.730713) can0 1CEBFFF1#03FD7440B5FFFFFF
(1786745790.743889) can0 18FEF1F8#FF0000FFFFFFFFFF
(1786745790.745027) can0 18F005F8#7CFFFF7CFFFFFFFF
(1786745790.756702) can0 18F015F1#000043C34A3F4644
(1786745790.827778) can0 1CECFFF1#20120003FF19F000
(1786745790.828735) can0 1CEBFFF1#01000B0000000000
(1786745790.829729) can0 1CEBFFF1#0200000000000000
(1786745790.830729) can0 1CEBFFF1#03FD7440B5FFFFFF
(1786745790.843942) can0 18FEF1F8#FF0000FFFFFFFFFF
(1786745790.845075) can0 18F005F8#7CFFFF7CFFFFFFFF
(1786745790.857713) can0 18F015F1#000043C34A3F4644
(1786745790.929113) can0 1CECFFF1#20120003FF19F000
(1786745790.929938) can0 1CEBFFF1#01000B0000000000
(1786745790.930765) can0 1CEBFFF1#0200000000000000
(1786745790.931738) can0 1CEBFFF1#03FD7440B5FFFFFF
(1786745790.944533) can0 18FEF1F8#FF0000FFFFFFFFFF
(1786745790.946390) can0 18F005F8#7CFFFF7CFFFFFFFF
(1786745790.950956) can0 18ECFFFF#20100003FF13FF00
(1786745790.952180) can0 18EBFFFF#0100330F5EE0AD10
(1786745790.953495) can0 18EBFFFF#0251666F00000000
(1786745790.954736) can0 18EBFFFF#03020BFFFFFFFFFF
(1786745790.957758) can0 18F015F1#000043C34A3F4644
(1786745791.028824) can0 1CECFFF1#20120003FF19F000
(1786745791.029740) can0 1CEBFFF1#01000B0000000000
(1786745791.030732) can0 1CEBFFF1#0200000000000000
(1786745791.031710) can0 1CEBFFF1#03FD7440B5FFFFFF
(1786745791.044001) can0 18FEF1F8#FF0000FFFFFFFFFF
(1786745791.045170) can0 18F005F8#7CFFFF7CFFFFFFFF
(1786745791.057730) can0 18F015F1#000043C34A3F4644
(1786745791.128766) can0 1CECFFF1#20120003FF19F000
(1786745791.129736) can0 1CEBFFF1#01000B0000000000
(1786745791.130732) can0 1CEBFFF1#0200000000000000
(1786745791.131710) can0 1CEBFFF1#03FD7440B5FFFFFF
(1786745791.143929) can0 18FEF1F8#FF0000FFFFFFFFFF
(1786745791.145106) can0 18F005F8#7CFFFF7CFFFFFFFF
(1786745791.157743) can0 18F015F1#000043C34A3F4644
(1786745791.228790) can0 1CECFFF1#20120003FF19F000
(1786745791.229740) can0 1CEBFFF1#01000B0000000000
(1786745791.230740) can0 1CEBFFF1#0200000000000000
(1786745791.231718) can0 1CEBFFF1#03FD7440B5FFFFFF
(1786745791.243910) can0 18FEF1F8#FF0000FFFFFFFFFF
(1786745791.245078) can0 18F005F8#7CFFFF7CFFFFFFFF
(1786745791.257707) can0 18F015F1#000043C34A3F4644
(1786745791.328747) can0 1CECFFF1#20120003FF19F000
(1786745791.329737) can0 1CEBFFF1#01000B0000000000
(1786745791.330734) can0 1CEBFFF1#0200000000000000
(1786745791.331714) can0 1CEBFFF1#03FD7440B5FFFFFF
(1786745791.343896) can0 18FEF1F8#FF0000FFFFFFFFFF
(1786745791.345024) can0 18F005F8#7CFFFF7CFFFFFFFF
(1786745791.358704) can0 18F015F1#000043C34A3F4644
(1786745791.367630) can0 18F017F1#E8B702DE9745
(1786745791.368084) can0 18F018F1#E12AFBB5939E
(1786745791.428728) can0 1CECFFF1#20120003FF19F000
(1786745791.429733) can0 1CEBFFF1#01000B0000000000
(1786745791.430731) can0 1CEBFFF1#0200000000000000
(1786745791.431710) can0 1CEBFFF1#03FD7440B5FFFFFF
(1786745791.444374) can0 18FEF1F8#FF0000FFFFFFFFFF
(1786745791.445508) can0 18F005F8#7CFFFF7CFFFFFFFF
(1786745791.446643) can0 18ECFFFF#20100003FF13FF00
(1786745791.447740) can0 18EBFFFF#0100330F5EE0AD10
(1786745791.448880) can0 18EBFFFF#0251666F00000000
(1786745791.449994) can0 18EBFFFF#03020BFFFFFFFFFF
(1786745791.457717) can0 18F015F1#000043C34A3F4644
(1786745791.528780) can0 1CECFFF1#20120003FF19F000
(1786745791.529738) can0 1CEBFFF1#01000B0000000000
(1786745791.530734) can0 1CEBFFF1#0200000000000000
(1786745791.531713) can0 1CEBFFF1#03FD7440B5FFFFFF
(1786745791.543964) can0 18FEF1F8#FF0000FFFFFFFFFF
(1786745791.545137) can0 18F005F8#7CFFFF7CFFFFFFFF
(1786745791.557783) can0 18F015F1#000043C34A3F4644
(1786745791.628973) can0 1CECFFF1#20120003FF19F000
(1786745791.629762) can0 1CEBFFF1#01000B0000000000
(1786745791.630771) can0 1CEBFFF1#0200000000000000
(1786745791.631790) can0 1CEBFFF1#03FD7440B5FFFFFF
(1786745791.644110) can0 18FEF1F8#FF0000FFFFFFFFFF
(1786745791.645309) can0 18F005F8#7CFFFF7CFFFFFFFF
(1786745791.657956) can0 18F015F1#000043C34A3F4644
(1786745791.729847) can0 1CECFFF1#20120003FF19F000
(1786745791.730754) can0 1CEBFFF1#01000B0000000000
(1786745791.731743) can0 1CEBFFF1#0200000000000000
(1786745791.732716) can0 1CEBFFF1#03FD7440B5FFFFFF
(1786745791.743897) can0 18FEF1F8#FF0000FFFFFFFFFF
(1786745791.745035) can0 18F005F8#7CFFFF7CFFFFFFFF
(1786745791.758723) can0 18F015F1#000043C34A3E4644
(1786745791.829779) can0 1CECFFF1#20120003FF19F000
(1786745791.830745) can0 1CEBFFF1#01000B0000000000
(1786745791.831740) can0 1CEBFFF1#0200000000000000
(1786745791.832739) can0 1CEBFFF1#03FD7440B5FFFFFF
(1786745791.843957) can0 18FEF1F8#FF0000FFFFFFFFFF
(1786745791.845151) can0 18F005F8#7CFFFF7CFFFFFFFF
(1786745791.858726) can0 18F015F1#000043C34A3F4643
(1786745791.929939) can0 1CECFFF1#20120003FF19F000
(1786745791.930784) can0 1CEBFFF1#01000B0000000000
(1786745791.931763) can0 1CEBFFF1#0200000000000000
(1786745791.932735) can0 1CEBFFF1#03FD7440B5FFFFFF
(1786745791.944468) can0 18FEF1F8#FF0000FFFFFFFFFF
(1786745791.945966) can0 18F005F8#7CFFFF7CFFFFFFFF
(1786745791.947331) can0 18ECFFFF#20100003FF13FF00
(1786745791.948457) can0 18EBFFFF#0100330F5EE0AD10
(1786745791.949790) can0 18EBFFFF#0251666F00000000
(1786745791.950966) can0 18EBFFFF#03020BFFFFFFFFFF
(1786745791.958893) can0 18F015F1#000043C34A3E4643
(1786745792.029850) can0 1CECFFF1#20120003FF19F000
(1786745792.030778) can0 1CEBFFF1#01000B0000000000
(1786745792.031781) can0 1CEBFFF1#0200000000000000
(1786745792.032822) can0 1CEBFFF1#03FD7440B5FFFFFF
(1786745792.045177) can0 18FEF1F8#FF0000FFFFFFFFFF
(1786745792.047440) can0 18F005F8#7CFFFF7CFFFFFFFF
(1786745792.059310) can0 18F015F1#000043C34A3E4643
(1786745792.129867) can0 1CECFFF1#20120003FF19F000
(1786745792.130766) can0 1CEBFFF1#01000B0000000000
(1786745792.131761) can0 1CEBFFF1#0200000000000000
(1786745792.132739) can0 1CEBFFF1#03FD7440B5FFFFFF
(1786745792.144416) can0 18FEF1F8#FF0000FFFFFFFFFF
(1786745792.145741) can0 18F005F8#7CFFFF7CFFFFFFFF
(1786745792.159194) can0 18F015F1#000043C24A3E4643
(1786745792.229905) can0 1CECFFF1#20120003FF19F000
(1786745792.230790) can0 1CEBFFF1#01000B0000000000
(1786745792.231833) can0 1CEBFFF1#0200000000000000
(1786745792.232732) can0 1CEBFFF1#03FD7382F4FFFFFF
(1786745792.244360) can0 18FEF1F8#FF0000FFFFFFFFFF
(1786745792.245589) can0 18F005F8#7CFFFF7CFFFFFFFF
(1786745792.258906) can0 18F015F1#000043C24A3E4643
(1786745792.330855) can0 1CECFFF1#20120003FF19F000
(1786745792.331833) can0 1CEBFFF1#01000B0000000000
(1786745792.332768) can0 1CEBFFF1#0200000000000000
(1786745792.333724) can0 1CEBFFF1#03FD7382F4FFFFFF
(1786745792.344353) can0 18FEF1F8#FF0000FFFFFFFFFF
(1786745792.345596) can0 18F005F8#7CFFFF7CFFFFFFFF
(1786745792.359839) can0 18F015F1#000043C24A3E4643
(1786745792.368656) can0 18F017F1#EA6502849855
(1786745792.369102) can0 18F018F1#E0D7FD429367
(1786745792.430862) can0 1CECFFF1#20120003FF19F000
(1786745792.431783) can0 1CEBFFF1#01000B0000000000
(1786745792.432749) can0 1CEBFFF1#0200000000000000
(1786745792.433719) can0 1CEBFFF1#03FD7382F4FFFFFF
(1786745792.444779) can0 18FEF1F8#FF0000FFFFFFFFFF
(1786745792.446099) can0 18F005F8#7CFFFF7CFFFFFFFF
(1786745792.450360) can0 18ECFFFF#20100003FF13FF00
(1786745792.451503) can0 18EBFFFF#0100330F5EE0AD10
(1786745792.452630) can0 18EBFFFF#0251666F00000000
(1786745792.453806) can0 18EBFFFF#03020BFFFFFFFFFF
(1786745792.458782) can0 18F015F1#000043C24A3E4643
(1786745792.530756) can0 1CECFFF1#20120003FF19F000
(1786745792.531744) can0 1CEBFFF1#01000B0000000000
(1786745792.532739) can0 1CEBFFF1#0200000000000000
(1786745792.533714) can0 1CEBFFF1#03FD7382F4FFFFFF
(1786745792.543898) can0 18FEF1F8#FF0000FFFFFFFFFF
(1786745792.545040) can0 18F005F8#7CFFFF7CFFFFFFFF
(1786745792.559765) can0 18F015F1#000043C24A3E4643
(1786745792.630938) can0 1CECFFF1#20120003FF19F000
(1786745792.631760) can0 1CEBFFF1#01000B0000000000
(1786745792.632766) can0 1CEBFFF1#0200000000000000
(1786745792.633729) can0 1CEBFFF1#03FD7382F4FFFFFF
(1786745792.644077) can0 18FEF1F8#FF0000FFFFFFFFFF
(1786745792.645278) can0 18F005F8#7CFFFF7CFFFFFFFF
(1786745792.659779) can0 18F015F1#000043C24A3E4643
(1786745792.730786) can0 1CECFFF1#20120003FF19F000
(1786745792.731746) can0 1CEBFFF1#01000B0000000000
(1786745792.732748) can0 1CEBFFF1#0200000000000000
(1786745792.733728) can0 1CEBFFF1#03FD7382F4FFFFFF
(1786745792.743920) can0 18FEF1F8#FF0000FFFFFFFFFF
(1786745792.745062) can0 18F005F8#7CFFFF7CFFFFFFFF
(1786745792.759727) can0 18F015F1#000043C24A3F4643
(1786745792.830784) can0 1CECFFF1#20120003FF19F000
(1786745792.831747) can0 1CEBFFF1#01000B0000000000
(1786745792.832742) can0 1CEBFFF1#0200000000000000
(1786745792.833729) can0 1CEBFFF1#03FD7382F4FFFFFF
(1786745792.843916) can0 18FEF1F8#FF0000FFFFFFFFFF
(1786745792.845054) can0 18F005F8#7CFFFF7CFFFFFFFF
(1786745792.860716) can0 18F015F1#000043C24A3E4643
(1786745792.930850) can0 1CECFFF1#20120003FF19F000
(1786745792.932078) can0 1CEBFFF1#01000B0000000000
(1786745792.932777) can0 1CEBFFF1#0200000000000000
(1786745792.933812) can0 1CEBFFF1#03FD7382F4FFFFFF
(1786745792.944708) can0 18FEF1F8#FF0000FFFFFFFFFF
(1786745792.946148) can0 18F005F8#7CFFFF7CFFFFFFFF
(1786745792.951736) can0 18ECFFFF#20100003FF13FF00
(1786745792.953290) can0 18EBFFFF#0100330F5EE0AD10
(1786745792.954470) can0 18EBFFFF#0251666F00000000
(1786745792.955987) can0 18EBFFFF#03020BFFFFFFFFFF
(1786745792.959758) can0 18F015F1#000043C24A3E4643
(1786745793.030799) can0 1CECFFF1#20120003FF19F000
(1786745793.031755) can0 1CEBFFF1#01000B0000000000
(1786745793.032756) can0 1CEBFFF1#0200000000000000
(1786745793.033733) can0 1CEBFFF1#03FD7382F4FFFFFF
(1786745793.043929) can0 18FEF1F8#FF0000FFFFFFFFFF
(1786745793.045082) can0 18F005F8#7CFFFF7CFFFFFFFF
(1786745793.059740) can0 18F015F1#000043C24A3E4643
(1786745793.131780) can0 1CECFFF1#20120003FF19F000
(1786745793.132746) can0 1CEBFFF1#01000B0000000000
(1786745793.133815) can0 1CEBFFF1#0200000000000000
(1786745793.134736) can0 1CEBFFF1#03FD7382F4FFFFFF
(1786745793.143978) can0 18FEF1F8#FF0000FFFFFFFFFF
(1786745793.145201) can0 18F005F8#7CFFFF7CFFFFFFFF
(1786745793.160771) can0 18F015F1#000043C24A3E4643
(1786745793.231785) can0 1CECFFF1#20120003FF19F000
(1786745793.232747) can0 1CEBFFF1#01000B0000000000
(1786745793.233744) can0 1CEBFFF1#0200000000000000
(1786745793.234718) can0 1CEBFFF1#03FD7382F4FFFFFF
(1786745793.243901) can0 18FEF1F8#FF0000FFFFFFFFFF
(1786745793.245049) can0 18F005F8#7CFFFF7CFFFFFFFF
(1786745793.260715) can0 18F015F1#000043C24A3E4644
(1786745793.331746) can0 1CECFFF1#20120003FF19F000
(1786745793.332744) can0 1CEBFFF1#01000B0000000000
(1786745793.333775) can0 1CEBFFF1#0200000000000000
(1786745793.334720) can0 1CEBFFF1#03FD7382F4FFFFFF
(1786745793.343906) can0 18FEF1F8#FF0000FFFFFFFFFF
(1786745793.345042) can0 18F005F8#7CFFFF7CFFFFFFFF
(1786745793.360718) can0 18F015F1#000043C24A3E4643
(1786745793.370654) can0 18F017F1#EA6502849855
(1786745793.371112) can0 18F018F1#E0D7FD429367
(1786745793.431752) can0 1CECFFF1#20120003FF19F000
(1786745793.432761) can0 1CEBFFF1#01000B0000000000
(1786745793.433762) can0 1CEBFFF1#0200000000000000
(1786745793.434744) can0 1CEBFFF1#03FD7382F4FFFFFF
(1786745793.444903) can0 18FEF1F8#FF0000FFFFFFFFFF
(1786745793.446043) can0 18F005F8#7CFFFF7CFFFFFFFF
(1786745793.447165) can0 18ECFFFF#20100003FF13FF00
(1786745793.448241) can0 18EBFFFF#0100330F5EE0AD10
(1786745793.449334) can0 18EBFFFF#0251666F00000000
(1786745793.450447) can0 18EBFFFF#03020BFFFFFFFFFF
(1786745793.460724) can0 18F015F1#000043C24A3E4643
(1786745793.531757) can0 1CECFFF1#20120003FF19F000
(1786745793.532750) can0 1CEBFFF1#01000B0000000000
(1786745793.533744) can0 1CEBFFF1#0200000000000000
(1786745793.534721) can0 1CEBFFF1#03FD7382F4FFFFFF
(1786745793.543883) can0 18FEF1F8#FF0000FFFFFFFFFF
(1786745793.545032) can0 18F005F8#7CFFFF7CFFFFFFFF
(1786745793.560811) can0 18F015F1#000043C24A3E4644
(1786745793.632025) can0 1CECFFF1#20120003FF19F000
(1786745793.632782) can0 1CEBFFF1#01000B0000000000
(1786745793.633783) can0 1CEBFFF1#0200000000000000
(1786745793.634752) can0 1CEBFFF1#03FD7382F4FFFFFF
(1786745793.644462) can0 18FEF1F8#FF0000FFFFFFFFFF
(1786745793.645595) can0 18F005F8#7CFFFF7CFFFFFFFF
(1786745793.660738) can0 18F015F1#000043C24A3F4643
(1786745793.731805) can0 1CECFFF1#20120003FF19F000
(1786745793.732753) can0 1CEBFFF1#01000B0000000000
(1786745793.733750) can0 1CEBFFF1#0200000000000000
(1786745793.734729) can0 1CEBFFF1#03FD7382F4FFFFFF
(1786745793.743934) can0 18FEF1F8#FF0000FFFFFFFFFF
(1786745793.745114) can0 18F005F8#7CFFFF7CFFFFFFFF
(1786745793.760761) can0 18F015F1#000043C24A3E4643
(1786745793.831832) can0 1CECFFF1#20120003FF19F000
(1786745793.832758) can0 1CEBFFF1#01000B0000000000
(1786745793.833749) can0 1CEBFFF1#0200000000000000
(1786745793.834726) can0 1CEBFFF1#03FD7382F4FFFFFF
(1786745793.843913) can0 18FEF1F8#FF0000FFFFFFFFFF
(1786745793.845088) can0 18F005F8#7CFFFF7CFFFFFFFF
(1786745793.861746) can0 18F015F1#000043C24A3E4643
(1786745793.933070) can0 1CECFFF1#20120003FF19F000
(1786745793.933843) can0 1CEBFFF1#01000B0000000000
(1786745793.934752) can0 1CEBFFF1#0200000000000000
(1786745793.935735) can0 1CEBFFF1#03FD7382F4FFFFFF
(1786745793.944765) can0 18FEF1F8#FF0000FFFFFFFFFF
(1786745793.946168) can0 18F005F8#7CFFFF7CFFFFFFFF
(1786745793.947763) can0 18ECFFFF#20100003FF13FF00
(1786745793.949163) can0 18EBFFFF#0100330F5EE0AD10
(1786745793.952340) can0 18EBFFFF#0251666F00000000
(1786745793.953692) can0 18EBFFFF#03020BFFFFFFFFFF
(1786745793.961070) can0 18F015F1#000043C24A3E4643
(1786745794.033166) can0 1CECFFF1#20120003FF19F000
(1786745794.033883) can0 1CEBFFF1#01000B0000000000
(1786745794.035014) can0 1CEBFFF1#0200000000000000
(1786745794.035802) can0 1CEBFFF1#03FD7382F4FFFFFF
(1786745794.044490) can0 18FEF1F8#FF0000FFFFFFFFFF
(1786745794.046688) can0 18F005F8#7CFFFF7CFFFFFFFF
(1786745794.061951) can0 18F015F1#000043C24A3E4643
(1786745794.132806) can0 1CECFFF1#20120003FF19F000
(1786745794.133776) can0 1CEBFFF1#01000B0000000000
(1786745794.134780) can0 1CEBFFF1#0200000000000000
(1786745794.135747) can0 1CEBFFF1#03FD7382F4FFFFFF
(1786745794.143943) can0 18FEF1F8#FF0000FFFFFFFFFF
(1786745794.145066) can0 18F005F8#7CFFFF7CFFFFFFFF
(1786745794.161756) can0 18F015F1#000043C14A3E4643
(1786745794.232797) can0 1CECFFF1#20120003FF19F000
(1786745794.233754) can0 1CEBFFF1#01000B0000000000
(1786745794.234749) can0 1CEBFFF1#0200000000000000
(1786745794.235726) can0 1CEBFFF1#03FD724235FFFFFF
(1786745794.243949) can0 18FEF1F8#FF0000FFFFFFFFFF
(1786745794.245064) can0 18F005F8#7CFFFF7CFFFFFFFF
(1786745794.261765) can0 18F015F1#000043C14A3E4643
(1786745794.332810) can0 1CECFFF1#20120003FF19F000
(1786745794.333761) can0 1CEBFFF1#01000B0000000000
(1786745794.334760) can0 1CEBFFF1#0200000000000000
(1786745794.335735) can0 1CEBFFF1#03FD724235FFFFFF
(1786745794.343916) can0 18FEF1F8#FF0000FFFFFFFFFF
(1786745794.345042) can0 18F005F8#7CFFFF7CFFFFFFFF
(1786745794.362732) can0 18F015F1#000043C14A3E4643
(1786745794.371666) can0 18F017F1#E876027C9728
(1786745794.372126) can0 18F018F1#E335FC41931D
(1786745794.432758) can0 1CECFFF1#20120003FF19F000
(1786745794.433761) can0 1CEBFFF1#01000B0000000000
(1786745794.434770) can0 1CEBFFF1#0200000000000000
(1786745794.435739) can0 1CEBFFF1#03FD724235FFFFFF
(1786745794.444452) can0 18FEF1F8#FF0000FFFFFFFFFF
(1786745794.445629) can0 18F005F8#7CFFFF7CFFFFFFFF
(1786745794.446751) can0 18ECFFFF#20100003FF13FF00
(1786745794.447859) can0 18EBFFFF#0100330F5EE0AD10
(1786745794.448971) can0 18EBFFFF#0251666F00000000
(1786745794.450099) can0 18EBFFFF#03020BFFFFFFFFFF
(1786745794.461754) can0 18F015F1#000043C14A3E4643
(1786745794.532757) can0 1CECFFF1#20120003FF19F000
(1786745794.533759) can0 1CEBFFF1#01000B0000000000
(1786745794.534758) can0 1CEBFFF1#0200000000000000
(1786745794.535745) can0 1CEBFFF1#03FD724235FFFFFF
(1786745794.543886) can0 18FEF1F8#FF0000FFFFFFFFFF
(1786745794.545003) can0 18F005F8#7CFFFF7CFFFFFFFF
(1786745794.561776) can0 18F015F1#000043C14A3E4643
(1786745794.633099) can0 1CECFFF1#20120003FF19F000
(1786745794.634626) can0 1CEBFFF1#01000B0000000000
(1786745794.634881) can0 1CEBFFF1#0200000000000000
(1786745794.635733) can0 1CEBFFF1#03FD724235FFFFFF
(1786745794.644000) can0 18FEF1F8#FF0000FFFFFFFFFF
(1786745794.645125) can0 18F005F8#7CFFFF7CFFFFFFFF
(1786745794.661751) can0 18F015F1#000043C14A3E4643
(1786745794.733798) can0 1CECFFF1#20120003FF19F000
(1786745794.734770) can0 1CEBFFF1#01000B0000000000
(1786745794.735767) can0 1CEBFFF1#0200000000000000
(1786745794.736737) can0 1CEBFFF1#03FD724235FFFFFF
(1786745794.743897) can0 18FEF1F8#FF0000FFFFFFFFFF
(1786745794.745003) can0 18F005F8#7CFFFF7CFFFFFFFF
(1786745794.762735) can0 18F015F1#000043C14A3E4644
(1786745794.833820) can0 1CECFFF1#20120003FF19F000
(1786745794.834763) can0 1CEBFFF1#01000B0000000000
(1786745794.835769) can0 1CEBFFF1#0200000000000000
(1786745794.836738) can0 1CEBFFF1#03FD724235FFFFFF
(1786745794.843908) can0 18FEF1F8#FF0000FFFFFFFFFF
(1786745794.845008) can0 18F005F8#7CFFFF7CFFFFFFFF
(1786745794.862749) can0 18F015F1#000043C14A3E4643
(1786745794.933911) can0 1CECFFF1#20120003FF19F000
(1786745794.934806) can0 1CEBFFF1#01000B0000000000
(1786745794.935950) can0 1CEBFFF1#0200000000000000
(1786745794.936759) can0 1CEBFFF1#03FD724235FFFFFF
(1786745794.944417) can0 18FEF1F8#FF0000FFFFFFFFFF
(1786745794.946191) can0 18F005F8#7CFFFF7CFFFFFFFF
(1786745794.951545) can0 18ECFFFF#20100003FF13FF00
(1786745794.955313) can0 18EBFFFF#0100330F5EE0AD10
(1786745794.956582) can0 18EBFFFF#0251666F00000000
(1786745794.957829) can0 18EBFFFF#03020BFFFFFFFFFF
(1786745794.962740) can0 18F015F1#000043C14A3E4643
(1786745795.033813) can0 1CECFFF1#20120003FF19F000
(1786745795.034789) can0 1CEBFFF1#01000B0000000000
(1786745795.035836) can0 1CEBFFF1#0200000000000000
(1786745795.036745) can0 1CEBFFF1#03FD724235FFFFFF
(1786745795.043911) can0 18FEF1F8#FF0000FFFFFFFFFF
(1786745795.045078) can0 18F005F8#7CFFFF7CFFFFFFFF
(1786745795.062810) can0 18F015F1#000043C14A3E4644
(1786745795.133819) can0 1CECFFF1#20120003FF19F000
(1786745795.134772) can0 1CEBFFF1#01000B0000000000
(1786745795.135758) can0 1CEBFFF1#0200000000000000
(1786745795.136757) can0 1CEBFFF1#03FD724235FFFFFF
(1786745795.143910) can0 18FEF1F8#FF0000FFFFFFFFFF
(1786745795.145011) can0 18F005F8#7CFFFF7CFFFFFFFF
(1786745795.162767) can0 18F015F1#000043C14A3E4644
(1786745795.233825) can0 1CECFFF1#20120003FF19F000
(1786745795.234764) can0 1CEBFFF1#01000B0000000000
(1786745795.235757) can0 1CEBFFF1#0200000000000000
(1786745795.236742) can0 1CEBFFF1#03FD724235FFFFFF
(1786745795.243920) can0 18FEF1F8#FF0000FFFFFFFFFF
