(1787075055.916465) can0 18FEF1F8#FF0000FFFFFFFFFF
(1787075055.917991) can0 18F005F8#7EFFFF7EFFFFFFFF
(1787075055.961707) can0 1CECFFF1#20120003FF19F000
(1787075055.962644) can0 1CEBFFF1#0127100000000000
(1787075055.963654) can0 1CEBFFF1#0200000000000000
(1787075055.964633) can0 1CEBFFF1#03FA4880B7FFFFFF
(1787075055.990729) can0 18F015F1#000040974BAA4627
(1787075056.016273) can0 18FEF1F8#FF0000FFFFFFFFFF
(1787075056.017452) can0 18F005F8#7EFFFF7EFFFFFFFF
(1787075056.061719) can0 1CECFFF1#20120003FF19F000
(1787075056.062665) can0 1CEBFFF1#0127100000000000
(1787075056.063659) can0 1CEBFFF1#0200000000000000
(1787075056.064641) can0 1CEBFFF1#03FA4880B7FFFFFF
(1787075056.090714) can0 18F015F1#000040974BAA4627
(1787075056.116301) can0 18FEF1F8#FF0000FFFFFFFFFF
(1787075056.117501) can0 18F005F8#7EFFFF7EFFFFFFFF
(1787075056.162860) can0 1CECFFF1#20120003FF19F000
(1787075056.163696) can0 1CEBFFF1#0127100000000000
(1787075056.164678) can0 1CEBFFF1#0200000000000000
(1787075056.165702) can0 1CEBFFF1#03FA4880B7FFFFFF
(1787075056.171477) can0 18FF14D1#
(1787075056.191822) can0 18F015F1#000040974BAB4627
(1787075056.216305) can0 18FEF1F8#FF0000FFFFFFFFFF
(1787075056.217524) can0 18F005F8#7EFFFF7EFFFFFFFF
(1787075056.262684) can0 1CECFFF1#20120003FF19F000
(1787075056.263647) can0 1CEBFFF1#0127100000000000
(1787075056.264647) can0 1CEBFFF1#0200000000000000
(1787075056.265631) can0 1CEBFFF1#03FA4880B7FFFFFF
(1787075056.291660) can0 18F015F1#000040974BAA4627
(1787075056.316195) can0 18FEF1F8#FF0000FFFFFFFFFF
(1787075056.317351) can0 18F005F8#7EFFFF7EFFFFFFFF
(1787075056.362698) can0 1CECFFF1#20120003FF19F000
(1787075056.363647) can0 1CEBFFF1#0127100000000000
(1787075056.364658) can0 1CEBFFF1#0200000000000000
(1787075056.365640) can0 1CEBFFF1#03FA4880B7FFFFFF
(1787075056.392562) can0 18F015F1#000040974BAA4627
(1787075056.402680) can0 18F017F1#DE92FFE99712
(1787075056.403086) can0 18F018F1#DA05FE028F9B
(1787075056.416246) can0 18FEF1F8#FF0000FFFFFFFFFF
(1787075056.417414) can0 18F005F8#7EFFFF7EFFFFFFFF
(1787075056.462729) can0 1CECFFF1#20120003FF19F000
(1787075056.463647) can0 1CEBFFF1#0127100000000000
(1787075056.464678) can0 1CEBFFF1#0200000000000000
(1787075056.465646) can0 1CEBFFF1#03FA4880B7FFFFFF
(1787075056.491671) can0 18F015F1#000040974BAB4627
(1787075056.516203) can0 18FEF1F8#FF0000FFFFFFFFFF
(1787075056.517328) can0 18F005F8#7EFFFF7EFFFFFFFF
(1787075056.562729) can0 1CECFFF1#20120003FF19F000
(1787075056.563645) can0 1CEBFFF1#0127100000000000
(1787075056.564651) can0 1CEBFFF1#0200000000000000
(1787075056.565633) can0 1CEBFFF1#03FA4880B7FFFFFF
(1787075056.591668) can0 18F015F1#000040974BAA4627
(1787075056.616202) can0 18FEF1F8#FF0000FFFFFFFFFF
(1787075056.617321) can0 18F005F8#7EFFFF7EFFFFFFFF
(1787075056.662705) can0 1CECFFF1#20120003FF19F000
(1787075056.663645) can0 1CEBFFF1#0127100000000000
(1787075056.664648) can0 1CEBFFF1#0200000000000000
(1787075056.665634) can0 1CEBFFF1#03FA4880B7FFFFFF
(1787075056.671307) can0 18FF14D1#
(1787075056.691635) can0 18F015F1#000040974BAA4627
(1787075056.716212) can0 18FEF1F8#FF0000FFFFFFFFFF
(1787075056.717366) can0 18F005F8#7EFFFF7EFFFFFFFF
(1787075056.763762) can0 1CECFFF1#20120003FF19F000
(1787075056.764667) can0 1CEBFFF1#0127100000000000
(1787075056.765661) can0 1CEBFFF1#0200000000000000
(1787075056.766644) can0 1CEBFFF1#03FA4880B7FFFFFF
(1787075056.792851) can0 18F015F1#000040974BAB4627
(1787075056.816563) can0 18FEF1F8#FF0000FFFFFFFFFF
(1787075056.817736) can0 18F005F8#7EFFFF7EFFFFFFFF
(1787075056.863673) can0 1CECFFF1#20120003FF19F000
(1787075056.864642) can0 1CEBFFF1#0127100000000000
(1787075056.865649) can0 1CEBFFF1#0200000000000000
(1787075056.866672) can0 1CEBFFF1#03FA4880B7FFFFFF
(1787075056.892885) can0 18F015F1#000040974BAA4627
(1787075056.916201) can0 18FEF1F8#FF0000FFFFFFFFFF
(1787075056.917336) can0 18F005F8#7EFFFF7EFFFFFFFF
(1787075056.963698) can0 1CECFFF1#20120003FF19F000
(1787075056.964651) can0 1CEBFFF1#0127100000000000
(1787075056.965658) can0 1CEBFFF1#0200000000000000
(1787075056.966640) can0 1CEBFFF1#03FA4880B7FFFFFF
(1787075056.992648) can0 18F015F1#000040974BAA4627
(1787075057.016205) can0 18FEF1F8#FF0000FFFFFFFFFF
(1787075057.017669) can0 18F005F8#7EFFFF7EFFFFFFFF
(1787075057.063669) can0 1CECFFF1#20120003FF19F000
(1787075057.064655) can0 1CEBFFF1#0127100000000000
(1787075057.065669) can0 1CEBFFF1#0200000000000000
(1787075057.066652) can0 1CEBFFF1#03FA4880B7FFFFFF
(1787075057.092789) can0 18F015F1#000040974BAA4627
(1787075057.116336) can0 18FEF1F8#FF0000FFFFFFFFFF
(1787075057.117674) can0 18F005F8#7EFFFF7EFFFFFFFF
(1787075057.163714) can0 1CECFFF1#20120003FF19F000
(1787075057.164647) can0 1CEBFFF1#0127100000000000
(1787075057.165660) can0 1CEBFFF1#0200000000000000
(1787075057.166662) can0 1CEBFFF1#03FA4880B7FFFFFF
(1787075057.171422) can0 18FF14D1#
(1787075057.192694) can0 18F015F1#000040974BAA4627
(1787075057.216999) can0 18FEF1F8#FF0000FFFFFFFFFF
(1787075057.218121) can0 18F005F8#7EFFFF7EFFFFFFFF
(1787075057.263786) can0 1CECFFF1#20120003FF19F000
(1787075057.264659) can0 1CEBFFF1#0127100000000000
(1787075057.265671) can0 1CEBFFF1#0200000000000000
(1787075057.266652) can0 1CEBFFF1#03FA4880B7FFFFFF
(1787075057.292704) can0 18F015F1#000040974BAA4627
(1787075057.316204) can0 18FEF1F8#FF0000FFFFFFFFFF
(1787075057.317985) can0 18F005F8#7EFFFF7EFFFFFFFF
(1787075057.363713) can0 1CECFFF1#20120003FF19F000
(1787075057.364646) can0 1CEBFFF1#0127100000000000
(1787075057.365661) can0 1CEBFFF1#0200000000000000
(1787075057.366645) can0 1CEBFFF1#03FA4880B7FFFFFF
(1787075057.392673) can0 18F015F1#000040974BAA4627
(1787075057.403574) can0 18F017F1#DE92FFE99712
(1787075057.404028) can0 18F018F1#DA05FE028F9B
(1787075057.416178) can0 18FEF1F8#FF0000FFFFFFFFFF
(1787075057.417378) can0 18F005F8#7EFFFF7EFFFFFFFF
(1787075057.463792) can0 1CECFFF1#20120003FF19F000
(1787075057.464681) can0 1CEBFFF1#0127100000000000
(1787075057.465707) can0 1CEBFFF1#0200000000000000
(1787075057.466673) can0 1CEBFFF1#03FA4880B7FFFFFF
(1787075057.492867) can0 18F015F1#000040974BAA4627
(1787075057.516612) can0 18FEF1F8#FF0000FFFFFFFFFF
(1787075057.518012) can0 18F005F8#7EFFFF7EFFFFFFFF
(1787075057.564727) can0 1CECFFF1#20120003FF19F000
(1787075057.565656) can0 1CEBFFF1#0127100000000000
(1787075057.566664) can0 1CEBFFF1#0200000000000000
(1787075057.567640) can0 1CEBFFF1#03FA4880B7FFFFFF
(1787075057.593664) can0 18F015F1#000040974BAA4627
(1787075057.616187) can0 18FEF1F8#FF0000FFFFFFFFFF
(1787075057.617386) can0 18F005F8#7EFFFF7EFFFFFFFF
(1787075057.664719) can0 1CECFFF1#20120003FF19F000
(1787075057.665668) can0 1CEBFFF1#0127100000000000
(1787075057.666694) can0 1CEBFFF1#0200000000000000
(1787075057.667667) can0 1CEBFFF1#03FA4880B7FFFFFF
(1787075057.671285) can0 18FF14D1#
(1787075057.693657) can0 18F015F1#000040974BAA4627
(1787075057.716202) can0 18FEF1F8#FF0000FFFFFFFFFF
(1787075057.717356) can0 18F005F8#7EFFFF7EFFFFFFFF
(1787075057.764792) can0 1CECFFF1#20120003FF19F000
(1787075057.765659) can0 1CEBFFF1#0127100000000000
(1787075057.766670) can0 1CEBFFF1#0200000000000000
(1787075057.767650) can0 1CEBFFF1#03FA4880B7FFFFFF
(1787075057.793740) can0 18F015F1#000040974BAA4627
(1787075057.816320) can0 18FEF1F8#FF0000FFFFFFFFFF
(1787075057.817469) can0 18F005F8#7EFFFF7EFFFFFFFF
(1787075057.864675) can0 1CECFFF1#20120003FF19F000
(1787075057.865653) can0 1CEBFFF1#0127100000000000
(1787075057.866717) can0 1CEBFFF1#0200000000000000
(1787075057.867650) can0 1CEBFFF1#03FA4880B7FFFFFF
(1787075057.894194) can0 18F015F1#000040974BAA4627
(1787075057.916208) can0 18FEF1F8#FF0000FFFFFFFFFF
(1787075057.917622) can0 18F005F8#7EFFFF7EFFFFFFFF
(1787075057.964683) can0 1CECFFF1#20120003FF19F000
(1787075057.965681) can0 1CEBFFF1#0127100000000000
(1787075057.966661) can0 1CEBFFF1#0200000000000000
(1787075057.967645) can0 1CEBFFF1#03FA4880B7FFFFFF
(1787075057.993655) can0 18F015F1#000040974BAA4627
(1787075058.016484) can0 18FEF1F8#FF0000FFFFFFFFFF
(1787075058.017626) can0 18F005F8#7EFFFF7EFFFFFFFF
(1787075058.064712) can0 1CECFFF1#20120003FF19F000
(1787075058.065663) can0 1CEBFFF1#0127100000000000
(1787075058.066674) can0 1CEBFFF1#0200000000000000
(1787075058.067653) can0 1CEBFFF1#03FA4880B7FFFFFF
(1787075058.093781) can0 18F015F1#000040974BAA4627
(1787075058.116272) can0 18FEF1F8#FF0000FFFFFFFFFF
(1787075058.117790) can0 18F005F8#7EFFFF7EFFFFFFFF
(1787075058.164796) can0 1CECFFF1#20120003FF19F000
(1787075058.165667) can0 1CEBFFF1#0127100000000000
(1787075058.168234) can0 1CEBFFF1#0200000000000000
(1787075058.168715) can0 1CEBFFF1#03FA4880B7FFFFFF
(1787075058.171452) can0 18FF14D1#
(1787075058.193832) can0 18F015F1#000040974BAA4627
(1787075058.217040) can0 18FEF1F8#FF0000FFFFFFFFFF
(1787075058.218274) can0 18F005F8#7EFFFF7EFFFFFFFF
(1787075058.266007) can0 1CECFFF1#20120003FF19F000
(1787075058.266665) can0 1CEBFFF1#0127100000000000
(1787075058.267689) can0 1CEBFFF1#0200000000000000
(1787075058.268656) can0 1CEBFFF1#03FA4880B7FFFFFF
(1787075058.294713) can0 18F015F1#000040974BAA4627
(1787075058.316198) can0 18FEF1F8#FF0000FFFFFFFFFF
(1787075058.317403) can0 18F005F8#7EFFFF7EFFFFFFFF
(1787075058.365734) can0 1CECFFF1#20120003FF19F000
(1787075058.366659) can0 1CEBFFF1#0127100000000000
(1787075058.367676) can0 1CEBFFF1#0200000000000000
(1787075058.368654) can0 1CEBFFF1#03FA4880B7FFFFFF
(1787075058.394695) can0 18F015F1#000040974BAA4627
(1787075058.404576) can0 18F017F1#DDA5FFD99695
(1787075058.405021) can0 18F018F1#DA4DFD938EDD
(1787075058.416187) can0 18FEF1F8#FF0000FFFFFFFFFF
(1787075058.417319) can0 18F005F8#7EFFFF7EFFFFFFFF
(1787075058.465797) can0 1CECFFF1#20120003FF19F000
(1787075058.466672) can0 1CEBFFF1#0127100000000000
(1787075058.467681) can0 1CEBFFF1#0200000000000000
(1787075058.468676) can0 1CEBFFF1#03FA4880B7FFFFFF
(1787075058.495121) can0 18F015F1#000040974BAA4627
(1787075058.516457) can0 18FEF1F8#FF0000FFFFFFFFFF
(1787075058.517631) can0 18F005F8#7EFFFF7EFFFFFFFF
(1787075058.565728) can0 1CECFFF1#20120003FF19F000
(1787075058.566818) can0 1CEBFFF1#0127100000000000
(1787075058.567662) can0 1CEBFFF1#0200000000000000
(1787075058.568645) can0 1CEBFFF1#03FA4880B7FFFFFF
(1787075058.594674) can0 18F015F1#000040974BAA4627
(1787075058.616170) can0 18FEF1F8#FF0000FFFFFFFFFF
(1787075058.617729) can0 18F005F8#7EFFFF7EFFFFFFFF
(1787075058.665712) can0 1CECFFF1#20120003FF19F000
(1787075058.666657) can0 1CEBFFF1#0127100000000000
(1787075058.667663) can0 1CEBFFF1#0200000000000000
(1787075058.668649) can0 1CEBFFF1#03FA4880B7FFFFFF
(1787075058.671247) can0 18FF14D1#
(1787075058.694643) can0 18F015F1#000040974BAA4627
(1787075058.716196) can0 18FEF1F8#FF0000FFFFFFFFFF
(1787075058.717362) can0 18F005F8#7EFFFF7EFFFFFFFF
(1787075058.765823) can0 1CECFFF1#20120003FF19F000
(1787075058.766685) can0 1CEBFFF1#0127100000000000
(1787075058.767690) can0 1CEBFFF1#0200000000000000
(1787075058.768671) can0 1CEBFFF1#03FA4880B7FFFFFF
(1787075058.794822) can0 18F015F1#000040974BAA4627
(1787075058.816371) can0 18FEF1F8#FF0000FFFFFFFFFF
(1787075058.817622) can0 18F005F8#7EFFFF7EFFFFFFFF
(1787075058.866809) can0 1CECFFF1#20120003FF19F000
(1787075058.867662) can0 1CEBFFF1#0127100000000000
(1787075058.868670) can0 1CEBFFF1#0200000000000000
(1787075058.869646) can0 1CEBFFF1#03FA4880B7FFFFFF
(1787075058.896369) can0 18F015F1#000040974BAA4627
(1787075058.916197) can0 18FEF1F8#FF0000FFFFFFFFFF
(1787075058.917339) can0 18F005F8#7EFFFF7EFFFFFFFF
(1787075058.966695) can0 1CECFFF1#20120003FF19F000
(1787075058.967657) can0 1CEBFFF1#0127100000000000
(1787075058.968663) can0 1CEBFFF1#0200000000000000
(1787075058.969682) can0 1CEBFFF1#03FA4880B7FFFFFF
(1787075058.995662) can0 18F015F1#000040974BAA4627
(1787075059.016279) can0 18FEF1F8#FF0000FFFFFFFFFF
(1787075059.017429) can0 18F005F8#7EFFFF7EFFFFFFFF
(1787075059.066690) can0 1CECFFF1#20120003FF19F000
(1787075059.067668) can0 1CEBFFF1#0127100000000000
(1787075059.068678) can0 1CEBFFF1#0200000000000000
(1787075059.069662) can0 1CEBFFF1#03FA4880B7FFFFFF
(1787075059.095831) can0 18F015F1#000040974BAA4627
(1787075059.116245) can0 18FEF1F8#FF0000FFFFFFFFFF
(1787075059.117564) can0 18F005F8#7EFFFF7EFFFFFFFF
(1787075059.166706) can0 1CECFFF1#20120003FF19F000
(1787075059.167669) can0 1CEBFFF1#0127100000000000
(1787075059.168728) can0 1CEBFFF1#0200000000000000
(1787075059.169696) can0 1CEBFFF1#03FA4880B7FFFFFF
(1787075059.171317) can0 18FF14D1#
(1787075059.196379) can0 18F015F1#000040974BAA4627
(1787075059.216829) can0 18FEF1F8#FF0000FFFFFFFFFF
(1787075059.217982) can0 18F005F8#7EFFFF7EFFFFFFFF
(1787075059.266973) can0 1CECFFF1#20120003FF19F000
(1787075059.267752) can0 1CEBFFF1#0127100000000000
(1787075059.268772) can0 1CEBFFF1#0200000000000000
(1787075059.269732) can0 1CEBFFF1#03FA4880B7FFFFFF
(1787075059.295716) can0 18F015F1#000040974BAA4627
(1787075059.316238) can0 18FEF1F8#FF0000FFFFFFFFFF
(1787075059.317439) can0 18F005F8#7EFFFF7EFFFFFFFF
(1787075059.366758) can0 1CECFFF1#20120003FF19F000
(1787075059.367687) can0 1CEBFFF1#0127100000000000
(1787075059.368688) can0 1CEBFFF1#0200000000000000
(1787075059.369670) can0 1CEBFFF1#03FA4880B7FFFFFF
(1787075059.395713) can0 18F015F1#000040974BAA4627
(1787075059.406602) can0 18F017F1#DDA5FFD99695
(1787075059.407051) can0 18F018F1#DA4DFD938EDD
(1787075059.416238) can0 18FEF1F8#FF0000FFFFFFFFFF
(1787075059.417433) can0 18F005F8#7EFFFF7EFFFFFFFF
(1787075059.466762) can0 1CECFFF1#20120003FF19F000
(1787075059.467665) can0 1CEBFFF1#0127100000000000
(1787075059.468679) can0 1CEBFFF1#0200000000000000
(1787075059.469667) can0 1CEBFFF1#03FA4880B7FFFFFF
(1787075059.495833) can0 18F015F1#000040974BAA4627
(1787075059.516303) can0 18FEF1F8#FF0000FFFFFFFFFF
(1787075059.517454) can0 18F005F8#7EFFFF7EFFFFFFFF
(1787075059.567918) can0 1CECFFF1#20120003FF19F000
(1787075059.568679) can0 1CEBFFF1#0127100000000000
(1787075059.569670) can0 1CEBFFF1#0200000000000000
(1787075059.570649) can0 1CEBFFF1#03FA4784F7FFFFFF
(1787075059.596687) can0 18F015F1#000040974BAA4627
(1787075059.616229) can0 18FEF1F8#FF0000FFFFFFFFFF
(1787075059.617365) can0 18F005F8#7EFFFF7EFFFFFFFF
(1787075059.667742) can0 1CECFFF1#20120003FF19F000
(1787075059.668670) can0 1CEBFFF1#0127100000000000
(1787075059.669671) can0 1CEBFFF1#0200000000000000
(1787075059.670656) can0 1CEBFFF1#03FA4880B7FFFFFF
(1787075059.671247) can0 18FF14D1#
(1787075059.696663) can0 18F015F1#000040974BAA4627
(1787075059.716185) can0 18FEF1F8#FF0000FFFFFFFFFF
(1787075059.717322) can0 18F005F8#7EFFFF7EFFFFFFFF
(1787075059.767732) can0 1CECFFF1#20120003FF19F000
(1787075059.768670) can0 1CEBFFF1#0127100000000000
(1787075059.769731) can0 1CEBFFF1#0200000000000000
(1787075059.770664) can0 1CEBFFF1#03FA4880B7FFFFFF
(1787075059.796753) can0 18F015F1#000040964BAA4627
(1787075059.816333) can0 18FEF1F8#FF0000FFFFFFFFFF
(1787075059.817686) can0 18F005F8#7EFFFF7EFFFFFFFF
(1787075059.867726) can0 1CECFFF1#20120003FF19F000
(1787075059.868662) can0 1CEBFFF1#0127100000000000
(1787075059.869671) can0 1CEBFFF1#0200000000000000
(1787075059.870654) can0 1CEBFFF1#03FA4880B7FFFFFF
(1787075059.896761) can0 18F015F1#000040974BAA4627
(1787075059.916458) can0 18FEF1F8#FF0000FFFFFFFFFF
(1787075059.918035) can0 18F005F8#7EFFFF7EFFFFFFFF
(1787075059.967711) can0 1CECFFF1#20120003FF19F000
(1787075059.968672) can0 1CEBFFF1#0127100000000000
(1787075059.969681) can0 1CEBFFF1#0200000000000000
(1787075059.970656) can0 1CEBFFF1#03FA4880B7FFFFFF
(1787075059.996684) can0 18F015F1#000040974BAA4627
(1787075060.016229) can0 18FEF1F8#FF0000FFFFFFFFFF
(1787075060.017430) can0 18F005F8#7EFFFF7EFFFFFFFF
(1787075060.067709) can0 1CECFFF1#20120003FF19F000
(1787075060.068676) can0 1CEBFFF1#0127100000000000
(1787075060.069681) can0 1CEBFFF1#0200000000000000
(1787075060.070665) can0 1CEBFFF1#03FA4880B7FFFFFF
(1787075060.096687) can0 18F015F1#000040974BAA4627
(1787075060.116309) can0 18FEF1F8#FF0000FFFFFFFFFF
(1787075060.117494) can0 18F005F8#7EFFFF7EFFFFFFFF
(1787075060.167895) can0 1CECFFF1#20120003FF19F000
(1787075060.168676) can0 1CEBFFF1#0127100000000000
(1787075060.169748) can0 1CEBFFF1#0200000000000000
(1787075060.170923) can0 1CEBFFF1#03FA4880B7FFFFFF
(1787075060.171588) can0 18FF14D1#
(1787075060.196806) can0 18F015F1#000040964BAA4626
(1787075060.216273) can0 18FEF1F8#FF0000FFFFFFFFFF
(1787075060.217436) can0 18F005F8#7EFFFF7EFFFFFFFF
(1787075060.267733) can0 1CECFFF1#20120003FF19F000
(1787075060.268682) can0 1CEBFFF1#0127100000000000
(1787075060.269693) can0 1CEBFFF1#0200000000000000
(1787075060.270675) can0 1CEBFFF1#03FA4880B7FFFFFF
(1787075060.296679) can0 18F015F1#000040974BAA4627
(1787075060.316209) can0 18FEF1F8#FF0000FFFFFFFFFF
(1787075060.317363) can0 18F005F8#7EFFFF7EFFFFFFFF
(1787075060.368720) can0 1CECFFF1#20120003FF19F000
(1787075060.369685) can0 1CEBFFF1#0127100000000000
(1787075060.370693) can0 1CEBFFF1#0200000000000000
(1787075060.371676) can0 1CEBFFF1#03FA4880B7FFFFFF
(1787075060.397723) can0 18F015F1#000040974BAA4627
(1787075060.407631) can0 18F017F1#DE99FFE0972A
(1787075060.408067) can0 18F018F1#D920FDD18FB5
(1787075060.416201) can0 18FEF1F8#FF0000FFFFFFFFFF
(1787075060.417446) can0 18F005F8#7EFFFF7EFFFFFFFF
(1787075060.468790) can0 1CECFFF1#20120003FF19F000
(1787075060.469689) can0 1CEBFFF1#0127100000000000
(1787075060.470706) can0 1CEBFFF1#0200000000000000
(1787075060.471691) can0 1CEBFFF1#03FA4784F7FFFFFF
(1787075060.497815) can0 18F015F1#000040964BAA4627
(1787075060.517329) can0 18FEF1F8#FF0000FFFFFFFFFF
(1787075060.518721) can0 18F005F8#7EFFFF7EFFFFFFFF
(1787075060.568990) can0 1CECFFF1#20120003FF19F000
(1787075060.570012) can0 1CEBFFF1#0127100000000000
(1787075060.570723) can0 1CEBFFF1#0200000000000000
(1787075060.571805) can0 1CEBFFF1#03FA4880B7FFFFFF
(1787075060.597936) can0 18F015F1#000040974BAA4627
(1787075060.616237) can0 18FEF1F8#FF0000FFFFFFFFFF
(1787075060.617357) can0 18F005F8#7EFFFF7EFFFFFFFF
(1787075060.668729) can0 1CECFFF1#20120003FF19F000
(1787075060.669685) can0 1CEBFFF1#0127100000000000
(1787075060.670689) can0 1CEBFFF1#0200000000000000
(1787075060.671213) can0 18FF14D1#
(1787075060.671784) can0 1CEBFFF1#03FA4784F7FFFFFF
(1787075060.697686) can0 18F015F1#000040964BAA4627
(1787075060.716218) can0 18FEF1F8#FF0000FFFFFFFFFF
(1787075060.717388) can0 18F005F8#7EFFFF7EFFFFFFFF
(1787075060.768729) can0 1CECFFF1#20120003FF19F000
(1787075060.769671) can0 1CEBFFF1#0127100000000000
(1787075060.770679) can0 1CEBFFF1#0200000000000000
(1787075060.771660) can0 1CEBFFF1#03FA4784F7FFFFFF
(1787075060.797811) can0 18F015F1#000040974BAB4627
(1787075060.816230) can0 18FEF1F8#FF0000FFFFFFFFFF
(1787075060.817448) can0 18F005F8#7EFFFF7EFFFFFFFF
(1787075060.869063) can0 1CECFFF1#20120003FF19F000
(1787075060.869873) can0 1CEBFFF1#0127100000000000
(1787075060.870792) can0 1CEBFFF1#0200000000000000
(1787075060.871795) can0 1CEBFFF1#03FA4880B7FFFFFF
(1787075060.897788) can0 18F015F1#000040964BAA4627
(1787075060.916191) can0 18FEF1F8#FF0000FFFFFFFFFF
(1787075060.917302) can0 18F005F8#7EFFFF7EFFFFFFFF
(1787075060.968731) can0 1CECFFF1#20120003FF19F000
(1787075060.969730) can0 1CEBFFF1#0127100000000000
(1787075060.970694) can0 1CEBFFF1#0200000000000000
(1787075060.971674) can0 1CEBFFF1#03FA4784F7FFFFFF
(1787075060.997706) can0 18F015F1#000040974BAA4627
(1787075061.016268) can0 18FEF1F8#FF0000FFFFFFFFFF
(1787075061.017434) can0 18F005F8#7EFFFF7EFFFFFFFF
(1787075061.069712) can0 1CECFFF1#20120003FF19F000
(1787075061.070688) can0 1CEBFFF1#0127100000000000
(1787075061.071696) can0 1CEBFFF1#0200000000000000
(1787075061.072679) can0 1CEBFFF1#03FA4880B7FFFFFF
(1787075061.098730) can0 18F015F1#000040964BAB4627
(1787075061.116262) can0 18FEF1F8#FF0000FFFFFFFFFF
(1787075061.117545) can0 18F005F8#7EFFFF7EFFFFFFFF
(1787075061.170290) can0 1CECFFF1#20120003FF19F000
(1787075061.170797) can0 1CEBFFF1#0127100000000000
(1787075061.171251) can0 18FF14D1#
(1787075061.171876) can0 1CEBFFF1#0200000000000000
(1787075061.172814) can0 1CEBFFF1#03FA4784F7FFFFFF
(1787075061.198786) can0 18F015F1#000040964BAA4627
(1787075061.216433) can0 18FEF1F8#FF0000FFFFFFFFFF
(1787075061.218361) can0 18F005F8#7EFFFF7EFFFFFFFF
(1787075061.269732) can0 1CECFFF1#20120003FF19F000
(1787075061.270676) can0 1CEBFFF1#0127100000000000
(1787075061.271759) can0 1CEBFFF1#0200000000000000
(1787075061.272716) can0 1CEBFFF1#03FA4784F7FFFFFF
(1787075061.298678) can0 18F015F1#000040964BAA4627
(1787075061.316187) can0 18FEF1F8#FF0000FFFFFFFFFF
(1787075061.317320) can0 18F005F8#7EFFFF7EFFFFFFFF
(1787075061.369740) can0 1CECFFF1#20120003FF19F000
(1787075061.370680) can0 1CEBFFF1#0127100000000000
(1787075061.371685) can0 1CEBFFF1#0200000000000000
(1787075061.372663) can0 1CEBFFF1#03FA4784F7FFFFFF
(1787075061.398686) can0 18F015F1#000040964BAB4627
(1787075061.409600) can0 18F017F1#DE99FFE0972A
(1787075061.410057) can0 18F018F1#D920FDD18FB5
(1787075061.416186) can0 18FEF1F8#FF0000FFFFFFFFFF
(1787075061.417327) can0 18F005F8#7EFFFF7EFFFFFFFF
(1787075061.469782) can0 1CECFFF1#20120003FF19F000
(1787075061.470681) can0 1CEBFFF1#0127100000000000
(1787075061.471690) can0 1CEBFFF1#0200000000000000
(1787075061.472667) can0 1CEBFFF1#03FA4784F7FFFFFF
(1787075061.499203) can0 18F015F1#000040974BAA4627
(1787075061.517245) can0 18FEF1F8#FF0000FFFFFFFFFF
(1787075061.518632) can0 18F005F8#7EFFFF7EFFFFFFFF
(1787075061.569713) can0 1CECFFF1#20120003FF19F000
(1787075061.570679) can0 1CEBFFF1#0127100000000000
(1787075061.571682) can0 1CEBFFF1#0200000000000000
(1787075061.572666) can0 1CEBFFF1#03FA4784F7FFFFFF
(1787075061.598730) can0 18F015F1#000040964BAA4627
(1787075061.616233) can0 18FEF1F8#FF0000FFFFFFFFFF
(1787075061.617444) can0 18F005F8#7EFFFF7EFFFFFFFF
(1787075061.669753) can0 1CECFFF1#20120003FF19F000
(1787075061.670676) can0 1CEBFFF1#0127100000000000
(1787075061.671190) can0 18FF14D1#
(1787075061.671776) can0 1CEBFFF1#0200000000000000
(1787075061.672671) can0 1CEBFFF1#03FA4784F7FFFFFF
(1787075061.699696) can0 18F015F1#000040964BAB4627
(1787075061.716197) can0 18FEF1F8#FF0000FFFFFFFFFF
(1787075061.717380) can0 18F005F8#7EFFFF7EFFFFFFFF
(1787075061.770759) can0 1CECFFF1#20120003FF19F000
(1787075061.771702) can0 1CEBFFF1#0127100000000000
(1787075061.772715) can0 1CEBFFF1#0200000000000000
(1787075061.773701) can0 1CEBFFF1#03FA4784F7FFFFFF
(1787075061.799784) can0 18F015F1#000040964BAA4627
(1787075061.816271) can0 18FEF1F8#FF0000FFFFFFFFFF
(1787075061.817558) can0 18F005F8#7EFFFF7EFFFFFFFF
(1787075061.870750) can0 1CECFFF1#20120003FF19F000
(1787075061.871676) can0 1CEBFFF1#0127100000000000
(1787075061.872684) can0 1CEBFFF1#0200000000000000
(1787075061.873679) can0 1CEBFFF1#03FA4784F7FFFFFF
(1787075061.899757) can0 18F015F1#000040964BAA4627
(1787075061.917159) can0 18FEF1F8#FF0000FFFFFFFFFF
(1787075061.918335) can0 18F005F8#7EFFFF7EFFFFFFFF
(1787075061.970748) can0 1CECFFF1#20120003FF19F000
(1787075061.971693) can0 1CEBFFF1#0127100000000000
(1787075061.972702) can0 1CEBFFF1#0200000000000000
(1787075061.973690) can0 1CEBFFF1#03FA4784F7FFFFFF
(1787075061.999703) can0 18F015F1#000040964BAA4627
(1787075062.016244) can0 18FEF1F8#FF0000FFFFFFFFFF
(1787075062.017394) can0 18F005F8#7EFFFF7EFFFFFFFF
(1787075062.070731) can0 1CECFFF1#20120003FF19F000
(1787075062.071698) can0 1CEBFFF1#0127100000000000
(1787075062.072704) can0 1CEBFFF1#0200000000000000
(1787075062.073685) can0 1CEBFFF1#03FA4784F7FFFFFF
(1787075062.099726) can0 18F015F1#000040964BAA4627
(1787075062.116290) can0 18FEF1F8#FF0000FFFFFFFFFF
(1787075062.117477) can0 18F005F8#7EFFFF7EFFFFFFFF
(1787075062.171382) can0 1CECFFF1#20120003FF19F000
(1787075062.171752) can0 18FF14D1#
(1787075062.172029) can0 1CEBFFF1#0127100000000000
(1787075062.173013) can0 1CEBFFF1#0200000000000000
(1787075062.173695) can0 1CEBFFF1#03FA4784F7FFFFFF
(1787075062.199850) can0 18F015F1#000040964BAA4627
(1787075062.216198) can0 18FEF1F8#FF0000FFFFFFFFFF
(1787075062.217365) can0 18F005F8#7EFFFF7EFFFFFFFF
(1787075062.270752) can0 1CECFFF1#20120003FF19F000
(1787075062.271680) can0 1CEBFFF1#0127100000000000
(1787075062.272688) can0 1CEBFFF1#0200000000000000
(1787075062.273670) can0 1CEBFFF1#03FA4784F7FFFFFF
(1787075062.299695) can0 18F015F1#000040964BAB4627
(1787075062.316181) can0 18FEF1F8#FF0000FFFFFFFFFF
(1787075062.317316) can0 18F005F8#7EFFFF7EFFFFFFFF
(1787075062.370743) can0 1CECFFF1#20120003FF19F000
(1787075062.371686) can0 1CEBFFF1#0127100000000000
(1787075062.372691) can0 1CEBFFF1#0200000000000000
(1787075062.373679) can0 1CEBFFF1#03FA4784F7FFFFFF
(1787075062.399696) can0 18F015F1#000040964BAA4627
(1787075062.410594) can0 18F017F1#DE26FF9597ED
(1787075062.411056) can0 18F018F1#D8BFFDA48E6F
(1787075062.416197) can0 18FEF1F8#FF0000FFFFFFFFFF
(1787075062.417384) can0 18F005F8#7EFFFF7EFFFFFFFF
(1787075062.471812) can0 1CECFFF1#20120003FF19F000
(1787075062.472705) can0 1CEBFFF1#0127100000000000
(1787075062.473715) can0 1CEBFFF1#0200000000000000
(1787075062.474691) can0 1CEBFFF1#03FA4784F7FFFFFF
(1787075062.500796) can0 18F015F1#000040964BAA4627
(1787075062.517477) can0 18FEF1F8#FF0000FFFFFFFFFF
(1787075062.518737) can0 18F005F8#7EFFFF7EFFFFFFFF
(1787075062.571727) can0 1CECFFF1#20120003FF19F000
(1787075062.572680) can0 1CEBFFF1#0127100000000000
(1787075062.573688) can0 1CEBFFF1#0200000000000000
(1787075062.574684) can0 1CEBFFF1#03FA4784F7FFFFFF
(1787075062.600744) can0 18F015F1#000040964BAB4627
(1787075062.616259) can0 18FEF1F8#FF0000FFFFFFFFFF
(1787075062.617413) can0 18F005F8#7EFFFF7EFFFFFFFF
(1787075062.671252) can0 18FF14D1#
(1787075062.671668) can0 1CECFFF1#20120003FF19F000
(1787075062.672690) can0 1CEBFFF1#0127100000000000
(1787075062.673690) can0 1CEBFFF1#0200000000000000
(1787075062.674675) can0 1CEBFFF1#03FA4784F7FFFFFF
(1787075062.700759) can0 18F015F1#000040964BAA4627
(1787075062.716440) can0 18FEF1F8#FF0000FFFFFFFFFF
(1787075062.717690) can0 18F005F8#7EFFFF7EFFFFFFFF
(1787075062.771767) can0 1CECFFF1#20120003FF19F000
(1787075062.772710) can0 1CEBFFF1#0127100000000000
(1787075062.773716) can0 1CEBFFF1#0200000000000000
(1787075062.774723) can0 1CEBFFF1#03FA4784F7FFFFFF
(1787075062.800795) can0 18F015F1#000040964BAA4627
(1787075062.816262) can0 18FEF1F8#FF0000FFFFFFFFFF
(1787075062.817429) can0 18F005F8#7EFFFF7EFFFFFFFF
(1787075062.872313) can0 1CECFFF1#20120003FF19F000
(1787075062.873026) can0 1CEBFFF1#0127100000000000
(1787075062.873716) can0 1CEBFFF1#0200000000000000
(1787075062.874742) can0 1CEBFFF1#03FA4784F7FFFFFF
(1787075062.900843) can0 18F015F1#000040964BAB4627
(1787075062.916284) can0 18FEF1F8#FF0000FFFFFFFFFF
(1787075062.917434) can0 18F005F8#7EFFFF7EFFFFFFFF
(1787075062.971746) can0 1CECFFF1#20120003FF19F000
(1787075062.972694) can0 1CEBFFF1#0127100000000000
(1787075062.973703) can0 1CEBFFF1#0200000000000000
(1787075062.974702) can0 1CEBFFF1#03FA4784F7FFFFFF
(1787075063.000699) can0 18F015F1#000040964BAA4627
(1787075063.016211) can0 18FEF1F8#FF0000FFFFFFFFFF
(1787075063.017394) can0 18F005F8#7EFFFF7EFFFFFFFF
(1787075063.071719) can0 1CECFFF1#20120003FF19F000
(1787075063.072700) can0 1CEBFFF1#0127100000000000
(1787075063.073712) can0 1CEBFFF1#0200000000000000
(1787075063.074705) can0 1CEBFFF1#03FA4784F7FFFFFF
(1787075063.100714) can0 18F015F1#000040964BAA4627
(1787075063.117611) can0 18FEF1F8#FF0000FFFFFFFFFF
(1787075063.118767) can0 18F005F8#7EFFFF7EFFFFFFFF
(1787075063.171534) can0 18FF14D1#
(1787075063.171989) can0 1CECFFF1#20120003FF19F000
(1787075063.172717) can0 1CEBFFF1#0127100000000000
(1787075063.173932) can0 1CEBFFF1#0200000000000000
(1787075063.174716) can0 1CEBFFF1#03FA4784F7FFFFFF
(1787075063.201938) can0 18F015F1#000040964BAB4627
(1787075063.217006) can0 18FEF1F8#FF0000FFFFFFFFFF
(1787075063.218303) can0 18F005F8#7EFFFF7EFFFFFFFF
(1787075063.272912) can0 1CECFFF1#20120003FF19F000
(1787075063.273765) can0 1CEBFFF1#0127100000000000
(1787075063.275079) can0 1CEBFFF1#0200000000000000
(1787075063.275683) can0 1CEBFFF1#03FA4784F7FFFFFF
(1787075063.301708) can0 18F015F1#000040964BAB4627
(1787075063.316175) can0 18FEF1F8#FF0000FFFFFFFFFF
(1787075063.317308) can0 18F005F8#7EFFFF7EFFFFFFFF
(1787075063.372739) can0 1CECFFF1#20120003FF19F000
(1787075063.373705) can0 1CEBFFF1#0127100000000000
(1787075063.374758) can0 1CEBFFF1#0200000000000000
(1787075063.375697) can0 1CEBFFF1#03FA4784F7FFFFFF
(1787075063.401735) can0 18F015F1#000040964BAA4627
(1787075063.411626) can0 18F017F1#DE26FF9597ED
(1787075063.412084) can0 18F018F1#D8BFFDA48E6F
(1787075063.416189) can0 18FEF1F8#FF0000FFFFFFFFFF
(1787075063.417377) can0 18F005F8#7EFFFF7EFFFFFFFF
(1787075063.472874) can0 1CECFFF1#20120003FF19F000
(1787075063.473700) can0 1CEBFFF1#0127100000000000
(1787075063.474767) can0 1CEBFFF1#0200000000000000
(1787075063.475689) can0 1CEBFFF1#03FA4784F7FFFFFF
(1787075063.501813) can0 18F015F1#000040964BAA4627
(1787075063.517917) can0 18FEF1F8#FF0000FFFFFFFFFF
(1787075063.519380) can0 18F005F8#7EFFFF7EFFFFFFFF
(1787075063.572731) can0 1CECFFF1#20120003FF19F000
(1787075063.573690) can0 1CEBFFF1#0127100000000000
(1787075063.574719) can0 1CEBFFF1#0200000000000000
(1787075063.575681) can0 1CEBFFF1#03FA4784F7FFFFFF
(1787075063.601755) can0 18F015F1#000040964BAA4627
(1787075063.616235) can0 18FEF1F8#FF0000FFFFFFFFFF
(1787075063.617387) can0 18F005F8#7EFFFF7EFFFFFFFF
(1787075063.671213) can0 18FF14D1#
(1787075063.672706) can0 1CECFFF1#20120003FF19F000
(1787075063.673710) can0 1CEBFFF1#0127100000000000
(1787075063.674722) can0 1CEBFFF1#0200000000000000
(1787075063.675695) can0 1CEBFFF1#03FA4784F7FFFFFF
(1787075063.701712) can0 18F015F1#000040964BAA4627
(1787075063.716304) can0 18FEF1F8#FF0000FFFFFFFFFF
(1787075063.717493) can0 18F005F8#7EFFFF7EFFFFFFFF
(1787075063.773742) can0 1CECFFF1#20120003FF19F000
(1787075063.774723) can0 1CEBFFF1#0127100000000000
(1787075063.775725) can0 1CEBFFF1#0200000000000000
(1787075063.776707) can0 1CEBFFF1#03FA4784F7FFFFFF
(1787075063.802817) can0 18F015F1#000040964BAA4627
(1787075063.816423) can0 18FEF1F8#FF0000FFFFFFFFFF
(1787075063.817724) can0 18F005F8#7EFFFF7EFFFFFFFF
(1787075063.872767) can0 1CECFFF1#20120003FF19F000
(1787075063.873704) can0 1CEBFFF1#0127100000000000
(1787075063.874709) can0 1CEBFFF1#0200000000000000
(1787075063.875684) can0 1CEBFFF1#03FA4784F7FFFFFF
(1787075063.902849) can0 18F015F1#000040964BAB4627
(1787075063.916188) can0 18FEF1F8#FF0000FFFFFFFFFF
(1787075063.917360) can0 18F005F8#7EFFFF7EFFFFFFFF
(1787075063.973761) can0 1CECFFF1#20120003FF19F000
(1787075063.974704) can0 1CEBFFF1#0127100000000000
(1787075063.975707) can0 1CEBFFF1#0200000000000000
(1787075063.976698) can0 1CEBFFF1#03FA4784F7FFFFFF
(1787075064.002789) can0 18F015F1#000040964BAA4627
(1787075064.016519) can0 18FEF1F8#FF0000FFFFFFFFFF
(1787075064.017740) can0 18F005F8#7EFFFF7EFFFFFFFF
(1787075064.073752) can0 1CECFFF1#20120003FF19F000
(1787075064.074708) can0 1CEBFFF1#0127100000000000
(1787075064.075718) can0 1CEBFFF1#0200000000000000
(1787075064.076696) can0 1CEBFFF1#03FA4784F7FFFFFF
(1787075064.102749) can0 18F015F1#000040964BAA4627
(1787075064.116253) can0 18FEF1F8#FF0000FFFFFFFFFF
(1787075064.117484) can0 18F005F8#7EFFFF7EFFFFFFFF
(1787075064.171675) can0 18FF14D1#
(1787075064.173734) can0 1CECFFF1#20120003FF19F000
(1787075064.174725) can0 1CEBFFF1#0127100000000000
(1787075064.175720) can0 1CEBFFF1#0200000000000000
(1787075064.176690) can0 1CEBFFF1#03FA4784F7FFFFFF
(1787075064.202789) can0 18F015F1#000040964BAB4627
(1787075064.216811) can0 18FEF1F8#FF0000FFFFFFFFFF
(1787075064.218055) can0 18F005F8#7EFFFF7EFFFFFFFF
(1787075064.273799) can0 1CECFFF1#20120003FF19F000
(1787075064.274713) can0 1CEBFFF1#0127100000000000
(1787075064.275721) can0 1CEBFFF1#0200000000000000
(1787075064.276695) can0 1CEBFFF1#03FA4784F7FFFFFF
(1787075064.302730) can0 18F015F1#000040964BAA4627
(1787075064.316179) can0 18FEF1F8#FF0000FFFFFFFFFF
(1787075064.317371) can0 18F005F8#7EFFFF7EFFFFFFFF
(1787075064.373761) can0 1CECFFF1#20120003FF19F000
(1787075064.374705) can0 1CEBFFF1#0127100000000000
(1787075064.375716) can0 1CEBFFF1#0200000000000000
(1787075064.376692) can0 1CEBFFF1#03FA4784F7FFFFFF
(1787075064.402724) can0 18F015F1#000040964BAB4627
(1787075064.413645) can0 18F017F1#DE45FFA797E5
(1787075064.414202) can0 18F018F1#D965FD958FE8
(1787075064.416186) can0 18FEF1F8#FF0000FFFFFFFFFF
(1787075064.417376) can0 18F005F8#7EFFFF7EFFFFFFFF
(1787075064.473817) can0 1CECFFF1#20120003FF19F000
(1787075064.474725) can0 1CEBFFF1#0127100000000000
(1787075064.475720) can0 1CEBFFF1#0200000000000000
(1787075064.476694) can0 1CEBFFF1#03FA4784F7FFFFFF
(1787075064.502927) can0 18F015F1#000040964BAB4627
(1787075064.517623) can0 18FEF1F8#FF0000FFFFFFFFFF
(1787075064.519239) can0 18F005F8#7EFFFF7EFFFFFFFF
(1787075064.574747) can0 1CECFFF1#20120003FF19F000
(1787075064.575696) can0 1CEBFFF1#0127100000000000
(1787075064.576755) can0 1CEBFFF1#0200000000000000
(1787075064.577684) can0 1CEBFFF1#03FA4784F7FFFFFF
(1787075064.603748) can0 18F015F1#000040964BAA4627
(1787075064.616233) can0 18FEF1F8#FF0000FFFFFFFFFF
(1787075064.617415) can0 18F005F8#7EFFFF7EFFFFFFFF
(1787075064.671156) can0 18FF14D1#
(1787075064.674714) can0 1CECFFF1#20120003FF19F000
(1787075064.675696) can0 1CEBFFF1#0127100000000000
(1787075064.676709) can0 1CEBFFF1#0200000000000000
(1787075064.677702) can0 1CEBFFF1#03FA4784F7FFFFFF
(1787075064.703704) can0 18F015F1#000040964BAB4627
(1787075064.716237) can0 18FEF1F8#FF0000FFFFFFFFFF
(1787075064.717437) can0 18F005F8#7EFFFF7EFFFFFFFF
(1787075064.774786) can0 1CECFFF1#20120003FF19F000
(1787075064.775726) can0 1CEBFFF1#0127100000000000
(1787075064.776725) can0 1CEBFFF1#0200000000000000
(1787075064.777701) can0 1CEBFFF1#03FA4784F7FFFFFF
(1787075064.803790) can0 18F015F1#000040964BAB4627
(1787075064.816260) can0 18FEF1F8#FF0000FFFFFFFFFF
(1787075064.817457) can0 18F005F8#7EFFFF7EFFFFFFFF
(1787075064.875347) can0 1CECFFF1#20120003FF19F000
(1787075064.875722) can0 1CEBFFF1#0127100000000000
(1787075064.876937) can0 1CEBFFF1#0200000000000000
(1787075064.877705) can0 1CEBFFF1#03FA4784F7FFFFFF
(1787075064.903738) can0 18F015F1#000040964BAA4627
(1787075064.916203) can0 18FEF1F8#FF0000FFFFFFFFFF
(1787075064.917355) can0 18F005F8#7EFFFF7EFFFFFFFF
(1787075064.974791) can0 1CECFFF1#20120003FF19F000
(1787075064.975703) can0 1CEBFFF1#0127100000000000
(1787075064.976735) can0 1CEBFFF1#0200000000000000
(1787075064.977720) can0 1CEBFFF1#03FA4784F7FFFFFF
(1787075065.003752) can0 18F015F1#000040964BAB4627
(1787075065.016237) can0 18FEF1F8#FF0000FFFFFFFFFF
(1787075065.017454) can0 18F005F8#7EFFFF7EFFFFFFFF
(1787075065.074753) can0 1CECFFF1#20120003FF19F000
(1787075065.075707) can0 1CEBFFF1#0127100000000000
(1787075065.076719) can0 1CEBFFF1#0200000000000000
(1787075065.077694) can0 1CEBFFF1#03FA4784F7FFFFFF
(1787075065.103717) can0 18F015F1#000040964BAB4627
(1787075065.116684) can0 18FEF1F8#FF0000FFFFFFFFFF
(1787075065.117848) can0 18F005F8#7EFFFF7EFFFFFFFF
(1787075065.171293) can0 18FF14D1#
(1787075065.174926) can0 1CECFFF1#20120003FF19F000
(1787075065.175817) can0 1CEBFFF1#0127100000000000
(1787075065.176802) can0 1CEBFFF1#0200000000000000
(1787075065.177786) can0 1CEBFFF1#03FA4784F7FFFFFF
(1787075065.203984) can0 18F015F1#000040964BAB4627
(1787075065.216195) can0 18FEF1F8#FF0000FFFFFFFFFF
(1787075065.217406) can0 18F005F8#7EFFFF7EFFFFFFFF
(1787075065.275819) can0 1CECFFF1#20120003FF19F000
(1787075065.276706) can0 1CEBFFF1#0127100000000000
(1787075065.277715) can0 1CEBFFF1#0200000000000000
(1787075065.278697) can0 1CEBFFF1#03FA4784F7FFFFFF
(1787075065.304706) can0 18F015F1#000040964BAB4627
(1787075065.316202) can0 18FEF1F8#FF0000FFFFFFFFFF
(1787075065.317392) can0 18F005F8#7EFFFF7EFFFFFFFF
(1787075065.375773) can0 1CECFFF1#20120003FF19F000
(1787075065.376711) can0 1CEBFFF1#0127100000000000
(1787075065.377721) can0 1CEBFFF1#0200000000000000
(1787075065.378699) can0 1CEBFFF1#03FA4784F7FFFFFF
(1787075065.404718) can0 18F015F1#000040964BAB4628
(1787075065.414623) can0 18F017F1#DE45FFA797E5
(1787075065.415085) can0 18F018F1#D965FD958FE8
(1787075065.416250) can0 18FEF1F8#FF0000FFFFFFFFFF
(1787075065.417377) can0 18F005F8#7EFFFF7EFFFFFFFF
(1787075065.475946) can0 1CECFFF1#20120003FF19F000
(1787075065.476727) can0 1CEBFFF1#0127100000000000
(1787075065.477811) can0 1CEBFFF1#0200000000000000
(1787075065.478747) can0 1CEBFFF1#03FA4784F7FFFFFF
(1787075065.504963) can0 18F015F1#000040964BAA4627
(1787075065.516889) can0 18FEF1F8#FF0000FFFFFFFFFF
(1787075065.518546) can0 18F005F8#7EFFFF7EFFFFFFFF
(1787075065.575770) can0 1CECFFF1#20120003FF19F000
(1787075065.576706) can0 1CEBFFF1#0127100000000000
(1787075065.577714) can0 1CEBFFF1#0200000000000000
(1787075065.578700) can0 1CEBFFF1#03FA4784F7FFFFFF
(1787075065.604726) can0 18F015F1#000040964BAB4627
(1787075065.616231) can0 18FEF1F8#FF0000FFFFFFFFFF
(1787075065.617378) can0 18F005F8#7EFFFF7EFFFFFFFF
(1787075065.671134) can0 18FF14D1#
(1787075065.675731) can0 1CECFFF1#20120003FF19F000
(1787075065.676757) can0 1CEBFFF1#0127100000000000
(1787075065.677728) can0 1CEBFFF1#0200000000000000
(1787075065.678702) can0 1CEBFFF1#03FA4784F7FFFFFF
(1787075065.704767) can0 18F015F1#000040964BAB4628
(1787075065.716197) can0 18FEF1F8#FF0000FFFFFFFFFF
(1787075065.717333) can0 18F005F8#7EFFFF7EFFFFFFFF
(1787075065.775747) can0 1CECFFF1#20120003FF19F000
(1787075065.776726) can0 1CEBFFF1#0127100000000000
(1787075065.777735) can0 1CEBFFF1#0200000000000000
(1787075065.778726) can0 1CEBFFF1#03FA4784F7FFFFFF
(1787075065.804846) can0 18F015F1#000040964BAB4627
(1787075065.816244) can0 18FEF1F8#FF0000FFFFFFFFFF
(1787075065.817442) can0 18F005F8#7EFFFF7EFFFFFFFF
(1787075065.876794) can0 1CECFFF1#20120003FF19F000
(1787075065.881376) can0 1CEBFFF1#0127100000000000
(1787075065.881632) can0 1CEBFFF1#0200000000000000
(1787075065.882168) can0 1CEBFFF1#03FA4784F7FFFFFF
(1787075065.904722) can0 18F015F1#000040964BAB4627
(1787075065.916182) can0 18FEF1F8#FF0000FFFFFFFFFF
(1787075065.917301) can0 18F005F8#7EFFFF7EFFFFFFFF
(1787075065.975799) can0 1CECFFF1#20120003FF19F000
(1787075065.976738) can0 1CEBFFF1#0127100000000000
(1787075065.977741) can0 1CEBFFF1#0200000000000000
(1787075065.978718) can0 1CEBFFF1#03FA4784F7FFFFFF
(1787075066.004766) can0 18F015F1#000040964BAB4627
(1787075066.016238) can0 18FEF1F8#FF0000FFFFFFFFFF
(1787075066.017399) can0 18F005F8#7EFFFF7EFFFFFFFF
(1787075066.076763) can0 1CECFFF1#20120003FF19F000
(1787075066.077720) can0 1CEBFFF1#0127100000000000
(1787075066.078727) can0 1CEBFFF1#0200000000000000
(1787075066.079704) can0 1CEBFFF1#03FA4784F7FFFFFF
(1787075066.105734) can0 18F015F1#000040964BAB4627
(1787075066.116456) can0 18FEF1F8#FF0000FFFFFFFFFF
(1787075066.117597) can0 18F005F8#7EFFFF7EFFFFFFFF
(1787075066.171137) can0 18FF14D1#
(1787075066.176902) can0 1CECFFF1#20120003FF19F000
(1787075066.177764) can0 1CEBFFF1#0127100000000000
(1787075066.178750) can0 1CEBFFF1#0200000000000000
(1787075066.179812) can0 1CEBFFF1#03FA464436FFFFFF
(1787075066.206014) can0 18F015F1#000040954BAB4627
(1787075066.216185) can0 18FEF1F8#FF0000FFFFFFFFFF
(1787075066.217346) can0 18F005F8#7EFFFF7EFFFFFFFF
(1787075066.276771) can0 1CECFFF1#20120003FF19F000
(1787075066.277706) can0 1CEBFFF1#0127100000000000
(1787075066.278714) can0 1CEBFFF1#0200000000000000
(1787075066.279700) can0 1CEBFFF1#03FA464436FFFFFF
(1787075066.305718) can0 18F015F1#000040954BAB4627
(1787075066.316177) can0 18FEF1F8#FF0000FFFFFFFFFF
(1787075066.317340) can0 18F005F8#7EFFFF7EFFFFFFFF
(1787075066.376761) can0 1CECFFF1#20120003FF19F000
(1787075066.377712) can0 1CEBFFF1#0127100000000000
(1787075066.378717) can0 1CEBFFF1#0200000000000000
(1787075066.379695) can0 1CEBFFF1#03FA464436FFFFFF
(1787075066.405735) can0 18F015F1#000040954BAB4627
(1787075066.416205) can0 18FEF1F8#FF0000FFFFFFFFFF
(1787075066.416907) can0 18F017F1#DD23FFD997EB
(1787075066.417170) can0 18F018F1#DA92FD93908A
(1787075066.417745) can0 18F005F8#7EFFFF7EFFFFFFFF
(1787075066.476842) can0 1CECFFF1#20120003FF19F000
(1787075066.477732) can0 1CEBFFF1#0127100000000000
(1787075066.478744) can0 1CEBFFF1#0200000000000000
(1787075066.479718) can0 1CEBFFF1#03FA464436FFFFFF
(1787075066.505831) can0 18F015F1#000040954BAB4628
(1787075066.516754) can0 18FEF1F8#FF0000FFFFFFFFFF
(1787075066.518077) can0 18F005F8#7EFFFF7EFFFFFFFF
(1787075066.576746) can0 1CECFFF1#20120003FF19F000
(1787075066.577712) can0 1CEBFFF1#0127100000000000
(1787075066.578717) can0 1CEBFFF1#0200000000000000
(1787075066.579693) can0 1CEBFFF1#03FA464436FFFFFF
(1787075066.606298) can0 18F015F1#000040954BAB4628
(1787075066.616228) can0 18FEF1F8#FF0000FFFFFFFFFF
(1787075066.617425) can0 18F005F8#7EFFFF7EFFFFFFFF
(1787075066.671061) can0 18FF14D1#
(1787075066.677723) can0 1CECFFF1#20120003FF19F000
(1787075066.678718) can0 1CEBFFF1#0127100000000000
(1787075066.679723) can0 1CEBFFF1#0200000000000000
(1787075066.680700) can0 1CEBFFF1#03FA464436FFFFFF
(1787075066.706860) can0 18F015F1#000040954BAB4628
(1787075066.716218) can0 18FEF1F8#FF0000FFFFFFFFFF
(1787075066.717409) can0 18F005F8#7EFFFF7EFFFFFFFF
(1787075066.777784) can0 1CECFFF1#20120003FF19F000
(1787075066.778715) can0 1CEBFFF1#0127100000000000
(1787075066.779723) can0 1CEBFFF1#0200000000000000
(1787075066.780699) can0 1CEBFFF1#03FA464436FFFFFF
(1787075066.806852) can0 18F015F1#000040954BAB4628
(1787075066.816371) can0 18FEF1F8#FF0000FFFFFFFFFF
(1787075066.817630) can0 18F005F8#7EFFFF7EFFFFFFFF
(1787075066.878121) can0 1CECFFF1#20120003FF19F000
(1787075066.878809) can0 1CEBFFF1#0127100000000000
(1787075066.879825) can0 1CEBFFF1#0200000000000000
(1787075066.880849) can0 1CEBFFF1#03FA464436FFFFFF
(1787075066.906880) can0 18F015F1#000040954BAB4628
(1787075066.916205) can0 18FEF1F8#FF0000FFFFFFFFFF
(1787075066.917362) can0 18F005F8#7EFFFF7EFFFFFFFF
(1787075066.977767) can0 1CECFFF1#20120003FF19F000
(1787075066.978718) can0 1CEBFFF1#0127100000000000
(1787075066.979725) can0 1CEBFFF1#0200000000000000
(1787075066.980713) can0 1CEBFFF1#03FA464436FFFFFF
(1787075067.006734) can0 18F015F1#000040954BAA4627
(1787075067.016221) can0 18FEF1F8#FF0000FFFFFFFFFF
(1787075067.017433) can0 18F005F8#7EFFFF7EFFFFFFFF
(1787075067.077798) can0 1CECFFF1#20120003FF19F000
(1787075067.078727) can0 1CEBFFF1#0127100000000000
(1787075067.079742) can0 1CEBFFF1#0200000000000000
(1787075067.080721) can0 1CEBFFF1#03FA464436FFFFFF
(1787075067.106759) can0 18F015F1#000040954BAB4627
(1787075067.116214) can0 18FEF1F8#FF0000FFFFFFFFFF
(1787075067.117373) can0 18F005F8#7EFFFF7EFFFFFFFF
(1787075067.171280) can0 18FF14D1#
(1787075067.177876) can0 1CECFFF1#20120003FF19F000
(1787075067.178751) can0 1CEBFFF1#0127100000000000
(1787075067.179784) can0 1CEBFFF1#0200000000000000
(1787075067.180749) can0 1CEBFFF1#03FA464436FFFFFF
(1787075067.207078) can0 18F015F1#000040954BAB4628
(1787075067.216345) can0 18FEF1F8#FF0000FFFFFFFFFF
(1787075067.217633) can0 18F005F8#7EFFFF7EFFFFFFFF
(1787075067.277782) can0 1CECFFF1#20120003FF19F000
(1787075067.278781) can0 1CEBFFF1#0127100000000000
(1787075067.279771) can0 1CEBFFF1#0200000000000000
(1787075067.280718) can0 1CEBFFF1#03FA464436FFFFFF
(1787075067.306724) can0 18F015F1#000040954BAA4628
(1787075067.316213) can0 18FEF1F8#FF0000FFFFFFFFFF
(1787075067.317377) can0 18F005F8#7EFFFF7EFFFFFFFF
(1787075067.377776) can0 1CECFFF1#20120003FF19F000
(1787075067.378722) can0 1CEBFFF1#0127100000000000
(1787075067.379731) can0 1CEBFFF1#0200000000000000
(1787075067.380702) can0 1CEBFFF1#03FA464436FFFFFF
(1787075067.407743) can0 18F015F1#000040954BAB4628
(1787075067.416183) can0 18FEF1F8#FF0000FFFFFFFFFF
(1787075067.417361) can0 18F005F8#7EFFFF7EFFFFFFFF
(1787075067.417854) can0 18F017F1#DD23FFD997EB
(1787075067.418330) can0 18F018F1#DA92FD93908A
(1787075067.478900) can0 1CECFFF1#20120003FF19F000
(1787075067.479744) can0 1CEBFFF1#0127100000000000
(1787075067.480744) can0 1CEBFFF1#0200000000000000
(1787075067.481720) can0 1CEBFFF1#03FA464436FFFFFF
(1787075067.507790) can0 18F015F1#000040954BAB4628
(1787075067.517614) can0 18FEF1F8#FF0000FFFFFFFFFF
(1787075067.518995) can0 18F005F8#7EFFFF7EFFFFFFFF
(1787075067.578759) can0 1CECFFF1#20120003FF19F000
(1787075067.579755) can0 1CEBFFF1#0127100000000000
(1787075067.580725) can0 1CEBFFF1#0200000000000000
(1787075067.581699) can0 1CEBFFF1#03FA464436FFFFFF
(1787075067.607720) can0 18F015F1#000040954BAA4628
(1787075067.616263) can0 18FEF1F8#FF0000FFFFFFFFFF
(1787075067.617461) can0 18F005F8#7EFFFF7EFFFFFFFF
(1787075067.671029) can0 18FF14D1#
(1787075067.678750) can0 1CECFFF1#20120003FF19F000
(1787075067.679719) can0 1CEBFFF1#0127100000000000
(1787075067.680730) can0 1CEBFFF1#0200000000000000
(1787075067.681706) can0 1CEBFFF1#03FA464436FFFFFF
(1787075067.707748) can0 18F015F1#000040954BAA4628
(1787075067.716201) can0 18FEF1F8#FF0000FFFFFFFFFF
(1787075067.717363) can0 18F005F8#7EFFFF7EFFFFFFFF
(1787075067.778755) can0 1CECFFF1#20120003FF19F000
(1787075067.779732) can0 1CEBFFF1#0127100000000000
(1787075067.780738) can0 1CEBFFF1#0200000000000000
(1787075067.781716) can0 1CEBFFF1#03FA464436FFFFFF
(1787075067.807830) can0 18F015F1#000040954BAB4628
(1787075067.816253) can0 18FEF1F8#FF0000FFFFFFFFFF
(1787075067.817474) can0 18F005F8#7EFFFF7EFFFFFFFF
(1787075067.878768) can0 1CECFFF1#20120003FF19F000
(1787075067.879720) can0 1CEBFFF1#0127100000000000
(1787075067.880729) can0 1CEBFFF1#0200000000000000
(1787075067.881749) can0 1CEBFFF1#03FA464436FFFFFF
(1787075067.907940) can0 18F015F1#000040954BAA4628
(1787075067.916200) can0 18FEF1F8#FF0000FFFFFFFFFF
(1787075067.917350) can0 18F005F8#7EFFFF7EFFFFFFFF
(1787075067.979784) can0 1CECFFF1#20120003FF19F000
(1787075067.980723) can0 1CEBFFF1#0127100000000000
(1787075067.981732) can0 1CEBFFF1#0200000000000000
(1787075067.982716) can0 1CEBFFF1#03FA464436FFFFFF
(1787075068.008777) can0 18F015F1#000040954BAA4628
(1787075068.016371) can0 18FEF1F8#FF0000FFFFFFFFFF
(1787075068.017575) can0 18F005F8#7EFFFF7EFFFFFFFF
(1787075068.079766) can0 1CECFFF1#20120003FF19F000
(1787075068.080724) can0 1CEBFFF1#0127100000000000
(1787075068.081745) can0 1CEBFFF1#0200000000000000
(1787075068.082715) can0 1CEBFFF1#03FA464436FFFFFF
(1787075068.107758) can0 18F015F1#000040954BAB4628
(1787075068.116187) can0 18FEF1F8#FF0000FFFFFFFFFF
(1787075068.117618) can0 18F005F8#7EFFFF7EFFFFFFFF
(1787075068.171172) can0 18FF14D1#
(1787075068.179932) can0 1CECFFF1#20120003FF19F000
(1787075068.180755) can0 1CEBFFF1#0127100000000000
(1787075068.181943) can0 1CEBFFF1#0200000000000000
(1787075068.182827) can0 1CEBFFF1#03FA464436FFFFFF
(1787075068.208860) can0 18F015F1#000040954BAA4628
(1787075068.216827) can0 18FEF1F8#FF0000FFFFFFFFFF
(1787075068.218742) can0 18F005F8#7EFFFF7EFFFFFFFF
(1787075068.279790) can0 1CECFFF1#20120003FF19F000
(1787075068.280723) can0 1CEBFFF1#0127100000000000
(1787075068.281732) can0 1CEBFFF1#0200000000000000
(1787075068.282799) can0 1CEBFFF1#03FA464436FFFFFF
(1787075068.308751) can0 18F015F1#000040954BAA4628
(1787075068.316200) can0 18FEF1F8#FF0000FFFFFFFFFF
(1787075068.317368) can0 18F005F8#7EFFFF7EFFFFFFFF
(1787075068.379794) can0 1CECFFF1#20120003FF19F000
(1787075068.380727) can0 1CEBFFF1#0127100000000000
(1787075068.381736) can0 1CEBFFF1#0200000000000000
(1787075068.382710) can0 1CEBFFF1#03FA464436FFFFFF
(1787075068.408748) can0 18F015F1#000040954BAB4628
(1787075068.416194) can0 18FEF1F8#FF0000FFFFFFFFFF
(1787075068.417336) can0 18F005F8#7EFFFF7EFFFFFFFF
(1787075068.419631) can0 18F017F1#DD6BFFC1970A
(1787075068.420106) can0 18F018F1#DB36FE0391B2
(1787075068.479870) can0 1CECFFF1#20120003FF19F000
(1787075068.480746) can0 1CEBFFF1#0127100000000000
(1787075068.481744) can0 1CEBFFF1#0200000000000000
(1787075068.482717) can0 1CEBFFF1#03FA464436FFFFFF
(1787075068.508861) can0 18F015F1#000040954BAA4628
(1787075068.516556) can0 18FEF1F8#FF0000FFFFFFFFFF
(1787075068.520847) can0 18F005F8#7EFFFF7EFFFFFFFF
(1787075068.579766) can0 1CECFFF1#20120003FF19F000
(1787075068.580723) can0 1CEBFFF1#0127100000000000
(1787075068.581733) can0 1CEBFFF1#0200000000000000
(1787075068.582712) can0 1CEBFFF1#03FA464436FFFFFF
(1787075068.608725) can0 18F015F1#000040954BAB4628
(1787075068.616200) can0 18FEF1F8#FF0000FFFFFFFFFF
(1787075068.618163) can0 18F005F8#7EFFFF7EFFFFFFFF
(1787075068.671031) can0 18FF14D1#
(1787075068.679742) can0 1CECFFF1#20120003FF19F000
(1787075068.680731) can0 1CEBFFF1#0127100000000000
(1787075068.681741) can0 1CEBFFF1#0200000000000000
(1787075068.682717) can0 1CEBFFF1#03FA464436FFFFFF
(1787075068.709146) can0 18F015F1#000040954BAB4628
(1787075068.716222) can0 18FEF1F8#FF0000FFFFFFFFFF
(1787075068.717444) can0 18F005F8#7EFFFF7EFFFFFFFF
(1787075068.780785) can0 1CECFFF1#20120003FF19F000
(1787075068.781740) can0 1CEBFFF1#0127100000000000
(1787075068.782758) can0 1CEBFFF1#0200000000000000
(1787075068.783727) can0 1CEBFFF1#03FA464436FFFFFF
(1787075068.809910) can0 18F015F1#000040954BAA4628
(1787075068.816290) can0 18FEF1F8#FF0000FFFFFFFFFF
(1787075068.817497) can0 18F005F8#7EFFFF7EFFFFFFFF
(1787075068.880980) can0 1CECFFF1#20120003FF19F000
(1787075068.881794) can0 1CEBFFF1#0127100000000000
(1787075068.882791) can0 1CEBFFF1#0200000000000000
(1787075068.883773) can0 1CEBFFF1#03FA464436FFFFFF
(1787075068.909771) can0 18F015F1#000040954BAB4628
(1787075068.916175) can0 18FEF1F8#FF0000FFFFFFFFFF
(1787075068.917323) can0 18F005F8#7EFFFF7EFFFFFFFF
(1787075068.980794) can0 1CECFFF1#20120003FF19F000
(1787075068.981732) can0 1CEBFFF1#0127100000000000
(1787075068.982745) can0 1CEBFFF1#0200000000000000
(1787075068.983718) can0 1CEBFFF1#03FA464436FFFFFF
(1787075069.009757) can0 18F015F1#000040944BAB4628
(1787075069.016227) can0 18FEF1F8#FF0000FFFFFFFFFF
(1787075069.017400) can0 18F005F8#7EFFFF7EFFFFFFFF
(1787075069.080771) can0 1CECFFF1#20120003FF19F000
(1787075069.081749) can0 1CEBFFF1#0127100000000000
(1787075069.082752) can0 1CEBFFF1#0200000000000000
(1787075069.083746) can0 1CEBFFF1#03FA454576FFFFFF
(1787075069.109773) can0 18F015F1#000040944BAA4628
(1787075069.116195) can0 18FEF1F8#FF0000FFFFFFFFFF
(1787075069.117339) can0 18F005F8#7EFFFF7EFFFFFFFF
(1787075069.171199) can0 18FF14D1#
(1787075069.180975) can0 1CECFFF1#20120003FF19F000
(1787075069.181778) can0 1CEBFFF1#0127100000000000
(1787075069.182770) can0 1CEBFFF1#0200000000000000
(1787075069.183915) can0 1CEBFFF1#03FA454576FFFFFF
(1787075069.209945) can0 18F015F1#000040944BAA4628
(1787075069.216183) can0 18FEF1F8#FF0000FFFFFFFFFF
(1787075069.217367) can0 18F005F8#7EFFFF7EFFFFFFFF
(1787075069.280821) can0 1CECFFF1#20120003FF19F000
(1787075069.282151) can0 1CEBFFF1#0127100000000000
(1787075069.282874) can0 1CEBFFF1#0200000000000000
(1787075069.283725) can0 1CEBFFF1#03FA454576FFFFFF
(1787075069.309783) can0 18F015F1#000040944BAA4628
(1787075069.316284) can0 18FEF1F8#FF0000FFFFFFFFFF
(1787075069.317545) can0 18F005F8#7EFFFF7EFFFFFFFF
(1787075069.380838) can0 1CECFFF1#20120003FF19F000
(1787075069.381745) can0 1CEBFFF1#0127100000000000
(1787075069.382755) can0 1CEBFFF1#0200000000000000
(1787075069.383747) can0 1CEBFFF1#03FA454576FFFFFF
(1787075069.409780) can0 18F015F1#000040944BAA4628
(1787075069.416221) can0 18FEF1F8#FF0000FFFFFFFFFF
(1787075069.417422) can0 18F005F8#7EFFFF7EFFFFFFFF
(1787075069.420660) can0 18F017F1#DD6BFFC1970A
(1787075069.421122) can0 18F018F1#DB36FE0391B2
(1787075069.480932) can0 1CECFFF1#20120003FF19F000
(1787075069.481769) can0 1CEBFFF1#0127100000000000
(1787075069.482779) can0 1CEBFFF1#0200000000000000
(1787075069.483775) can0 1CEBFFF1#03FA454576FFFFFF
(1787075069.509895) can0 18F015F1#000040944BAA4628
(1787075069.516396) can0 18FEF1F8#FF0000FFFFFFFFFF
(1787075069.517847) can0 18F005F8#7EFFFF7EFFFFFFFF
(1787075069.581798) can0 1CECFFF1#20120003FF19F000
(1787075069.582738) can0 1CEBFFF1#0127100000000000
(1787075069.583754) can0 1CEBFFF1#0200000000000000
(1787075069.584727) can0 1CEBFFF1#03FA454576FFFFFF
(1787075069.610731) can0 18F015F1#000040944BAA4628
(1787075069.616171) can0 18FEF1F8#FF0000FFFFFFFFFF
(1787075069.617498) can0 18F005F8#7EFFFF7EFFFFFFFF
(1787075069.670997) can0 18FF14D1#
(1787075069.681758) can0 1CECFFF1#20120003FF19F000
(1787075069.682741) can0 1CEBFFF1#0127100000000000
(1787075069.683759) can0 1CEBFFF1#0200000000000000
(1787075069.684732) can0 1CEBFFF1#03FA454576FFFFFF
(1787075069.710777) can0 18F015F1#000040944BAA4628
(1787075069.716185) can0 18FEF1F8#FF0000FFFFFFFFFF
(1787075069.717367) can0 18F005F8#7EFFFF7EFFFFFFFF
(1787075069.781793) can0 1CECFFF1#20120003FF19F000
(1787075069.782747) can0 1CEBFFF1#0127100000000000
(1787075069.783758) can0 1CEBFFF1#0200000000000000
(1787075069.784731) can0 1CEBFFF1#03FA454576FFFFFF
(1787075069.810938) can0 18F015F1#000040944BAA4628
(1787075069.816341) can0 18FEF1F8#FF0000FFFFFFFFFF
(1787075069.817517) can0 18F005F8#7EFFFF7EFFFFFFFF
(1787075069.882349) can0 1CECFFF1#20120003FF19F000
(1787075069.883141) can0 1CEBFFF1#0127100000000000
(1787075069.883701) can0 1CEBFFF1#0200000000000000
(1787075069.884756) can0 1CEBFFF1#03FA454576FFFFFF
(1787075069.910811) can0 18F015F1#000040944BAB4628
(1787075069.916315) can0 18FEF1F8#FF0000FFFFFFFFFF
(1787075069.917459) can0 18F005F8#7EFFFF7EFFFFFFFF
(1787075069.981803) can0 1CECFFF1#20120003FF19F000
(1787075069.982748) can0 1CEBFFF1#0127100000000000
(1787075069.983752) can0 1CEBFFF1#0200000000000000
(1787075069.984732) can0 1CEBFFF1#03FA454576FFFFFF
(1787075070.010778) can0 18F015F1#000040944BAA4628
(1787075070.016270) can0 18FEF1F8#FF0000FFFFFFFFFF
(1787075070.017427) can0 18F005F8#7EFFFF7EFFFFFFFF
(1787075070.081798) can0 1CECFFF1#20120003FF19F000
(1787075070.082753) can0 1CEBFFF1#0127100000000000
(1787075070.083767) can0 1CEBFFF1#0200000000000000
(1787075070.084742) can0 1CEBFFF1#03FA454576FFFFFF
(1787075070.110758) can0 18F015F1#000040944BAA4628
(1787075070.116200) can0 18FEF1F8#FF0000FFFFFFFFFF
(1787075070.117402) can0 18F005F8#7EFFFF7EFFFFFFFF
(1787075070.171109) can0 18FF14D1#
(1787075070.181914) can0 1CECFFF1#20120003FF19F000
(1787075070.182763) can0 1CEBFFF1#0127100000000000
(1787075070.183793) can0 1CEBFFF1#0200000000000000
(1787075070.184769) can0 1CEBFFF1#03FA454576FFFFFF
(1787075070.210917) can0 18F015F1#000040944BAB4628
(1787075070.216254) can0 18FEF1F8#FF0000FFFFFFFFFF
(1787075070.217440) can0 18F005F8#7EFFFF7EFFFFFFFF
(1787075070.282793) can0 1CECFFF1#20120003FF19F000
(1787075070.283753) can0 1CEBFFF1#0127100000000000
(1787075070.284754) can0 1CEBFFF1#0200000000000000
(1787075070.285739) can0 1CEBFFF1#03FA454576FFFFFF
(1787075070.311778) can0 18F015F1#000040944BAB4628
(1787075070.316210) can0 18FEF1F8#FF0000FFFFFFFFFF
(1787075070.317400) can0 18F005F8#7EFFFF7EFFFFFFFF
(1787075070.382819) can0 1CECFFF1#20120003FF19F000
(1787075070.383764) can0 1CEBFFF1#0127100000000000
(1787075070.384795) can0 1CEBFFF1#0200000000000000
(1787075070.385741) can0 1CEBFFF1#03FA454576FFFFFF
(1787075070.411777) can0 18F015F1#000040944BAA4628
(1787075070.416197) can0 18FEF1F8#FF0000FFFFFFFFFF
(1787075070.417393) can0 18F005F8#7EFFFF7EFFFFFFFF
(1787075070.421663) can0 18F017F1#DE2000009663
(1787075070.422130) can0 18F018F1#DAA7FE319075
(1787075070.482974) can0 1CECFFF1#20120003FF19F000
(1787075070.483751) can0 1CEBFFF1#0127100000000000
(1787075070.484757) can0 1CEBFFF1#0200000000000000
(1787075070.485799) can0 1CEBFFF1#03FA454576FFFFFF
(1787075070.511916) can0 18F015F1#000040944BAA4628
(1787075070.516316) can0 18FEF1F8#FF0000FFFFFFFFFF
(1787075070.518756) can0 18F005F8#7EFFFF7EFFFFFFFF
(1787075070.582876) can0 1CECFFF1#20120003FF19F000
(1787075070.583838) can0 1CEBFFF1#0127100000000000
(1787075070.584768) can0 1CEBFFF1#0200000000000000
(1787075070.585748) can0 1CEBFFF1#03FA454576FFFFFF
(1787075070.611786) can0 18F015F1#000040944BAA4628
(1787075070.616197) can0 18FEF1F8#FF0000FFFFFFFFFF
(1787075070.617377) can0 18F005F8#7EFFFF7EFFFFFFFF
(1787075070.670989) can0 18FF14D1#
(1787075070.682757) can0 1CECFFF1#20120003FF19F000
(1787075070.683745) can0 1CEBFFF1#0127100000000000
(1787075070.684753) can0 1CEBFFF1#0200000000000000
(1787075070.685731) can0 1CEBFFF1#03FA454576FFFFFF
(1787075070.711843) can0 18F015F1#000040944BAA4628
(1787075070.716176) can0 18FEF1F8#FF0000FFFFFFFFFF
(1787075070.717408) can0 18F005F8#7EFFFF7EFFFFFFFF
(1787075070.782811) can0 1CECFFF1#20120003FF19F000
(1787075070.783749) can0 1CEBFFF1#0127100000000000
(1787075070.784756) can0 1CEBFFF1#0200000000000000
(1787075070.785735) can0 1CEBFFF1#03FA454576FFFFFF
(1787075070.811774) can0 18F015F1#000040944BAB4628
(1787075070.816202) can0 18FEF1F8#FF0000FFFFFFFFFF
(1787075070.817397) can0 18F005F8#7EFFFF7EFFFFFFFF
(1787075070.883987) can0 1CECFFF1#20120003FF19F000
(1787075070.884829) can0 1CEBFFF1#0127100000000000
(1787075070.885880) can0 1CEBFFF1#0200000000000000
(1787075070.887614) can0 1CEBFFF1#03FA454576FFFFFF
(1787075070.912917) can0 18F015F1#000040944BAB4628
(1787075070.916435) can0 18FEF1F8#FF0000FFFFFFFFFF
(1787075070.917586) can0 18F005F8#7EFFFF7EFFFFFFFF
(1787075070.983817) can0 1CECFFF1#20120003FF19F000
(1787075070.984758) can0 1CEBFFF1#0127100000000000
(1787075070.985773) can0 1CEBFFF1#0200000000000000
(1787075070.986740) can0 1CEBFFF1#03FA454576FFFFFF
(1787075071.012766) can0 18F015F1#000040944BAA4628
(1787075071.016201) can0 18FEF1F8#FF0000FFFFFFFFFF
(1787075071.017381) can0 18F005F8#7EFFFF7EFFFFFFFF
(1787075071.083787) can0 1CECFFF1#20120003FF19F000
(1787075071.084757) can0 1CEBFFF1#0127100000000000
(1787075071.085772) can0 1CEBFFF1#0200000000000000
(1787075071.086745) can0 1CEBFFF1#03FA454576FFFFFF
(1787075071.112756) can0 18F015F1#000040944BAB4628
(1787075071.116186) can0 18FEF1F8#FF0000FFFFFFFFFF
(1787075071.117308) can0 18F005F8#7EFFFF7EFFFFFFFF
(1787075071.171047) can0 18FF14D1#
(1787075071.183966) can0 1CECFFF1#20120003FF19F000
(1787075071.184825) can0 1CEBFFF1#0127100000000000
(1787075071.185928) can0 1CEBFFF1#0200000000000000
(1787075071.186837) can0 1CEBFFF1#03FA454576FFFFFF
(1787075071.213011) can0 18F015F1#000040944BAB4628
(1787075071.216899) can0 18FEF1F8#FF0000FFFFFFFFFF
(1787075071.218875) can0 18F005F8#7EFFFF7EFFFFFFFF
(1787075071.283804) can0 1CECFFF1#20120003FF19F000
(1787075071.284748) can0 1CEBFFF1#0127100000000000
(1787075071.285795) can0 1CEBFFF1#0200000000000000
(1787075071.286754) can0 1CEBFFF1#03FA454576FFFFFF
(1787075071.312780) can0 18F015F1#000040944BAB4628
(1787075071.316195) can0 18FEF1F8#FF0000FFFFFFFFFF
(1787075071.317320) can0 18F005F8#7EFFFF7EFFFFFFFF
(1787075071.383816) can0 1CECFFF1#20120003FF19F000
(1787075071.384758) can0 1CEBFFF1#0127100000000000
(1787075071.385787) can0 1CEBFFF1#0200000000000000
(1787075071.386749) can0 1CEBFFF1#03FA454576FFFFFF
(1787075071.412770) can0 18F015F1#000040944BAB4628
(1787075071.416204) can0 18FEF1F8#FF0000FFFFFFFFFF
(1787075071.417350) can0 18F005F8#7EFFFF7EFFFFFFFF
(1787075071.423666) can0 18F017F1#DE2000009663
(1787075071.424138) can0 18F018F1#DAA7FE319075
(1787075071.483895) can0 1CECFFF1#20120003FF19F000
(1787075071.484776) can0 1CEBFFF1#0127100000000000
(1787075071.485825) can0 1CEBFFF1#0200000000000000
(1787075071.486777) can0 1CEBFFF1#03FA454576FFFFFF
(1787075071.516344) can0 18F015F1#000040944BAB4628
(1787075071.517770) can0 18FEF1F8#FF0000FFFFFFFFFF
(1787075071.518944) can0 18F005F8#7EFFFF7EFFFFFFFF
(1787075071.583922) can0 1CECFFF1#20120003FF19F000
(1787075071.584760) can0 1CEBFFF1#0127100000000000
(1787075071.585809) can0 1CEBFFF1#0200000000000000
(1787075071.586744) can0 1CEBFFF1#03FA454576FFFFFF
(1787075071.612758) can0 18F015F1#000040944BAB4628
(1787075071.616207) can0 18FEF1F8#FF0000FFFFFFFFFF
(1787075071.617335) can0 18F005F8#7EFFFF7EFFFFFFFF
(1787075071.670970) can0 18FF14D1#
(1787075071.684792) can0 1CECFFF1#20120003FF19F000
(1787075071.685768) can0 1CEBFFF1#0127100000000000
(1787075071.686762) can0 1CEBFFF1#0200000000000000
(1787075071.687737) can0 1CEBFFF1#03FA454576FFFFFF
(1787075071.713762) can0 18F015F1#000040944BAB4628
(1787075071.716203) can0 18FEF1F8#FF0000FFFFFFFFFF
(1787075071.717360) can0 18F005F8#7EFFFF7EFFFFFFFF
(1787075071.784809) can0 1CECFFF1#20120003FF19F000
(1787075071.785779) can0 1CEBFFF1#0127100000000000
(1787075071.786788) can0 1CEBFFF1#0200000000000000
(1787075071.787742) can0 1CEBFFF1#03FA454576FFFFFF
(1787075071.813833) can0 18F015F1#000040944BAB4628
(1787075071.816284) can0 18FEF1F8#FF0000FFFFFFFFFF
(1787075071.817476) can0 18F005F8#7EFFFF7EFFFFFFFF
(1787075071.885198) can0 1CECFFF1#20120003FF19F000
(1787075071.885882) can0 1CEBFFF1#0127100000000000
(1787075071.886803) can0 1CEBFFF1#0200000000000000
(1787075071.887761) can0 1CEBFFF1#03FA454576FFFFFF
(1787075071.913907) can0 18F015F1#000040944BAB4628
(1787075071.916271) can0 18FEF1F8#FF0000FFFFFFFFFF
(1787075071.917411) can0 18F005F8#7EFFFF7EFFFFFFFF
(1787075071.984818) can0 1CECFFF1#20120003FF19F000
(1787075071.985779) can0 1CEBFFF1#0127100000000000
(1787075071.986775) can0 1CEBFFF1#0200000000000000
(1787075071.987750) can0 1CEBFFF1#03FA454576FFFFFF
(1787075072.013796) can0 18F015F1#000040944BAB4628
(1787075072.016209) can0 18FEF1F8#FF0000FFFFFFFFFF
(1787075072.017364) can0 18F005F8#7EFFFF7EFFFFFFFF
(1787075072.084798) can0 1CECFFF1#20120003FF19F000
(1787075072.085775) can0 1CEBFFF1#0127100000000000
(1787075072.086772) can0 1CEBFFF1#0200000000000000
(1787075072.087751) can0 1CEBFFF1#03FA454576FFFFFF
(1787075072.113764) can0 18F015F1#000040944BAB4628
(1787075072.116197) can0 18FEF1F8#FF0000FFFFFFFFFF
(1787075072.117351) can0 18F005F8#7EFFFF7EFFFFFFFF
(1787075072.171353) can0 18FF14D1#
(1787075072.184894) can0 1CECFFF1#20120003FF19F000
(1787075072.185901) can0 1CEBFFF1#0127100000000000
(1787075072.186800) can0 1CEBFFF1#0200000000000000
(1787075072.187774) can0 1CEBFFF1#03FA454576FFFFFF
(1787075072.214012) can0 18F015F1#000040944BAB4628
(1787075072.217755) can0 18FEF1F8#FF0000FFFFFFFFFF
(1787075072.219676) can0 18F005F8#7EFFFF7EFFFFFFFF
(1787075072.284808) can0 1CECFFF1#20120003FF19F000
(1787075072.285773) can0 1CEBFFF1#0127100000000000
(1787075072.286767) can0 1CEBFFF1#0200000000000000
(1787075072.287739) can0 1CEBFFF1#03FA454576FFFFFF
(1787075072.313810) can0 18F015F1#000040944BAB4628
(1787075072.316236) can0 18FEF1F8#FF0000FFFFFFFFFF
(1787075072.317420) can0 18F005F8#7EFFFF7EFFFFFFFF
(1787075072.385858) can0 1CECFFF1#20120003FF19F000
(1787075072.386768) can0 1CEBFFF1#0127100000000000
(1787075072.387766) can0 1CEBFFF1#0200000000000000
(1787075072.388769) can0 1CEBFFF1#03FA454576FFFFFF
(1787075072.414754) can0 18F015F1#000040944BAB4628
(1787075072.416188) can0 18FEF1F8#FF0000FFFFFFFFFF
(1787075072.417353) can0 18F005F8#7EFFFF7EFFFFFFFF
(1787075072.424670) can0 18F017F1#DE83003096F3
(1787075072.425147) can0 18F018F1#D9A7FE158F99
(1787075072.485954) can0 1CECFFF1#20120003FF19F000
(1787075072.486762) can0 1CEBFFF1#0127100000000000
(1787075072.487781) can0 1CEBFFF1#0200000000000000
(1787075072.488760) can0 1CEBFFF1#03FA454576FFFFFF
(1787075072.515949) can0 18F015F1#000040944BAB4628
(1787075072.517151) can0 18FEF1F8#FF0000FFFFFFFFFF
(1787075072.518338) can0 18F005F8#7EFFFF7EFFFFFFFF
(1787075072.585899) can0 1CECFFF1#20120003FF19F000
(1787075072.586775) can0 1CEBFFF1#0127100000000000
(1787075072.587772) can0 1CEBFFF1#0200000000000000
(1787075072.588744) can0 1CEBFFF1#03FA454576FFFFFF
(1787075072.614747) can0 18F015F1#000040944BAB4628
(1787075072.616158) can0 18FEF1F8#FF0000FFFFFFFFFF
(1787075072.617355) can0 18F005F8#7EFFFF7EFFFFFFFF
(1787075072.670885) can0 18FF14D1#
(1787075072.685815) can0 1CECFFF1#20120003FF19F000
(1787075072.686761) can0 1CEBFFF1#0127100000000000
(1787075072.687771) can0 1CEBFFF1#0200000000000000
(1787075072.688752) can0 1CEBFFF1#03FA454576FFFFFF
(1787075072.714766) can0 18F015F1#000040944BAB4628
(1787075072.716199) can0 18FEF1F8#FF0000FFFFFFFFFF
(1787075072.717348) can0 18F005F8#7EFFFF7EFFFFFFFF
(1787075072.785829) can0 1CECFFF1#20120003FF19F000
(1787075072.786772) can0 1CEBFFF1#0127100000000000
(1787075072.787788) can0 1CEBFFF1#0200000000000000
(1787075072.788759) can0 1CEBFFF1#03FA454576FFFFFF
(1787075072.814761) can0 18F015F1#000040944BAB4628
(1787075072.816195) can0 18FEF1F8#FF0000FFFFFFFFFF
(1787075072.817350) can0 18F005F8#7EFFFF7EFFFFFFFF
(1787075072.886238) can0 1CECFFF1#20120003FF19F000
(1787075072.887010) can0 1CEBFFF1#0127100000000000
(1787075072.887975) can0 1CEBFFF1#0200000000000000
(1787075072.888778) can0 1CEBFFF1#03FA454576FFFFFF
(1787075072.914783) can0 18F015F1#000040944BAB4628
(1787075072.916642) can0 18FEF1F8#FF0000FFFFFFFFFF
(1787075072.917983) can0 18F005F8#7EFFFF7EFFFFFFFF
(1787075072.986845) can0 1CECFFF1#20120003FF19F000
(1787075072.987772) can0 1CEBFFF1#0127100000000000
(1787075072.988772) can0 1CEBFFF1#0200000000000000
(1787075072.989749) can0 1CEBFFF1#03FA454576FFFFFF
(1787075073.015742) can0 18F015F1#000040944BAB4628
(1787075073.016303) can0 18FEF1F8#FF0000FFFFFFFFFF
(1787075073.017410) can0 18F005F8#7EFFFF7EFFFFFFFF
(1787075073.086813) can0 1CECFFF1#20120003FF19F000
(1787075073.087770) can0 1CEBFFF1#0127100000000000
(1787075073.088786) can0 1CEBFFF1#0200000000000000
(1787075073.089758) can0 1CEBFFF1#03FA454576FFFFFF
(1787075073.115744) can0 18F015F1#000040944BAB4628
(1787075073.116324) can0 18FEF1F8#FF0000FFFFFFFFFF
(1787075073.117468) can0 18F005F8#7EFFFF7EFFFFFFFF
(1787075073.171055) can0 18FF14D1#
(1787075073.186843) can0 1CECFFF1#20120003FF19F000
(1787075073.187779) can0 1CEBFFF1#0127100000000000
(1787075073.188810) can0 1CEBFFF1#0200000000000000
(1787075073.189765) can0 1CEBFFF1#03FA454576FFFFFF
(1787075073.216061) can0 18F015F1#000040944BAB4628
(1787075073.217222) can0 18FEF1F8#FF0000FFFFFFFFFF
(1787075073.218866) can0 18F005F8#7EFFFF7EFFFFFFFF
(1787075073.286915) can0 1CECFFF1#20120003FF19F000
(1787075073.287779) can0 1CEBFFF1#0127100000000000
(1787075073.288795) can0 1CEBFFF1#0200000000000000
(1787075073.289751) can0 1CEBFFF1#03FA454576FFFFFF
(1787075073.315740) can0 18F015F1#000040944BAB4628
(1787075073.316341) can0 18FEF1F8#FF0000FFFFFFFFFF
(1787075073.317541) can0 18F005F8#7EFFFF7EFFFFFFFF
(1787075073.386833) can0 1CECFFF1#20120003FF19F000
(1787075073.387765) can0 1CEBFFF1#0127100000000000
(1787075073.388783) can0 1CEBFFF1#0200000000000000
(1787075073.389765) can0 1CEBFFF1#03FA454576FFFFFF
(1787075073.415748) can0 18F015F1#000040944BAB4628
(1787075073.416325) can0 18FEF1F8#FF0000FFFFFFFFFF
(1787075073.417508) can0 18F005F8#7EFFFF7EFFFFFFFF
(1787075073.426680) can0 18F017F1#DE83003096F3
(1787075073.427154) can0 18F018F1#D9A7FE158F99
(1787075073.486857) can0 1CECFFF1#20120003FF19F000
(1787075073.487829) can0 1CEBFFF1#0127100000000000
(1787075073.488786) can0 1CEBFFF1#0200000000000000
(1787075073.489777) can0 1CEBFFF1#03FA4485B7FFFFFF
(1787075073.516069) can0 18F015F1#000040934BAB4628
(1787075073.516523) can0 18FEF1F8#FF0000FFFFFFFFFF
(1787075073.517682) can0 18F005F8#7EFFFF7EFFFFFFFF
(1787075073.586855) can0 1CECFFF1#20120003FF19F000
(1787075073.587773) can0 1CEBFFF1#0127100000000000
(1787075073.588781) can0 1CEBFFF1#0200000000000000
(1787075073.589758) can0 1CEBFFF1#03FA454576FFFFFF
(1787075073.615746) can0 18F015F1#000040944BAB4628
(1787075073.616318) can0 18FEF1F8#FF0000FFFFFFFFFF
(1787075073.617496) can0 18F005F8#7EFFFF7EFFFFFFFF
(1787075073.670876) can0 18FF14D1#
(1787075073.686830) can0 1CECFFF1#20120003FF19F000
(1787075073.687774) can0 1CEBFFF1#0127100000000000
(1787075073.688778) can0 1CEBFFF1#0200000000000000
(1787075073.689757) can0 1CEBFFF1#03FA454576FFFFFF
(1787075073.715782) can0 18F015F1#000040944BAB4628
(1787075073.716308) can0 18FEF1F8#FF0000FFFFFFFFFF
(1787075073.717437) can0 18F005F8#7EFFFF7EFFFFFFFF
(1787075073.787835) can0 1CECFFF1#20120003FF19F000
(1787075073.788772) can0 1CEBFFF1#0127100000000000
(1787075073.789796) can0 1CEBFFF1#0200000000000000
(1787075073.790758) can0 1CEBFFF1#03FA454576FFFFFF
(1787075073.816194) can0 18FEF1F8#FF0000FFFFFFFFFF
(1787075073.816911) can0 18F015F1#000040944BAB4628
(1787075073.817394) can0 18F005F8#7EFFFF7EFFFFFFFF
(1787075073.887961) can0 1CECFFF1#20120003FF19F000
(1787075073.888871) can0 1CEBFFF1#0127100000000000
(1787075073.890215) can0 1CEBFFF1#0200000000000000
(1787075073.890870) can0 1CEBFFF1#03FA454576FFFFFF
(1787075073.916347) can0 18FEF1F8#FF0000FFFFFFFFFF
(1787075073.917141) can0 18F015F1#000040944BAB4628
(1787075073.917650) can0 18F005F8#7EFFFF7EFFFFFFFF
(1787075073.988588) can0 1CECFFF1#20120003FF19F000
(1787075073.988964) can0 1CEBFFF1#0127100000000000
(1787075073.989804) can0 1CEBFFF1#0200000000000000
(1787075073.990785) can0 1CEBFFF1#03FA454576FFFFFF
(1787075074.016682) can0 18FEF1F8#FF0000FFFFFFFFFF
(1787075074.017398) can0 18F015F1#000040944BAB4628
(1787075074.017865) can0 18F005F8#7EFFFF7EFFFFFFFF
(1787075074.087856) can0 1CECFFF1#20120003FF19F000
(1787075074.088780) can0 1CEBFFF1#0127100000000000
(1787075074.089789) can0 1CEBFFF1#0200000000000000
(1787075074.090915) can0 1CEBFFF1#03FA454576FFFFFF
(1787075074.116252) can0 18FEF1F8#FF0000FFFFFFFFFF
(1787075074.116997) can0 18F015F1#000040944BAB4628
(1787075074.117482) can0 18F005F8#7EFFFF7EFFFFFFFF
(1787075074.170866) can0 18FF14D1#
(1787075074.187796) can0 1CECFFF1#20120003FF19F000
(1787075074.188778) can0 1CEBFFF1#0127100000000000
(1787075074.189790) can0 1CEBFFF1#0200000000000000
(1787075074.190772) can0 1CEBFFF1#03FA4485B7FFFFFF
(1787075074.216253) can0 18FEF1F8#FF0000FFFFFFFFFF
(1787075074.216945) can0 18F015F1#000040934BAB4628
(1787075074.217418) can0 18F005F8#7EFFFF7EFFFFFFFF
(1787075074.288015) can0 1CECFFF1#20120003FF19F000
(1787075074.288878) can0 1CEBFFF1#0127100000000000
(1787075074.289906) can0 1CEBFFF1#0200000000000000
(1787075074.290812) can0 1CEBFFF1#03FA4485B7FFFFFF
(1787075074.316179) can0 18FEF1F8#FF0000FFFFFFFFFF
(1787075074.316855) can0 18F015F1#000040944BAB4628
(1787075074.317340) can0 18F005F8#7EFFFF7EFFFFFFFF
(1787075074.387852) can0 1CECFFF1#20120003FF19F000
(1787075074.388774) can0 1CEBFFF1#0127100000000000
(1787075074.389780) can0 1CEBFFF1#0200000000000000
(1787075074.390761) can0 1CEBFFF1#03FA4485B7FFFFFF
(1787075074.416203) can0 18FEF1F8#FF0000FFFFFFFFFF
(1787075074.416918) can0 18F015F1#000040934BAB4628
(1787075074.417414) can0 18F005F8#7EFFFF7EFFFFFFFF
(1787075074.427684) can0 18F017F1#DE65005E9776
(1787075074.428162) can0 18F018F1#D967FE318EA0
(1787075074.488804) can0 1CECFFF1#20120003FF19F000
(1787075074.489782) can0 1CEBFFF1#0127100000000000
(1787075074.490794) can0 1CEBFFF1#0200000000000000
(1787075074.491772) can0 1CEBFFF1#03FA4485B7FFFFFF
(1787075074.516543) can0 18FEF1F8#FF0000FFFFFFFFFF
(1787075074.517779) can0 18F015F1#000040934BAB4628
(1787075074.518328) can0 18F005F8#7EFFFF7EFFFFFFFF
(1787075074.588902) can0 1CECFFF1#20120003FF19F000
(1787075074.589820) can0 1CEBFFF1#0127100000000000
(1787075074.590786) can0 1CEBFFF1#0200000000000000
(1787075074.591851) can0 1CEBFFF1#03FA4485B7FFFFFF
(1787075074.616181) can0 18FEF1F8#FF0000FFFFFFFFFF
(1787075074.617589) can0 18F005F8#7EFFFF7EFFFFFFFF
(1787075074.618169) can0 18F015F1#000040934BAB4628
(1787075074.670872) can0 18FF14D1#
(1787075074.688845) can0 1CECFFF1#20120003FF19F000
(1787075074.689780) can0 1CEBFFF1#0127100000000000
(1787075074.690783) can0 1CEBFFF1#0200000000000000
(1787075074.691764) can0 1CEBFFF1#03FA4485B7FFFFFF
(1787075074.716225) can0 18FEF1F8#FF0000FFFFFFFFFF
(1787075074.717417) can0 18F005F8#7EFFFF7EFFFFFFFF
(1787075074.717991) can0 18F015F1#000040934BAB4628
(1787075074.788873) can0 1CECFFF1#20120003FF19F000
(1787075074.789787) can0 1CEBFFF1#0127100000000000
(1787075074.790809) can0 1CEBFFF1#0200000000000000
(1787075074.791782) can0 1CEBFFF1#03FA4485B7FFFFFF
(1787075074.816216) can0 18FEF1F8#FF0000FFFFFFFFFF
(1787075074.817424) can0 18F005F8#7EFFFF7EFFFFFFFF
(1787075074.818006) can0 18F015F1#000040934BAB4628
(1787075074.888976) can0 1CECFFF1#20120003FF19F000
(1787075074.889790) can0 1CEBFFF1#0127100000000000
(1787075074.890986) can0 1CEBFFF1#0200000000000000
(1787075074.891791) can0 1CEBFFF1#03FA4485B7FFFFFF
(1787075074.916538) can0 18FEF1F8#FF0000FFFFFFFFFF
(1787075074.917758) can0 18F015F1#000040934BAB4628
(1787075074.918309) can0 18F005F8#7EFFFF7EFFFFFFFF
(1787075074.988822) can0 1CECFFF1#20120003FF19F000
(1787075074.989779) can0 1CEBFFF1#0127100000000000
(1787075074.990782) can0 1CEBFFF1#0200000000000000
(1787075074.991761) can0 1CEBFFF1#03FA4485B7FFFFFF
(1787075075.016240) can0 18FEF1F8#FF0000FFFFFFFFFF
(1787075075.017419) can0 18F005F8#7EFFFF7EFFFFFFFF
(1787075075.017994) can0 18F015F1#000040934BAA4628
(1787075075.089824) can0 1CECFFF1#20120003FF19F000
(1787075075.090789) can0 1CEBFFF1#0127100000000000
(1787075075.091800) can0 1CEBFFF1#0200000000000000
(1787075075.092776) can0 1CEBFFF1#03FA4485B7FFFFFF
(1787075075.116207) can0 18FEF1F8#FF0000FFFFFFFFFF
(1787075075.117406) can0 18F005F8#7EFFFF7EFFFFFFFF
(1787075075.118766) can0 18F015F1#000040934BAB4628
(1787075075.170919) can0 18FF14D1#
(1787075075.188930) can0 1CECFFF1#20120003FF19F000
(1787075075.189811) can0 1CEBFFF1#0127100000000000
(1787075075.190814) can0 1CEBFFF1#0200000000000000
(1787075075.191782) can0 1CEBFFF1#03FA4485B7FFFFFF
(1787075075.216295) can0 18FEF1F8#FF0000FFFFFFFFFF
(1787075075.217575) can0 18F005F8#7EFFFF7EFFFFFFFF
(1787075075.218936) can0 18F015F1#000040934BAB4628
(1787075075.289832) can0 1CECFFF1#20120003FF19F000
(1787075075.290776) can0 1CEBFFF1#0127100000000000
(1787075075.291786) can0 1CEBFFF1#0200000000000000
(1787075075.292762) can0 1CEBFFF1#03FA4485B7FFFFFF
(1787075075.316257) can0 18FEF1F8#FF0000FFFFFFFFFF
(1787075075.317531) can0 18F005F8#7EFFFF7EFFFFFFFF
(1787075075.318809) can0 18F015F1#000040934BAA4628
(1787075075.389876) can0 1CECFFF1#20120003FF19F000
(1787075075.390786) can0 1CEBFFF1#0127100000000000
(1787075075.391801) can0 1CEBFFF1#0200000000000000
(1787075075.392776) can0 1CEBFFF1#03FA4485B7FFFFFF
(1787075075.416211) can0 18FEF1F8#FF0000FFFFFFFFFF
(1787075075.417428) can0 18F005F8#7EFFFF7EFFFFFFFF
(1787075075.418769) can0 18F015F1#000040934BAB4628
(1787075075.428688) can0 18F017F1#DE65005E9776
(1787075075.429162) can0 18F018F1#D967FE318EA0
(1787075075.489833) can0 1CECFFF1#20120003FF19F000
(1787075075.490787) can0 1CEBFFF1#0127100000000000
(1787075075.491802) can0 1CEBFFF1#0200000000000000
(1787075075.492777) can0 1CEBFFF1#03FA4485B7FFFFFF
(1787075075.516870) can0 18FEF1F8#FF0000FFFFFFFFFF
(1787075075.518117) can0 18F005F8#7EFFFF7EFFFFFFFF
(1787075075.518782) can0 18F015F1#000040934BAB4628
(1787075075.589968) can0 1CECFFF1#20120003FF19F000
(1787075075.590792) can0 1CEBFFF1#0127100000000000
(1787075075.591788) can0 1CEBFFF1#0200000000000000
(1787075075.592767) can0 1CEBFFF1#03FA4485B7FFFFFF
(1787075075.616277) can0 18FEF1F8#FF0000FFFFFFFFFF
(1787075075.617477) can0 18F005F8#7EFFFF7EFFFFFFFF
(1787075075.618757) can0 18F015F1#000040934BAA4628
(1787075075.670819) can0 18FF14D1#
(1787075075.689852) can0 1CECFFF1#20120003FF19F000
(1787075075.690806) can0 1CEBFFF1#0127100000000000
(1787075075.691800) can0 1CEBFFF1#0200000000000000
(1787075075.692780) can0 1CEBFFF1#03FA4485B7FFFFFF
(1787075075.716194) can0 18FEF1F8#FF0000FFFFFFFFFF
(1787075075.717396) can0 18F005F8#7EFFFF7EFFFFFFFF
(1787075075.718768) can0 18F015F1#000040934BAB4628
(1787075075.789860) can0 1CECFFF1#20120003FF19F000
(1787075075.790786) can0 1CEBFFF1#0127100000000000
(1787075075.791798) can0 1CEBFFF1#0200000000000000
(1787075075.792776) can0 1CEBFFF1#03FA4485B7FFFFFF
(1787075075.816192) can0 18FEF1F8#FF0000FFFFFFFFFF
(1787075075.817392) can0 18F005F8#7EFFFF7EFFFFFFFF
(1787075075.818774) can0 18F015F1#000040934BAB4628
(1787075075.890938) can0 1CECFFF1#20120003FF19F000
(1787075075.891798) can0 1CEBFFF1#0127100000000000
(1787075075.892810) can0 1CEBFFF1#0200000000000000
(1787075075.893809) can0 1CEBFFF1#03FA4485B7FFFFFF
(1787075075.916576) can0 18FEF1F8#FF0000FFFFFFFFFF
(1787075075.917830) can0 18F005F8#7EFFFF7EFFFFFFFF
(1787075075.919765) can0 18F015F1#000040934BAA4628
(1787075075.990911) can0 1CECFFF1#20120003FF19F000
(1787075075.991802) can0 1CEBFFF1#0127100000000000
(1787075075.992838) can0 1CEBFFF1#0200000000000000
(1787075075.993813) can0 1CEBFFF1#03FA4485B7FFFFFF
(1787075076.016545) can0 18FEF1F8#FF0000FFFFFFFFFF
(1787075076.017691) can0 18F005F8#7EFFFF7EFFFFFFFF
(1787075076.019766) can0 18F015F1#000040934BAB4628
(1787075076.090867) can0 1CECFFF1#20120003FF19F000
(1787075076.091820) can0 1CEBFFF1#0127100000000000
(1787075076.092793) can0 1CEBFFF1#0200000000000000
(1787075076.093774) can0 1CEBFFF1#03FA4485B7FFFFFF
(1787075076.116206) can0 18FEF1F8#FF0000FFFFFFFFFF
(1787075076.117402) can0 18F005F8#7EFFFF7EFFFFFFFF
(1787075076.119764) can0 18F015F1#000040934BAB4628
(1787075076.170766) can0 18FF14D1#
(1787075076.190937) can0 1CECFFF1#20120003FF19F000
(1787075076.191786) can0 1CEBFFF1#0127100000000000
(1787075076.192805) can0 1CEBFFF1#0200000000000000
(1787075076.193790) can0 1CEBFFF1#03FA4485B7FFFFFF
(1787075076.217096) can0 18FEF1F8#FF0000FFFFFFFFFF
(1787075076.218423) can0 18F005F8#7EFFFF7EFFFFFFFF
(1787075076.219818) can0 18F015F1#000040934BAA4628
(1787075076.290853) can0 1CECFFF1#20120003FF19F000
(1787075076.291800) can0 1CEBFFF1#0127100000000000
(1787075076.292800) can0 1CEBFFF1#0200000000000000
(1787075076.293779) can0 1CEBFFF1#03FA4485B7FFFFFF
(1787075076.316287) can0 18FEF1F8#FF0000FFFFFFFFFF
(1787075076.318118) can0 18F005F8#7EFFFF7EFFFFFFFF
(1787075076.319761) can0 18F015F1#000040934BAB4628
(1787075076.390867) can0 1CECFFF1#20120003FF19F000
(1787075076.391788) can0 1CEBFFF1#0127100000000000
(1787075076.392796) can0 1CEBFFF1#0200000000000000
(1787075076.393773) can0 1CEBFFF1#03FA4485B7FFFFFF
(1787075076.416212) can0 18FEF1F8#FF0000FFFFFFFFFF
(1787075076.417360) can0 18F005F8#7EFFFF7EFFFFFFFF
(1787075076.419779) can0 18F015F1#000040934BAB4628
(1787075076.430716) can0 18F017F1#DE63007D97E7
(1787075076.431178) can0 18F018F1#D9B1FE1F8E79
(1787075076.490820) can0 1CECFFF1#20120003FF19F000
(1787075076.491796) can0 1CEBFFF1#0127100000000000
(1787075076.492813) can0 1CEBFFF1#0200000000000000
(1787075076.493791) can0 1CEBFFF1#03FA4485B7FFFFFF
(1787075076.516504) can0 18FEF1F8#FF0000FFFFFFFFFF
(1787075076.517689) can0 18F005F8#7EFFFF7EFFFFFFFF
(1787075076.519822) can0 18F015F1#000040934BAB4628
(1787075076.591005) can0 1CECFFF1#20120003FF19F000
(1787075076.591797) can0 1CEBFFF1#0127100000000000
(1787075076.592806) can0 1CEBFFF1#0200000000000000
(1787075076.593774) can0 1CEBFFF1#03FA4485B7FFFFFF
(1787075076.616197) can0 18FEF1F8#FF0000FFFFFFFFFF
(1787075076.617387) can0 18F005F8#7EFFFF7EFFFFFFFF
(1787075076.620776) can0 18F015F1#000040934BAB4628
(1787075076.671118) can0 18FF14D1#
(1787075076.691840) can0 1CECFFF1#20120003FF19F000
(1787075076.692795) can0 1CEBFFF1#0127100000000000
(1787075076.693797) can0 1CEBFFF1#0200000000000000
(1787075076.694774) can0 1CEBFFF1#03FA4485B7FFFFFF
(1787075076.716219) can0 18FEF1F8#FF0000FFFFFFFFFF
(1787075076.717358) can0 18F005F8#7EFFFF7EFFFFFFFF
(1787075076.720782) can0 18F015F1#000040934BAB4628
(1787075076.791856) can0 1CECFFF1#20120003FF19F000
(1787075076.792816) can0 1CEBFFF1#0127100000000000
(1787075076.793810) can0 1CEBFFF1#0200000000000000
(1787075076.794794) can0 1CEBFFF1#03FA4485B7FFFFFF
(1787075076.816213) can0 18FEF1F8#FF0000FFFFFFFFFF
(1787075076.817366) can0 18F005F8#7EFFFF7EFFFFFFFF
(1787075076.820777) can0 18F015F1#000040934BAA4628
(1787075076.891972) can0 1CECFFF1#20120003FF19F000
(1787075076.892835) can0 1CEBFFF1#0127100000000000
(1787075076.893857) can0 1CEBFFF1#0200000000000000
(1787075076.894834) can0 1CEBFFF1#03FA4485B7FFFFFF
(1787075076.917604) can0 18FEF1F8#FF0000FFFFFFFFFF
(1787075076.918904) can0 18F005F8#7EFFFF7EFFFFFFFF
(1787075076.920956) can0 18F015F1#000040934BAA4628
(1787075076.991861) can0 1CECFFF1#20120003FF19F000
(1787075076.992792) can0 1CEBFFF1#0127100000000000
(1787075076.993807) can0 1CEBFFF1#0200000000000000
(1787075076.994786) can0 1CEBFFF1#03FA4485B7FFFFFF
(1787075077.016290) can0 18FEF1F8#FF0000FFFFFFFFFF
(1787075077.017431) can0 18F005F8#7EFFFF7EFFFFFFFF
(1787075077.020778) can0 18F015F1#000040934BAB4628
(1787075077.091844) can0 1CECFFF1#20120003FF19F000
(1787075077.092797) can0 1CEBFFF1#0127100000000000
(1787075077.093812) can0 1CEBFFF1#0200000000000000
(1787075077.094788) can0 1CEBFFF1#03FA4485B7FFFFFF
(1787075077.116197) can0 18FEF1F8#FF0000FFFFFFFFFF
(1787075077.117378) can0 18F005F8#7EFFFF7EFFFFFFFF
(1787075077.120771) can0 18F015F1#000040934BAA4628
(1787075077.170846) can0 18FF14D1#
(1787075077.191953) can0 1CECFFF1#20120003FF19F000
(1787075077.192815) can0 1CEBFFF1#0127100000000000
(1787075077.193831) can0 1CEBFFF1#0200000000000000
(1787075077.194797) can0 1CEBFFF1#03FA4485B7FFFFFF
(1787075077.216365) can0 18FEF1F8#FF0000FFFFFFFFFF
(1787075077.217739) can0 18F005F8#7EFFFF7EFFFFFFFF
(1787075077.221873) can0 18F015F1#000040934BAB4628
(1787075077.291838) can0 1CECFFF1#20120003FF19F000
(1787075077.292789) can0 1CEBFFF1#0127100000000000
(1787075077.293799) can0 1CEBFFF1#0200000000000000
(1787075077.294773) can0 1CEBFFF1#03FA4347F6FFFFFF
(1787075077.316174) can0 18FEF1F8#FF0000FFFFFFFFFF
(1787075077.317301) can0 18F005F8#7EFFFF7EFFFFFFFF
(1787075077.321760) can0 18F015F1#000040924BAB4628
(1787075077.392866) can0 1CECFFF1#20120003FF19F000
(1787075077.393799) can0 1CEBFFF1#0127100000000000
(1787075077.395240) can0 1CEBFFF1#0200000000000000
(1787075077.395812) can0 1CEBFFF1#03FA4485B7FFFFFF
(1787075077.416186) can0 18FEF1F8#FF0000FFFFFFFFFF
(1787075077.417359) can0 18F005F8#7EFFFF7EFFFFFFFF
(1787075077.421783) can0 18F015F1#000040924BAA4628
(1787075077.431718) can0 18F017F1#DE63007D97E7
(1787075077.432185) can0 18F018F1#D9B1FE1F8E79
(1787075077.492831) can0 1CECFFF1#20120003FF19F000
(1787075077.493815) can0 1CEBFFF1#0127100000000000
(1787075077.494824) can0 1CEBFFF1#0200000000000000
(1787075077.495811) can0 1CEBFFF1#03FA4347F6FFFFFF
(1787075077.516263) can0 18FEF1F8#FF0000FFFFFFFFFF
(1787075077.517429) can0 18F005F8#7EFFFF7EFFFFFFFF
(1787075077.521838) can0 18F015F1#000040924BAB4628
(1787075077.592973) can0 1CECFFF1#20120003FF19F000
(1787075077.593809) can0 1CEBFFF1#0127100000000000
(1787075077.594803) can0 1CEBFFF1#0200000000000000
(1787075077.595827) can0 1CEBFFF1#03FA4347F6FFFFFF
(1787075077.616176) can0 18FEF1F8#FF0000FFFFFFFFFF
(1787075077.617288) can0 18F005F8#7EFFFF7EFFFFFFFF
(1787075077.621776) can0 18F015F1#000040924BAB4628
(1787075077.670776) can0 18FF14D1#
(1787075077.692846) can0 1CECFFF1#20120003FF19F000
(1787075077.693802) can0 1CEBFFF1#0127100000000000
(1787075077.694812) can0 1CEBFFF1#0200000000000000
(1787075077.695809) can0 1CEBFFF1#03FA4347F6FFFFFF
(1787075077.716196) can0 18FEF1F8#FF0000FFFFFFFFFF
(1787075077.717377) can0 18F005F8#7EFFFF7EFFFFFFFF
(1787075077.721774) can0 18F015F1#000040924BAB4628
(1787075077.792851) can0 1CECFFF1#20120003FF19F000
(1787075077.793798) can0 1CEBFFF1#0127100000000000
(1787075077.794807) can0 1CEBFFF1#0200000000000000
(1787075077.795799) can0 1CEBFFF1#03FA4347F6FFFFFF
(1787075077.816162) can0 18FEF1F8#FF0000FFFFFFFFFF
(1787075077.817332) can0 18F005F8#7EFFFF7EFFFFFFFF
(1787075077.821774) can0 18F015F1#000040924BAB4628
(1787075077.892999) can0 1CECFFF1#20120003FF19F000
(1787075077.894035) can0 1CEBFFF1#0127100000000000
(1787075077.894837) can0 1CEBFFF1#0200000000000000
(1787075077.895866) can0 1CEBFFF1#03FA4347F6FFFFFF
(1787075077.916269) can0 18FEF1F8#FF0000FFFFFFFFFF
(1787075077.917422) can0 18F005F8#7EFFFF7EFFFFFFFF
(1787075077.921990) can0 18F015F1#000040924BAB4628
(1787075077.994000) can0 1CECFFF1#20120003FF19F000
(1787075077.994823) can0 1CEBFFF1#0127100000000000
(1787075077.995852) can0 1CEBFFF1#0200000000000000
(1787075077.996785) can0 1CEBFFF1#03FA4347F6FFFFFF
(1787075078.016278) can0 18FEF1F8#FF0000FFFFFFFFFF
(1787075078.017473) can0 18F005F8#7EFFFF7EFFFFFFFF
(1787075078.022822) can0 18F015F1#000040924BAB4628
(1787075078.093926) can0 1CECFFF1#20120003FF19F000
(1787075078.094817) can0 1CEBFFF1#0127100000000000
(1787075078.095831) can0 1CEBFFF1#0200000000000000
(1787075078.096797) can0 1CEBFFF1#03FA4347F6FFFFFF
(1787075078.116214) can0 18FEF1F8#FF0000FFFFFFFFFF
(1787075078.117419) can0 18F005F8#7EFFFF7EFFFFFFFF
(1787075078.122800) can0 18F015F1#000040924BAB4628
(1787075078.170766) can0 18FF14D1#
(1787075078.194469) can0 1CECFFF1#20120003FF19F000
(1787075078.194759) can0 1CEBFFF1#0127100000000000
(1787075078.195866) can0 1CEBFFF1#0200000000000000
(1787075078.196810) can0 1CEBFFF1#03FA4347F6FFFFFF
(1787075078.216296) can0 18FEF1F8#FF0000FFFFFFFFFF
(1787075078.217534) can0 18F005F8#7EFFFF7EFFFFFFFF
(1787075078.222822) can0 18F015F1#000040924BAB4628
(1787075078.293873) can0 1CECFFF1#20120003FF19F000
(1787075078.294878) can0 1CEBFFF1#0127100000000000
(1787075078.295825) can0 1CEBFFF1#0200000000000000
(1787075078.296799) can0 1CEBFFF1#03FA4347F6FFFFFF
(1787075078.316196) can0 18FEF1F8#FF0000FFFFFFFFFF
(1787075078.317320) can0 18F005F8#7EFFFF7EFFFFFFFF
(1787075078.322778) can0 18F015F1#000040924BAA4628
(1787075078.393868) can0 1CECFFF1#20120003FF19F000
(1787075078.394816) can0 1CEBFFF1#0127100000000000
(1787075078.395859) can0 1CEBFFF1#0200000000000000
(1787075078.396787) can0 1CEBFFF1#03FA4347F6FFFFFF
(1787075078.416202) can0 18FEF1F8#FF0000FFFFFFFFFF
(1787075078.417342) can0 18F005F8#7EFFFF7EFFFFFFFF
(1787075078.422780) can0 18F015F1#000040924BAA4628
(1787075078.433711) can0 18F017F1#DD73FFD7972A
(1787075078.434168) can0 18F018F1#D940FE3A8ED6
(1787075078.493836) can0 1CECFFF1#20120003FF19F000
(1787075078.494800) can0 1CEBFFF1#0127100000000000
(1787075078.495809) can0 1CEBFFF1#0200000000000000
(1787075078.496848) can0 1CEBFFF1#03FA4347F6FFFFFF
(1787075078.516239) can0 18FEF1F8#FF0000FFFFFFFFFF
(1787075078.517456) can0 18F005F8#7EFFFF7EFFFFFFFF
(1787075078.522848) can0 18F015F1#000040924BAB4628
(1787075078.593926) can0 1CECFFF1#20120003FF19F000
(1787075078.594810) can0 1CEBFFF1#0127100000000000
(1787075078.595826) can0 1CEBFFF1#0200000000000000
(1787075078.596785) can0 1CEBFFF1#03FA4347F6FFFFFF
(1787075078.616180) can0 18FEF1F8#FF0000FFFFFFFFFF
(1787075078.617299) can0 18F005F8#7EFFFF7EFFFFFFFF
(1787075078.622783) can0 18F015F1#000040924BAA4628
(1787075078.670700) can0 18FF14D1#
(1787075078.694866) can0 1CECFFF1#20120003FF19F000
(1787075078.695817) can0 1CEBFFF1#0127100000000000
(1787075078.696821) can0 1CEBFFF1#0200000000000000
(1787075078.697790) can0 1CEBFFF1#03FA4347F6FFFFFF
(1787075078.716227) can0 18FEF1F8#FF0000FFFFFFFFFF
(1787075078.717378) can0 18F005F8#7EFFFF7EFFFFFFFF
(1787075078.722801) can0 18F015F1#000040924BAB4628
(1787075078.794877) can0 1CECFFF1#20120003FF19F000
(1787075078.795815) can0 1CEBFFF1#0127100000000000
(1787075078.796818) can0 1CEBFFF1#0200000000000000
(1787075078.797793) can0 1CEBFFF1#03FA4347F6FFFFFF
(1787075078.816218) can0 18FEF1F8#FF0000FFFFFFFFFF
(1787075078.817361) can0 18F005F8#7EFFFF7EFFFFFFFF
(1787075078.823787) can0 18F015F1#000040924BAB4628
(1787075078.894998) can0 1CECFFF1#20120003FF19F000
(1787075078.895875) can0 1CEBFFF1#0127100000000000
(1787075078.896858) can0 1CEBFFF1#0200000000000000
(1787075078.897830) can0 1CEBFFF1#03FA4347F6FFFFFF
(1787075078.916553) can0 18FEF1F8#FF0000FFFFFFFFFF
(1787075078.917873) can0 18F005F8#7EFFFF7EFFFFFFFF
(1787075078.923931) can0 18F015F1#000040924BAA4628
(1787075078.995053) can0 1CECFFF1#20120003FF19F000
(1787075078.996858) can0 1CEBFFF1#0127100000000000
(1787075078.997487) can0 1CEBFFF1#0200000000000000
(1787075078.997894) can0 1CEBFFF1#03FA4347F6FFFFFF
(1787075079.017303) can0 18FEF1F8#FF0000FFFFFFFFFF
(1787075079.018614) can0 18F005F8#7EFFFF7EFFFFFFFF
(1787075079.023805) can0 18F015F1#000040924BAB4628
(1787075079.094872) can0 1CECFFF1#20120003FF19F000
(1787075079.095813) can0 1CEBFFF1#0127100000000000
(1787075079.096821) can0 1CEBFFF1#0200000000000000
(1787075079.097795) can0 1CEBFFF1#03FA4347F6FFFFFF
(1787075079.116191) can0 18FEF1F8#FF0000FFFFFFFFFF
(1787075079.117373) can0 18F005F8#7EFFFF7EFFFFFFFF
(1787075079.123802) can0 18F015F1#000040924BAB4628
(1787075079.170737) can0 18FF14D1#
(1787075079.194904) can0 1CECFFF1#20120003FF19F000
(1787075079.195830) can0 1CEBFFF1#0127100000000000
(1787075079.196831) can0 1CEBFFF1#0200000000000000
(1787075079.197823) can0 1CEBFFF1#03FA4347F6FFFFFF
(1787075079.216245) can0 18FEF1F8#FF0000FFFFFFFFFF
(1787075079.217394) can0 18F005F8#7EFFFF7EFFFFFFFF
(1787075079.223933) can0 18F015F1#000040924BAA4627
(1787075079.294848) can0 1CECFFF1#20120003FF19F000
(1787075079.295846) can0 1CEBFFF1#0127100000000000
(1787075079.296814) can0 1CEBFFF1#0200000000000000
(1787075079.297789) can0 1CEBFFF1#03FA4347F6FFFFFF
(1787075079.316189) can0 18FEF1F8#FF0000FFFFFFFFFF
(1787075079.317319) can0 18F005F8#7EFFFF7EFFFFFFFF
(1787075079.323778) can0 18F015F1#000040924BAB4628
(1787075079.394873) can0 1CECFFF1#20120003FF19F000
(1787075079.405936) can0 1CEBFFF1#0127100000000000
(1787075079.406223) can0 1CEBFFF1#03FA4347F6FFFFFF
(1787075079.406371) can0 1CEBFFF1#0200000000000000
(1787075079.416200) can0 18FEF1F8#FF0000FFFFFFFFFF
(1787075079.417377) can0 18F005F8#7EFFFF7EFFFFFFFF
(1787075079.423793) can0 18F015F1#000040924BAB4628
(1787075079.434723) can0 18F017F1#DD73FFD7972A
(1787075079.435181) can0 18F018F1#D940FE3A8ED6
(1787075079.495868) can0 1CECFFF1#20120003FF19F000
(1787075079.496817) can0 1CEBFFF1#0127100000000000
(1787075079.497822) can0 1CEBFFF1#0200000000000000
(1787075079.498795) can0 1CEBFFF1#03FA4347F6FFFFFF
(1787075079.516204) can0 18FEF1F8#FF0000FFFFFFFFFF
(1787075079.517386) can0 18F005F8#7EFFFF7EFFFFFFFF
(1787075079.524847) can0 18F015F1#000040924BAA4627
(1787075079.596176) can0 1CECFFF1#20120003FF19F000
(1787075079.597000) can0 1CEBFFF1#0127100000000000
(1787075079.597853) can0 1CEBFFF1#0200000000000000
(1787075079.598847) can0 1CEBFFF1#03FA4347F6FFFFFF
(1787075079.616182) can0 18FEF1F8#FF0000FFFFFFFFFF
(1787075079.617299) can0 18F005F8#7EFFFF7EFFFFFFFF
(1787075079.624786) can0 18F015F1#000040924BAA4628
(1787075079.670715) can0 18FF14D1#
(1787075079.695941) can0 1CECFFF1#20120003FF19F000
(1787075079.696818) can0 1CEBFFF1#0127100000000000
(1787075079.697819) can0 1CEBFFF1#0200000000000000
(1787075079.698798) can0 1CEBFFF1#03FA4347F6FFFFFF
(1787075079.716180) can0 18FEF1F8#FF0000FFFFFFFFFF
(1787075079.717303) can0 18F005F8#7EFFFF7EFFFFFFFF
(1787075079.724789) can0 18F015F1#000040924BAB4628
(1787075079.795868) can0 1CECFFF1#20120003FF19F000
(1787075079.796817) can0 1CEBFFF1#0127100000000000
(1787075079.797819) can0 1CEBFFF1#0200000000000000
(1787075079.798794) can0 1CEBFFF1#03FA4347F6FFFFFF
(1787075079.816183) can0 18FEF1F8#FF0000FFFFFFFFFF
(1787075079.817317) can0 18F005F8#7EFFFF7EFFFFFFFF
(1787075079.824787) can0 18F015F1#000040924BAB4627
(1787075079.896059) can0 1CECFFF1#20120003FF19F000
(1787075079.896852) can0 1CEBFFF1#0127100000000000
(1787075079.897868) can0 1CEBFFF1#0200000000000000
(1787075079.898864) can0 1CEBFFF1#03FA4347F6FFFFFF
(1787075079.916325) can0 18FEF1F8#FF0000FFFFFFFFFF
(1787075079.917609) can0 18F005F8#7EFFFF7EFFFFFFFF
(1787075079.924944) can0 18F015F1#000040924BAA4627
(1787075079.995875) can0 1CECFFF1#20120003FF19F000
(1787075079.996818) can0 1CEBFFF1#0127100000000000
(1787075079.997837) can0 1CEBFFF1#0200000000000000
(1787075079.998813) can0 1CEBFFF1#03FA4347F6FFFFFF
(1787075080.016885) can0 18FEF1F8#FF0000FFFFFFFFFF
(1787075080.018036) can0 18F005F8#7EFFFF7EFFFFFFFF
(1787075080.024809) can0 18F015F1#000040924BAB4628
(1787075080.096876) can0 1CECFFF1#20120003FF19F000
(1787075080.097837) can0 1CEBFFF1#0127100000000000
(1787075080.098830) can0 1CEBFFF1#0200000000000000
(1787075080.099813) can0 1CEBFFF1#03FA4347F6FFFFFF
(1787075080.116210) can0 18FEF1F8#FF0000FFFFFFFFFF
(1787075080.117391) can0 18F005F8#7EFFFF7EFFFFFFFF
(1787075080.125822) can0 18F015F1#000040924BAA4627
(1787075080.170655) can0 18FF14D1#
(1787075080.196976) can0 1CECFFF1#20120003FF19F000
(1787075080.197839) can0 1CEBFFF1#0127100000000000
(1787075080.198863) can0 1CEBFFF1#0200000000000000
(1787075080.199836) can0 1CEBFFF1#03FA4347F6FFFFFF
(1787075080.216246) can0 18FEF1F8#FF0000FFFFFFFFFF
(1787075080.217401) can0 18F005F8#7EFFFF7EFFFFFFFF
(1787075080.226031) can0 18F015F1#000040924BAB4628
(1787075080.296874) can0 1CECFFF1#20120003FF19F000
(1787075080.297821) can0 1CEBFFF1#0127100000000000
(1787075080.298827) can0 1CEBFFF1#0200000000000000
(1787075080.299797) can0 1CEBFFF1#03FA4347F6FFFFFF
(1787075080.316222) can0 18FEF1F8#FF0000FFFFFFFFFF
(1787075080.317610) can0 18F005F8#7EFFFF7EFFFFFFFF
(1787075080.325809) can0 18F015F1#000040924BAB4628
(1787075080.396902) can0 1CECFFF1#20120003FF19F000
(1787075080.397821) can0 1CEBFFF1#0127100000000000
(1787075080.398826) can0 1CEBFFF1#0200000000000000
(1787075080.399799) can0 1CEBFFF1#03FA4347F6FFFFFF
(1787075080.416212) can0 18FEF1F8#FF0000FFFFFFFFFF
(1787075080.417345) can0 18F005F8#7EFFFF7EFFFFFFFF
(1787075080.425863) can0 18F015F1#000040924BAA4627
(1787075080.436751) can0 18F017F1#DD0D000496BC
(1787075080.437194) can0 18F018F1#DB1BFDD28FCF
(1787075080.496896) can0 1CECFFF1#20120003FF19F000
(1787075080.497828) can0 1CEBFFF1#0127100000000000
(1787075080.498840) can0 1CEBFFF1#0200000000000000
(1787075080.499814) can0 1CEBFFF1#03FA4347F6FFFFFF
(1787075080.516238) can0 18FEF1F8#FF0000FFFFFFFFFF
(1787075080.517362) can0 18F005F8#7EFFFF7EFFFFFFFF
(1787075080.525810) can0 18F015F1#000040924BAB4628
(1787075080.596968) can0 1CECFFF1#20120003FF19F000
(1787075080.597825) can0 1CEBFFF1#0127100000000000
(1787075080.598994) can0 1CEBFFF1#0200000000000000
(1787075080.599882) can0 1CEBFFF1#03FA4347F6FFFFFF
(1787075080.616530) can0 18FEF1F8#FF0000FFFFFFFFFF
(1787075080.617767) can0 18F005F8#7EFFFF7EFFFFFFFF
(1787075080.625814) can0 18F015F1#000040924BAB4628
(1787075080.670611) can0 18FF14D1#
(1787075080.696890) can0 1CECFFF1#20120003FF19F000
(1787075080.697815) can0 1CEBFFF1#0127100000000000
(1787075080.698831) can0 1CEBFFF1#0200000000000000
(1787075080.699810) can0 1CEBFFF1#03FA4347F6FFFFFF
(1787075080.716229) can0 18FEF1F8#FF0000FFFFFFFFFF
(1787075080.717445) can0 18F005F8#7EFFFF7EFFFFFFFF
(1787075080.725861) can0 18F015F1#000040924BAB4627
(1787075080.796889) can0 1CECFFF1#20120003FF19F000
(1787075080.797819) can0 1CEBFFF1#0127100000000000
(1787075080.798830) can0 1CEBFFF1#0200000000000000
(1787075080.799803) can0 1CEBFFF1#03FA4347F6FFFFFF
(1787075080.816209) can0 18FEF1F8#FF0000FFFFFFFFFF
(1787075080.817347) can0 18F005F8#7EFFFF7EFFFFFFFF
(1787075080.827003) can0 18F015F1#000040924BAB4628
(1787075080.897983) can0 1CECFFF1#20120003FF19F000
(1787075080.898825) can0 1CEBFFF1#0127100000000000
(1787075080.899861) can0 1CEBFFF1#0200000000000000
(1787075080.900818) can0 1CEBFFF1#03FA4347F6FFFFFF
(1787075080.917171) can0 18FEF1F8#FF0000FFFFFFFFFF
(1787075080.918561) can0 18F005F8#7EFFFF7EFFFFFFFF
(1787075080.926932) can0 18F015F1#000040924BAB4628
(1787075080.997870) can0 1CECFFF1#20120003FF19F000
(1787075080.998818) can0 1CEBFFF1#0127100000000000
(1787075080.999826) can0 1CEBFFF1#0200000000000000
(1787075081.000805) can0 1CEBFFF1#03FA4347F6FFFFFF
(1787075081.016230) can0 18FEF1F8#FF0000FFFFFFFFFF
(1787075081.017597) can0 18F005F8#7EFFFF7EFFFFFFFF
(1787075081.026838) can0 18F015F1#000040924BAB4628
(1787075081.097869) can0 1CECFFF1#20120003FF19F000
(1787075081.098824) can0 1CEBFFF1#0127100000000000
(1787075081.099830) can0 1CEBFFF1#0200000000000000
(1787075081.100804) can0 1CEBFFF1#03FA4347F6FFFFFF
(1787075081.116198) can0 18FEF1F8#FF0000FFFFFFFFFF
(1787075081.117385) can0 18F005F8#7EFFFF7EFFFFFFFF
(1787075081.126811) can0 18F015F1#000040924BAB4628
(1787075081.170673) can0 18FF14D1#
(1787075081.197909) can0 1CECFFF1#20120003FF19F000
(1787075081.198839) can0 1CEBFFF1#0127100000000000
(1787075081.199845) can0 1CEBFFF1#0200000000000000
(1787075081.200813) can0 1CEBFFF1#03FA4347F6FFFFFF
(1787075081.216254) can0 18FEF1F8#FF0000FFFFFFFFFF
(1787075081.217472) can0 18F005F8#7EFFFF7EFFFFFFFF
(1787075081.227069) can0 18F015F1#000040924BAB4628
(1787075081.297991) can0 1CECFFF1#20120003FF19F000
(1787075081.298831) can0 1CEBFFF1#0127100000000000
(1787075081.299832) can0 1CEBFFF1#0200000000000000
(1787075081.300896) can0 1CEBFFF1#03FA4347F6FFFFFF
(1787075081.316264) can0 18FEF1F8#FF0000FFFFFFFFFF
(1787075081.317496) can0 18F005F8#7EFFFF7EFFFFFFFF
(1787075081.326812) can0 18F015F1#000040924BAB4627
(1787075081.397904) can0 1CECFFF1#20120003FF19F000
(1787075081.398823) can0 1CEBFFF1#0127100000000000
(1787075081.399832) can0 1CEBFFF1#0200000000000000
(1787075081.400807) can0 1CEBFFF1#03FA4347F6FFFFFF
(1787075081.416190) can0 18FEF1F8#FF0000FFFFFFFFFF
(1787075081.417331) can0 18F005F8#7EFFFF7EFFFFFFFF
(1787075081.426814) can0 18F015F1#000040924BAB4628
(1787075081.437748) can0 18F017F1#DD0D000496BC
(1787075081.438206) can0 18F018F1#DB1BFDD28FCF
(1787075081.498881) can0 1CECFFF1#20120003FF19F000
(1787075081.499852) can0 1CEBFFF1#0127100000000000
(1787075081.500849) can0 1CEBFFF1#0200000000000000
(1787075081.501824) can0 1CEBFFF1#03FA4347F6FFFFFF
(1787075081.516209) can0 18FEF1F8#FF0000FFFFFFFFFF
(1787075081.517352) can0 18F005F8#7EFFFF7EFFFFFFFF
(1787075081.526850) can0 18F015F1#000040924BAB4628
(1787075081.599026) can0 1CECFFF1#20120003FF19F000
(1787075081.599845) can0 1CEBFFF1#0127100000000000
(1787075081.600875) can0 1CEBFFF1#0200000000000000
(1787075081.601954) can0 1CEBFFF1#03FA4347F6FFFFFF
(1787075081.616203) can0 18FEF1F8#FF0000FFFFFFFFFF
(1787075081.617393) can0 18F005F8#7EFFFF7EFFFFFFFF
(1787075081.627832) can0 18F015F1#000040924BAB4628
(1787075081.670919) can0 18FF14D1#
(1787075081.698923) can0 1CECFFF1#20120003FF19F000
(1787075081.699834) can0 1CEBFFF1#0127100000000000
(1787075081.700842) can0 1CEBFFF1#0200000000000000
(1787075081.701819) can0 1CEBFFF1#03FA4347F6FFFFFF
(1787075081.716205) can0 18FEF1F8#FF0000FFFFFFFFFF
(1787075081.717392) can0 18F005F8#7EFFFF7EFFFFFFFF
(1787075081.727833) can0 18F015F1#000040924BAB4628
(1787075081.798881) can0 1CECFFF1#20120003FF19F000
(1787075081.799841) can0 1CEBFFF1#0127100000000000
(1787075081.800849) can0 1CEBFFF1#0200000000000000
(1787075081.801822) can0 1CEBFFF1#03FA4347F6FFFFFF
(1787075081.816240) can0 18FEF1F8#FF0000FFFFFFFFFF
(1787075081.817442) can0 18F005F8#7EFFFF7EFFFFFFFF
(1787075081.827824) can0 18F015F1#000040924BAB4628
(1787075081.898976) can0 1CECFFF1#20120003FF19F000
(1787075081.899854) can0 1CEBFFF1#0127100000000000
(1787075081.900872) can0 1CEBFFF1#0200000000000000
(1787075081.901952) can0 1CEBFFF1#03FA4347F6FFFFFF
(1787075081.916528) can0 18FEF1F8#FF0000FFFFFFFFFF
(1787075081.917759) can0 18F005F8#7EFFFF7EFFFFFFFF
(1787075081.927857) can0 18F015F1#000040924BAB4628
(1787075081.998870) can0 1CECFFF1#20120003FF19F000
(1787075081.999837) can0 1CEBFFF1#0127100000000000
(1787075082.000866) can0 1CEBFFF1#0200000000000000
(1787075082.001851) can0 1CEBFFF1#03FA4347F6FFFFFF
(1787075082.017295) can0 18FEF1F8#FF0000FFFFFFFFFF
(1787075082.018463) can0 18F005F8#7EFFFF7EFFFFFFFF
(1787075082.027847) can0 18F015F1#000040924BAB4628
(1787075082.098891) can0 1CECFFF1#20120003FF19F000
(1787075082.099831) can0 1CEBFFF1#0127100000000000
(1787075082.100838) can0 1CEBFFF1#0200000000000000
(1787075082.101813) can0 1CEBFFF1#03FA4347F6FFFFFF
(1787075082.116187) can0 18FEF1F8#FF0000FFFFFFFFFF
(1787075082.117316) can0 18F005F8#7EFFFF7EFFFFFFFF
(1787075082.127812) can0 18F015F1#000040924BAB4627
(1787075082.170557) can0 18FF14D1#
(1787075082.199957) can0 1CECFFF1#20120003FF19F000
(1787075082.200850) can0 1CEBFFF1#0127100000000000
(1787075082.201874) can0 1CEBFFF1#0200000000000000
(1787075082.202852) can0 1CEBFFF1#03FA4347F6FFFFFF
(1787075082.216240) can0 18FEF1F8#FF0000FFFFFFFFFF
(1787075082.217420) can0 18F005F8#7EFFFF7EFFFFFFFF
(1787075082.228880) can0 18F015F1#000040924BAB4627
(1787075082.299903) can0 1CECFFF1#20120003FF19F000
(1787075082.300852) can0 1CEBFFF1#0127100000000000
(1787075082.301854) can0 1CEBFFF1#0200000000000000
(1787075082.302835) can0 1CEBFFF1#03FA4347F6FFFFFF
(1787075082.316197) can0 18FEF1F8#FF0000FFFFFFFFFF
(1787075082.317322) can0 18F005F8#7EFFFF7EFFFFFFFF
(1787075082.328815) can0 18F015F1#000040924BAB4627
(1787075082.399916) can0 1CECFFF1#20120003FF19F000
(1787075082.400830) can0 1CEBFFF1#0127100000000000
(1787075082.401838) can0 1CEBFFF1#0200000000000000
(1787075082.402813) can0 1CEBFFF1#03FA4347F6FFFFFF
(1787075082.416185) can0 18FEF1F8#FF0000FFFFFFFFFF
(1787075082.417316) can0 18F005F8#7EFFFF7EFFFFFFFF
(1787075082.428827) can0 18F015F1#000040924BAB4627
(1787075082.438740) can0 18F017F1#DDC5002496A3
(1787075082.439208) can0 18F018F1#DA61FD728FF9
(1787075082.499870) can0 1CECFFF1#20120003FF19F000
(1787075082.500840) can0 1CEBFFF1#0127100000000000
(1787075082.501853) can0 1CEBFFF1#0200000000000000
(1787075082.502831) can0 1CEBFFF1#03FA4347F6FFFFFF
(1787075082.516898) can0 18FEF1F8#FF0000FFFFFFFFFF
(1787075082.518122) can0 18F005F8#7EFFFF7EFFFFFFFF
(1787075082.528831) can0 18F015F1#000040924BAB4627
(1787075082.600002) can0 1CECFFF1#20120003FF19F000
(1787075082.600851) can0 1CEBFFF1#0127100000000000
(1787075082.601845) can0 1CEBFFF1#0200000000000000
(1787075082.602820) can0 1CEBFFF1#03FA4347F6FFFFFF
(1787075082.616259) can0 18FEF1F8#FF0000FFFFFFFFFF
(1787075082.617464) can0 18F005F8#7EFFFF7EFFFFFFFF
(1787075082.628983) can0 18F015F1#000040924BAB4627
(1787075082.670568) can0 18FF14D1#
(1787075082.699948) can0 1CECFFF1#20120003FF19F000
(1787075082.700842) can0 1CEBFFF1#0127100000000000
