(1785792023.980984) can0 1CECFFF1#20120003FF19F000
(1785792023.981941) can0 1CEBFFF1#01000B0000000000
(1785792023.982928) can0 1CEBFFF1#0200000000000000
(1785792023.983908) can0 1CEBFFF1#03FD83C6F4FFFFFF
(1785792024.005240) can0 18FEF1F8#FF0000FFFFFFFFFF
(1785792024.006526) can0 18F005F8#7DFFFF7DFFFFFFFF
(1785792024.009903) can0 18F015F1#000043D249234769
(1785792024.037213) can0 18FF09D1#01000B00D358E9
(1785792024.081214) can0 1CECFFF1#20120003FF19F000
(1785792024.081959) can0 1CEBFFF1#01000B0000000000
(1785792024.082947) can0 1CEBFFF1#0200000000000000
(1785792024.083921) can0 1CEBFFF1#03FD83C6F4FFFFFF
(1785792024.105390) can0 18FEF1F8#FF0000FFFFFFFFFF
(1785792024.106643) can0 18F005F8#7DFFFF7DFFFFFFFF
(1785792024.110888) can0 18F015F1#000043D24925476A
(1785792024.137537) can0 18FF09D1#01000B00D3C8E7
(1785792024.138163) can0 18FF14D1#
(1785792024.180966) can0 1CECFFF1#20120003FF19F000
(1785792024.181937) can0 1CEBFFF1#01000B0000000000
(1785792024.182934) can0 1CEBFFF1#0200000000000000
(1785792024.183912) can0 1CEBFFF1#03FD83C6F4FFFFFF
(1785792024.205202) can0 18FEF1F8#FF0000FFFFFFFFFF
(1785792024.206358) can0 18F005F8#7DFFFF7DFFFFFFFF
(1785792024.210905) can0 18F015F1#000043D24924476A
(1785792024.237084) can0 18FF09D1#01000B00D3C8E7
(1785792024.281976) can0 1CECFFF1#20120003FF19F000
(1785792024.282932) can0 1CEBFFF1#01000B0000000000
(1785792024.283929) can0 1CEBFFF1#0200000000000000
(1785792024.284914) can0 1CEBFFF1#03FD83C6F4FFFFFF
(1785792024.305196) can0 18FEF1F8#FF0000FFFFFFFFFF
(1785792024.306375) can0 18F005F8#7DFFFF7DFFFFFFFF
(1785792024.310895) can0 18F015F1#000043D249234769
(1785792024.337490) can0 18FF09D1#01000B00D3C8E7
(1785792024.382116) can0 1CECFFF1#20120003FF19F000
(1785792024.382986) can0 1CEBFFF1#01000B0000000000
(1785792024.384098) can0 1CEBFFF1#0200000000000000
(1785792024.385182) can0 1CEBFFF1#03FD83C6F4FFFFFF
(1785792024.407600) can0 18FEF1F8#FF0000FFFFFFFFFF
(1785792024.409743) can0 18F005F8#7DFFFF7DFFFFFFFF
(1785792024.411029) can0 18F015F1#000043D24924476A
(1785792024.413209) can0 18ECFFFF#20100003FF13FF00
(1785792024.414556) can0 18EBFFFF#0100330F4871F410
(1785792024.415881) can0 18EBFFFF#024CA96400000000
(1785792024.417099) can0 18EBFFFF#03010BFFFFFFFFFF
(1785792024.437455) can0 18FF09D1#01000B00D3C8E7
(1785792024.482088) can0 1CECFFF1#20120003FF19F000
(1785792024.482967) can0 1CEBFFF1#01000B0000000000
(1785792024.484038) can0 1CEBFFF1#0200000000000000
(1785792024.484921) can0 1CEBFFF1#03FD83C6F4FFFFFF
(1785792024.505253) can0 18FEF1F8#FF0000FFFFFFFFFF
(1785792024.506483) can0 18F005F8#7DFFFF7DFFFFFFFF
(1785792024.510922) can0 18F015F1#000043D249244769
(1785792024.537151) can0 18FF09D1#01000B00D3C8E7
(1785792024.581991) can0 1CECFFF1#20120003FF19F000
(1785792024.583014) can0 1CEBFFF1#01000B0000000000
(1785792024.583962) can0 1CEBFFF1#0200000000000000
(1785792024.584926) can0 1CEBFFF1#03FD83C6F4FFFFFF
(1785792024.605223) can0 18FEF1F8#FF0000FFFFFFFFFF
(1785792024.606465) can0 18F005F8#7DFFFF7DFFFFFFFF
(1785792024.611945) can0 18F015F1#000043D24924476A
(1785792024.621872) can0 18F017F1#F01F093F9AF1
(1785792024.622273) can0 18F018F1#E8B1057892DA
(1785792024.637241) can0 18FF09D1#01000B00D300E7
(1785792024.637513) can0 18FF14D1#
(1785792024.681995) can0 1CECFFF1#20120003FF19F000
(1785792024.682956) can0 1CEBFFF1#01000B0000000000
(1785792024.683988) can0 1CEBFFF1#0200000000000000
(1785792024.684932) can0 1CEBFFF1#03FD83C6F4FFFFFF
(1785792024.705438) can0 18FEF1F8#FF0000FFFFFFFFFF
(1785792024.706830) can0 18F005F8#7DFFFF7DFFFFFFFF
(1785792024.713752) can0 18F015F1#000043D24925476A
(1785792024.737680) can0 18FF09D1#01000B00D300E7
(1785792024.781946) can0 1CECFFF1#20120003FF19F000
(1785792024.782932) can0 1CEBFFF1#01000B0000000000
(1785792024.783928) can0 1CEBFFF1#0200000000000000
(1785792024.784908) can0 1CEBFFF1#03FD83C6F4FFFFFF
(1785792024.806020) can0 18FEF1F8#FF0000FFFFFFFFFF
(1785792024.807301) can0 18F005F8#7DFFFF7DFFFFFFFF
(1785792024.810997) can0 18F015F1#000043D249244769
(1785792024.837198) can0 18FF09D1#01000B00D300E7
(1785792024.881970) can0 1CECFFF1#20120003FF19F000
(1785792024.882951) can0 1CEBFFF1#01000B0000000000
(1785792024.883961) can0 1CEBFFF1#0200000000000000
(1785792024.884931) can0 1CEBFFF1#03FD83C6F4FFFFFF
(1785792024.905475) can0 18FEF1F8#FF0000FFFFFFFFFF
(1785792024.906804) can0 18F005F8#7DFFFF7DFFFFFFFF
(1785792024.908006) can0 18ECFFFF#20100003FF13FF00
(1785792024.909122) can0 18EBFFFF#0100330F4871F410
(1785792024.910239) can0 18EBFFFF#024CA96400000000
(1785792024.910909) can0 18F015F1#000043D24924476A
(1785792024.911459) can0 18EBFFFF#03010BFFFFFFFFFF
(1785792024.937113) can0 18FF09D1#01000B00D300E7
(1785792024.982962) can0 1CECFFF1#20120003FF19F000
(1785792024.983938) can0 1CEBFFF1#01000B0000000000
(1785792024.984940) can0 1CEBFFF1#0200000000000000
(1785792024.985928) can0 1CEBFFF1#03FD83C6F4FFFFFF
(1785792025.005190) can0 18FEF1F8#FF0000FFFFFFFFFF
(1785792025.006387) can0 18F005F8#7DFFFF7DFFFFFFFF
(1785792025.010888) can0 18F015F1#000043D24925476A
(1785792025.037222) can0 18FF09D1#01000B00D300E7
(1785792025.083042) can0 1CECFFF1#20120003FF19F000
(1785792025.083956) can0 1CEBFFF1#01000B0000000000
(1785792025.084949) can0 1CEBFFF1#0200000000000000
(1785792025.085930) can0 1CEBFFF1#03FD83C6F4FFFFFF
(1785792025.105346) can0 18FEF1F8#FF0000FFFFFFFFFF
(1785792025.106511) can0 18F005F8#7DFFFF7DFFFFFFFF
(1785792025.111891) can0 18F015F1#000043D249244769
(1785792025.137355) can0 18FF09D1#01000B00D300E7
(1785792025.137824) can0 18FF14D1#
(1785792025.138210) can0 18FF16D1#01000B0064
(1785792025.182980) can0 1CECFFF1#20120003FF19F000
(1785792025.183943) can0 1CEBFFF1#01000B0000000000
(1785792025.184938) can0 1CEBFFF1#0200000000000000
(1785792025.185940) can0 1CEBFFF1#03FD83C6F4FFFFFF
(1785792025.205213) can0 18FEF1F8#FF0000FFFFFFFFFF
(1785792025.206383) can0 18F005F8#7DFFFF7DFFFFFFFF
(1785792025.211915) can0 18F015F1#000043D24924476A
(1785792025.237156) can0 18FF09D1#01000B00D300E7
(1785792025.283008) can0 1CECFFF1#20120003FF19F000
(1785792025.283958) can0 1CEBFFF1#01000B0000000000
(1785792025.284950) can0 1CEBFFF1#0200000000000000
(1785792025.285935) can0 1CEBFFF1#03FD83C6F4FFFFFF
(1785792025.305200) can0 18FEF1F8#FF0000FFFFFFFFFF
(1785792025.306382) can0 18F005F8#7DFFFF7DFFFFFFFF
(1785792025.311920) can0 18F015F1#000043D24925476B
(1785792025.337152) can0 18FF09D1#01000B00D300E7
(1785792025.383284) can0 1CECFFF1#20120003FF19F000
(1785792025.384119) can0 1CEBFFF1#01000B0000000000
(1785792025.385037) can0 1CEBFFF1#0200000000000000
(1785792025.386041) can0 1CEBFFF1#03FD83C6F4FFFFFF
(1785792025.407647) can0 18FEF1F8#FF0000FFFFFFFFFF
(1785792025.409115) can0 18F005F8#7DFFFF7DFFFFFFFF
(1785792025.412196) can0 18F015F1#000043D24924476A
(1785792025.414168) can0 18ECFFFF#20100003FF13FF00
(1785792025.415391) can0 18EBFFFF#0100330F4871F410
(1785792025.416725) can0 18EBFFFF#024CA96400000000
(1785792025.417886) can0 18EBFFFF#03010BFFFFFFFFFF
(1785792025.437173) can0 18FF09D1#01000B00D300E7
(1785792025.483105) can0 1CECFFF1#20120003FF19F000
(1785792025.484004) can0 1CEBFFF1#01000B0000000000
(1785792025.485036) can0 1CEBFFF1#0200000000000000
(1785792025.486163) can0 1CEBFFF1#03FD83C6F4FFFFFF
(1785792025.505251) can0 18FEF1F8#FF0000FFFFFFFFFF
(1785792025.506435) can0 18F005F8#7DFFFF7DFFFFFFFF
(1785792025.511941) can0 18F015F1#000043D24924476A
(1785792025.537123) can0 18FF09D1#01000B00D300E7
(1785792025.583134) can0 1CECFFF1#20120003FF19F000
(1785792025.584029) can0 1CEBFFF1#01000B0000000000
(1785792025.584977) can0 1CEBFFF1#0200000000000000
(1785792025.586019) can0 1CEBFFF1#03FD83C6F4FFFFFF
(1785792025.605607) can0 18FEF1F8#FF0000FFFFFFFFFF
(1785792025.606823) can0 18F005F8#7DFFFF7DFFFFFFFF
(1785792025.613034) can0 18F015F1#000043D24925476A
(1785792025.622972) can0 18F017F1#F01F093F9AF1
(1785792025.623422) can0 18F018F1#E8B1057892DA
(1785792025.637163) can0 18FF09D1#01000B00D39CE6
(1785792025.637524) can0 18FF14D1#
(1785792025.683069) can0 1CECFFF1#20120003FF19F000
(1785792025.683938) can0 1CEBFFF1#01000B0000000000
(1785792025.684950) can0 1CEBFFF1#0200000000000000
(1785792025.686023) can0 1CEBFFF1#03FD83C6F4FFFFFF
(1785792025.705269) can0 18FEF1F8#FF0000FFFFFFFFFF
(1785792025.706465) can0 18F005F8#7DFFFF7DFFFFFFFF
(1785792025.711967) can0 18F015F1#000043D24924476A
(1785792025.737186) can0 18FF09D1#01000B00D39CE6
(1785792025.784243) can0 1CECFFF1#20120003FF19F000
(1785792025.784933) can0 1CEBFFF1#01000B0000000000
(1785792025.786220) can0 1CEBFFF1#0200000000000000
(1785792025.786949) can0 1CEBFFF1#03FD83C6F4FFFFFF
(1785792025.805495) can0 18FEF1F8#FF0000FFFFFFFFFF
(1785792025.806848) can0 18F005F8#7DFFFF7DFFFFFFFF
(1785792025.813138) can0 18F015F1#000043D24924476A
(1785792025.837100) can0 18FF09D1#01000B00D39CE6
(1785792025.883995) can0 1CECFFF1#20120003FF19F000
(1785792025.884959) can0 1CEBFFF1#01000B0000000000
(1785792025.885994) can0 1CEBFFF1#0200000000000000
(1785792025.886939) can0 1CEBFFF1#03FD83C6F4FFFFFF
(1785792025.905301) can0 18FEF1F8#FF0000FFFFFFFFFF
(1785792025.906568) can0 18F005F8#7DFFFF7DFFFFFFFF
(1785792025.907953) can0 18ECFFFF#20100003FF13FF00
(1785792025.909189) can0 18EBFFFF#0100330F4871F410
(1785792025.910359) can0 18EBFFFF#024CA96400000000
(1785792025.911547) can0 18EBFFFF#03010BFFFFFFFFFF
(1785792025.912910) can0 18F015F1#000043D24925476A
(1785792025.937100) can0 18FF09D1#01000B00D39CE6
(1785792025.984015) can0 1CECFFF1#20120003FF19F000
(1785792025.984961) can0 1CEBFFF1#01000B0000000000
(1785792025.985989) can0 1CEBFFF1#0200000000000000
(1785792025.986947) can0 1CEBFFF1#03FD83C6F4FFFFFF
(1785792026.005268) can0 18FEF1F8#FF0000FFFFFFFFFF
(1785792026.006525) can0 18F005F8#7DFFFF7DFFFFFFFF
(1785792026.013056) can0 18F015F1#000043D24924476A
(1785792026.037110) can0 18FF09D1#01000B00D39CE6
(1785792026.084070) can0 1CECFFF1#20120003FF19F000
(1785792026.084988) can0 1CEBFFF1#01000B0000000000
(1785792026.086035) can0 1CEBFFF1#0200000000000000
(1785792026.086946) can0 1CEBFFF1#03FD83C6F4FFFFFF
(1785792026.105934) can0 18FEF1F8#FF0000FFFFFFFFFF
(1785792026.107290) can0 18F005F8#7DFFFF7DFFFFFFFF
(1785792026.113956) can0 18F015F1#000043D24924476A
(1785792026.138528) can0 18FF09D1#01000B00D39CE6
(1785792026.138920) can0 18FF14D1#
(1785792026.183989) can0 1CECFFF1#20120003FF19F000
(1785792026.184955) can0 1CEBFFF1#01000B0000000000
(1785792026.185977) can0 1CEBFFF1#0200000000000000
(1785792026.186937) can0 1CEBFFF1#03FD83C6F4FFFFFF
(1785792026.205241) can0 18FEF1F8#FF0000FFFFFFFFFF
(1785792026.206471) can0 18F005F8#7DFFFF7DFFFFFFFF
(1785792026.212927) can0 18F015F1#000043D24925476A
(1785792026.237048) can0 18FF09D1#01000B00D300E7
(1785792026.283994) can0 1CECFFF1#20120003FF19F000
(1785792026.284971) can0 1CEBFFF1#01000B0000000000
(1785792026.285985) can0 1CEBFFF1#0200000000000000
(1785792026.286943) can0 1CEBFFF1#03FD83C6F4FFFFFF
(1785792026.305203) can0 18FEF1F8#FF0000FFFFFFFFFF
(1785792026.306356) can0 18F005F8#7DFFFF7DFFFFFFFF
(1785792026.312925) can0 18F015F1#000043D24924476A
(1785792026.337041) can0 18FF09D1#01000B00D300E7
(1785792026.384112) can0 1CECFFF1#20120003FF19F000
(1785792026.385098) can0 1CEBFFF1#01000B0000000000
(1785792026.386114) can0 1CEBFFF1#0200000000000000
(1785792026.386996) can0 1CEBFFF1#03FD83C6F4FFFFFF
(1785792026.405570) can0 18FEF1F8#FF0000FFFFFFFFFF
(1785792026.407469) can0 18F005F8#7DFFFF7DFFFFFFFF
(1785792026.413329) can0 18F015F1#000043D24924476A
(1785792026.417367) can0 18ECFFFF#20100003FF13FF00
(1785792026.418758) can0 18EBFFFF#0100330F4871F410
(1785792026.420594) can0 18EBFFFF#024CA96400000000
(1785792026.421781) can0 18EBFFFF#03010BFFFFFFFFFF
(1785792026.437176) can0 18FF09D1#01000B00D300E7
(1785792026.485123) can0 1CECFFF1#20120003FF19F000
(1785792026.486027) can0 1CEBFFF1#01000B0000000000
(1785792026.486964) can0 1CEBFFF1#0200000000000000
(1785792026.487959) can0 1CEBFFF1#03FD83C6F4FFFFFF
(1785792026.505314) can0 18FEF1F8#FF0000FFFFFFFFFF
(1785792026.506487) can0 18F005F8#7DFFFF7DFFFFFFFF
(1785792026.513936) can0 18F015F1#000043D24925476B
(1785792026.537072) can0 18FF09D1#01000B00D300E7
(1785792026.584984) can0 1CECFFF1#20120003FF19F000
(1785792026.585990) can0 1CEBFFF1#01000B0000000000
(1785792026.586991) can0 1CEBFFF1#0200000000000000
(1785792026.587933) can0 1CEBFFF1#03FD83C6F4FFFFFF
(1785792026.605317) can0 18FEF1F8#FF0000FFFFFFFFFF
(1785792026.606480) can0 18F005F8#7DFFFF7DFFFFFFFF
(1785792026.613935) can0 18F015F1#000043D24924476A
(1785792026.624879) can0 18F017F1#EF1F099C9C79
(1785792026.625323) can0 18F018F1#EA3005309008
(1785792026.637156) can0 18FF09D1#01000B00D300E7
(1785792026.637531) can0 18FF14D1#
(1785792026.684974) can0 1CECFFF1#20120003FF19F000
(1785792026.685969) can0 1CEBFFF1#01000B0000000000
(1785792026.686966) can0 1CEBFFF1#0200000000000000
(1785792026.688521) can0 1CEBFFF1#03FD83C6F4FFFFFF
(1785792026.705274) can0 18FEF1F8#FF0000FFFFFFFFFF
(1785792026.706486) can0 18F005F8#7DFFFF7DFFFFFFFF
(1785792026.714090) can0 18F015F1#000043D24924476A
(1785792026.737155) can0 18FF09D1#01000B00D3BCE9
(1785792026.784966) can0 1CECFFF1#20120003FF19F000
(1785792026.786435) can0 1CEBFFF1#01000B0000000000
(1785792026.786986) can0 1CEBFFF1#0200000000000000
(1785792026.787923) can0 1CEBFFF1#03FD83C6F4FFFFFF
(1785792026.805475) can0 18FEF1F8#FF0000FFFFFFFFFF
(1785792026.806988) can0 18F005F8#7DFFFF7DFFFFFFFF
(1785792026.814684) can0 18F015F1#000043D24925476B
(1785792026.837039) can0 18FF09D1#01000B00D3BCE9
(1785792026.884983) can0 1CECFFF1#20120003FF19F000
(1785792026.885984) can0 1CEBFFF1#01000B0000000000
(1785792026.886958) can0 1CEBFFF1#0200000000000000
(1785792026.887937) can0 1CEBFFF1#03FD83C6F4FFFFFF
(1785792026.905638) can0 18FEF1F8#FF0000FFFFFFFFFF
(1785792026.906960) can0 18F005F8#7DFFFF7DFFFFFFFF
(1785792026.908180) can0 18ECFFFF#20100003FF13FF00
(1785792026.909283) can0 18EBFFFF#0100330F4871F410
(1785792026.910398) can0 18EBFFFF#024CA96400000000
(1785792026.911532) can0 18EBFFFF#03010BFFFFFFFFFF
(1785792026.913908) can0 18F015F1#000043D24924476A
(1785792026.937032) can0 18FF09D1#01000B00D3BCE9
(1785792026.984990) can0 1CECFFF1#20120003FF19F000
(1785792026.985980) can0 1CEBFFF1#01000B0000000000
(1785792026.986949) can0 1CEBFFF1#0200000000000000
(1785792026.987931) can0 1CEBFFF1#03FD83C6F4FFFFFF
(1785792027.005185) can0 18FEF1F8#FF0000FFFFFFFFFF
(1785792027.006355) can0 18F005F8#7DFFFF7DFFFFFFFF
(1785792027.013949) can0 18F015F1#000043D24924476A
(1785792027.037186) can0 18FF09D1#01000B00D3BCE9
(1785792027.085092) can0 1CECFFF1#20120003FF19F000
(1785792027.086010) can0 1CEBFFF1#01000B0000000000
(1785792027.086952) can0 1CEBFFF1#0200000000000000
(1785792027.087926) can0 1CEBFFF1#03FD83C6F4FFFFFF
(1785792027.105294) can0 18FEF1F8#FF0000FFFFFFFFFF
(1785792027.106515) can0 18F005F8#7DFFFF7DFFFFFFFF
(1785792027.114919) can0 18F015F1#000043D24925476B
(1785792027.137148) can0 18FF09D1#01000B00D3BCE9
(1785792027.137486) can0 18FF14D1#
(1785792027.186041) can0 1CECFFF1#20120003FF19F000
(1785792027.186952) can0 1CEBFFF1#01000B0000000000
(1785792027.187952) can0 1CEBFFF1#0200000000000000
(1785792027.188927) can0 1CEBFFF1#03FD83C6F4FFFFFF
(1785792027.205195) can0 18FEF1F8#FF0000FFFFFFFFFF
(1785792027.206330) can0 18F005F8#7DFFFF7DFFFFFFFF
(1785792027.213927) can0 18F015F1#000043D24924476A
(1785792027.237744) can0 18FF09D1#01000B00D3BCE9
(1785792027.286029) can0 1CECFFF1#20120003FF19F000
(1785792027.286958) can0 1CEBFFF1#01000B0000000000
(1785792027.287956) can0 1CEBFFF1#0200000000000000
(1785792027.288935) can0 1CEBFFF1#03FD83C6F4FFFFFF
(1785792027.305204) can0 18FEF1F8#FF0000FFFFFFFFFF
(1785792027.306357) can0 18F005F8#7DFFFF7DFFFFFFFF
(1785792027.314923) can0 18F015F1#000043D24924476A
(1785792027.337006) can0 18FF09D1#01000B00D3BCE9
(1785792027.386081) can0 1CECFFF1#20120003FF19F000
(1785792027.387971) can0 1CEBFFF1#01000B0000000000
(1785792027.388342) can0 1CEBFFF1#0200000000000000
(1785792027.388945) can0 1CEBFFF1#03FD83C6F4FFFFFF
(1785792027.406826) can0 18FEF1F8#FF0000FFFFFFFFFF
(1785792027.409115) can0 18F005F8#7DFFFF7DFFFFFFFF
(1785792027.413701) can0 18ECFFFF#20100003FF13FF00
(1785792027.414999) can0 18F015F1#000043D24925476B
(1785792027.415468) can0 18EBFFFF#0100330F4871F410
(1785792027.417423) can0 18EBFFFF#024CA96400000000
(1785792027.419075) can0 18EBFFFF#03010BFFFFFFFFFF
(1785792027.437304) can0 18FF09D1#01000B00D3BCE9
(1785792027.486575) can0 1CECFFF1#20120003FF19F000
(1785792027.487232) can0 1CEBFFF1#01000B0000000000
(1785792027.488011) can0 1CEBFFF1#0200000000000000
(1785792027.488986) can0 1CEBFFF1#03FD83C6F4FFFFFF
(1785792027.505251) can0 18FEF1F8#FF0000FFFFFFFFFF
(1785792027.506503) can0 18F005F8#7DFFFF7DFFFFFFFF
(1785792027.514977) can0 18F015F1#000043D24924476A
(1785792027.537056) can0 18FF09D1#01000B00D3BCE9
(1785792027.586084) can0 1CECFFF1#20120003FF19F000
(1785792027.587019) can0 1CEBFFF1#01000B0000000000
(1785792027.587978) can0 1CEBFFF1#0200000000000000
(1785792027.588937) can0 1CEBFFF1#03FD83C6F4FFFFFF
(1785792027.605216) can0 18FEF1F8#FF0000FFFFFFFFFF
(1785792027.606474) can0 18F005F8#7DFFFF7DFFFFFFFF
(1785792027.616118) can0 18F015F1#000043D24924476A
(1785792027.626107) can0 18F017F1#EF1F099C9C79
(1785792027.626593) can0 18F018F1#EA3005309008
(1785792027.637085) can0 18FF09D1#01000B00D3BCE9
(1785792027.637493) can0 18FF14D1#
(1785792027.686058) can0 1CECFFF1#20120003FF19F000
(1785792027.686962) can0 1CEBFFF1#01000B0000000000
(1785792027.687990) can0 1CEBFFF1#0200000000000000
(1785792027.688963) can0 1CEBFFF1#03FD83C6F4FFFFFF
(1785792027.705274) can0 18FEF1F8#FF0000FFFFFFFFFF
(1785792027.706546) can0 18F005F8#7DFFFF7DFFFFFFFF
(1785792027.714957) can0 18F015F1#000043D24925476B
(1785792027.737099) can0 18FF09D1#01000B00D3BCE9
(1785792027.786148) can0 1CECFFF1#20120003FF19F000
(1785792027.787054) can0 1CEBFFF1#01000B0000000000
(1785792027.788663) can0 1CEBFFF1#0200000000000000
(1785792027.789045) can0 1CEBFFF1#03FD83C6F4FFFFFF
(1785792027.805304) can0 18FEF1F8#FF0000FFFFFFFFFF
(1785792027.806733) can0 18F005F8#7DFFFF7DFFFFFFFF
(1785792027.815043) can0 18F015F1#000043D24924476A
(1785792027.837374) can0 18FF09D1#01000B00D3BCE9
(1785792027.886972) can0 1CECFFF1#20120003FF19F000
(1785792027.887956) can0 1CEBFFF1#01000B0000000000
(1785792027.888949) can0 1CEBFFF1#0200000000000000
(1785792027.889927) can0 1CEBFFF1#03FD83C6F4FFFFFF
(1785792027.905488) can0 18FEF1F8#FF0000FFFFFFFFFF
(1785792027.906712) can0 18F005F8#7DFFFF7DFFFFFFFF
(1785792027.908067) can0 18ECFFFF#20100003FF13FF00
(1785792027.909215) can0 18EBFFFF#0100330F4871F410
(1785792027.910342) can0 18EBFFFF#024CA96400000000
(1785792027.911480) can0 18EBFFFF#03010BFFFFFFFFFF
(1785792027.914927) can0 18F015F1#000043D24924476A
(1785792027.937349) can0 18FF09D1#01000B00D3BCE9
(1785792027.986972) can0 1CECFFF1#20120003FF19F000
(1785792027.987974) can0 1CEBFFF1#01000B0000000000
(1785792027.988950) can0 1CEBFFF1#0200000000000000
(1785792027.989930) can0 1CEBFFF1#03FD83C6F4FFFFFF
(1785792028.005221) can0 18FEF1F8#FF0000FFFFFFFFFF
(1785792028.006449) can0 18F005F8#7DFFFF7DFFFFFFFF
(1785792028.015968) can0 18F015F1#000043D24924476B
(1785792028.037026) can0 18FF09D1#01000B00D3BCE9
(1785792028.087212) can0 1CECFFF1#20120003FF19F000
(1785792028.088057) can0 1CEBFFF1#01000B0000000000
(1785792028.089157) can0 1CEBFFF1#0200000000000000
(1785792028.090055) can0 1CEBFFF1#03FD83C6F4FFFFFF
(1785792028.105661) can0 18FEF1F8#FF0000FFFFFFFFFF
(1785792028.106926) can0 18F005F8#7DFFFF7DFFFFFFFF
(1785792028.116030) can0 1CEBFFF1#01000B0000000000
(1785792028.137342) can0 18FF09D1#01000B00D3BCE9
(1785792028.137754) can0 18FF14D1#
(1785792028.187028) can0 1CECFFF1#20120003FF19F000
(1785792028.187985) can0 1CEBFFF1#01000B0000000000
(1785792028.188999) can0 1CEBFFF1#0200000000000000
(1785792028.189965) can0 1CEBFFF1#03FD83C6F4FFFFFF
(1785792028.205241) can0 18FEF1F8#FF0000FFFFFFFFFF
(1785792028.206489) can0 18F005F8#7DFFFF7DFFFFFFFF
(1785792028.216011) can0 18F015F1#000043D24924476A
(1785792028.237458) can0 18FF09D1#01000B00D358E9
(1785792028.287042) can0 1CECFFF1#20120003FF19F000
(1785792028.287966) can0 1CEBFFF1#01000B0000000000
(1785792028.288963) can0 1CEBFFF1#0200000000000000
(1785792028.289950) can0 1CEBFFF1#03FD83C6F4FFFFFF
(1785792028.305212) can0 18FEF1F8#FF0000FFFFFFFFFF
(1785792028.306384) can0 18F005F8#7DFFFF7DFFFFFFFF
(1785792028.316003) can0 18F015F1#000043D24924476B
(1785792028.337015) can0 18FF09D1#01000B00D358E9
(1785792028.387116) can0 1CECFFF1#20120003FF19F000
(1785792028.388015) can0 1CEBFFF1#01000B0000000000
(1785792028.389014) can0 1CEBFFF1#0200000000000000
(1785792028.390000) can0 1CEBFFF1#03FD83C6F4FFFFFF
(1785792028.406410) can0 18FEF1F8#FF0000FFFFFFFFFF
(1785792028.408765) can0 18F005F8#7DFFFF7DFFFFFFFF
(1785792028.414796) can0 18ECFFFF#20100003FF13FF00
(1785792028.415997) can0 18F015F1#000043D24923476A
(1785792028.416464) can0 18EBFFFF#0100330F4871F410
(1785792028.418068) can0 18EBFFFF#024CA96400000000
(1785792028.419289) can0 18EBFFFF#03010BFFFFFFFFFF
(1785792028.437164) can0 18FF09D1#01000B00D358E9
(1785792028.487033) can0 1CECFFF1#20120003FF19F000
(1785792028.488031) can0 1CEBFFF1#01000B0000000000
(1785792028.488999) can0 1CEBFFF1#0200000000000000
(1785792028.490399) can0 1CEBFFF1#03FD83C6F4FFFFFF
(1785792028.505568) can0 18FEF1F8#FF0000FFFFFFFFFF
(1785792028.506794) can0 18F005F8#7DFFFF7DFFFFFFFF
(1785792028.515977) can0 18F015F1#000043D24924476A
(1785792028.537017) can0 18FF09D1#01000B00D358E9
(1785792028.587033) can0 1CECFFF1#20120003FF19F000
(1785792028.587984) can0 1CEBFFF1#01000B0000000000
(1785792028.588974) can0 1CEBFFF1#0200000000000000
(1785792028.589947) can0 1CEBFFF1#03FD83C6F4FFFFFF
(1785792028.605237) can0 18FEF1F8#FF0000FFFFFFFFFF
(1785792028.606455) can0 18F005F8#7DFFFF7DFFFFFFFF
(1785792028.616982) can0 18F015F1#000043D24924476A
(1785792028.627932) can0 18F017F1#EE7209589D85
(1785792028.628357) can0 18F018F1#EA330535901D
(1785792028.637089) can0 18FF09D1#01000B00D358E9
(1785792028.637439) can0 18FF14D1#
(1785792028.686977) can0 1CECFFF1#20120003FF19F000
(1785792028.687975) can0 1CEBFFF1#01000B0000000000
(1785792028.688974) can0 1CEBFFF1#0200000000000000
(1785792028.689962) can0 1CEBFFF1#03FD83C6F4FFFFFF
(1785792028.705264) can0 18FEF1F8#FF0000FFFFFFFFFF
(1785792028.706462) can0 18F005F8#7DFFFF7DFFFFFFFF
(1785792028.717068) can0 18F015F1#000043D24923476A
(1785792028.737277) can0 18FF09D1#01000B00D358E9
(1785792028.788061) can0 1CECFFF1#20120003FF19F000
(1785792028.788973) can0 1CEBFFF1#01000B0000000000
(1785792028.789980) can0 1CEBFFF1#0200000000000000
(1785792028.790964) can0 1CEBFFF1#03FD83C6F4FFFFFF
(1785792028.805805) can0 18FEF1F8#FF0000FFFFFFFFFF
(1785792028.807127) can0 18F005F8#7DFFFF7DFFFFFFFF
(1785792028.817073) can0 18F015F1#000043D24924476A
(1785792028.836999) can0 18FF09D1#01000B00D358E9
(1785792028.888004) can0 1CECFFF1#20120003FF19F000
(1785792028.888974) can0 1CEBFFF1#01000B0000000000
(1785792028.889976) can0 1CEBFFF1#0200000000000000
(1785792028.890954) can0 1CEBFFF1#03FD83C6F4FFFFFF
(1785792028.905715) can0 18FEF1F8#FF0000FFFFFFFFFF
(1785792028.907047) can0 18F005F8#7DFFFF7DFFFFFFFF
(1785792028.908222) can0 18ECFFFF#20100003FF13FF00
(1785792028.909326) can0 18EBFFFF#0100330F4871F410
(1785792028.910440) can0 18EBFFFF#024CA96400000000
(1785792028.911561) can0 18EBFFFF#03010BFFFFFFFFFF
(1785792028.916971) can0 18F015F1#000043D24924476B
(1785792028.937087) can0 18FF09D1#01000B00D358E9
(1785792028.988043) can0 1CECFFF1#20120003FF19F000
(1785792028.988972) can0 1CEBFFF1#01000B0000000000
(1785792028.989966) can0 1CEBFFF1#0200000000000000
(1785792028.990945) can0 1CEBFFF1#03FD83C6F4FFFFFF
(1785792029.005197) can0 18FEF1F8#FF0000FFFFFFFFFF
(1785792029.006382) can0 18F005F8#7DFFFF7DFFFFFFFF
(1785792029.016941) can0 18F015F1#000043D24923476A
(1785792029.037059) can0 18FF09D1#01000B00D358E9
(1785792029.088511) can0 1CECFFF1#20120003FF19F000
(1785792029.089701) can0 1CEBFFF1#01000B0000000000
(1785792029.090168) can0 1CEBFFF1#0200000000000000
(1785792029.091041) can0 1CEBFFF1#03FD83C6F4FFFFFF
(1785792029.105343) can0 18FEF1F8#FF0000FFFFFFFFFF
(1785792029.106595) can0 18F005F8#7DFFFF7DFFFFFFFF
(1785792029.117943) can0 18F015F1#000043D24923476A
(1785792029.137657) can0 18FF09D1#01000B00D358E9
(1785792029.138115) can0 18FF14D1#
(1785792029.188024) can0 1CECFFF1#20120003FF19F000
(1785792029.188973) can0 1CEBFFF1#01000B0000000000
(1785792029.189972) can0 1CEBFFF1#0200000000000000
(1785792029.190957) can0 1CEBFFF1#03FD83C6F4FFFFFF
(1785792029.205211) can0 18FEF1F8#FF0000FFFFFFFFFF
(1785792029.206357) can0 18F005F8#7DFFFF7DFFFFFFFF
(1785792029.216948) can0 18F015F1#000043D24924476A
(1785792029.236941) can0 18FF09D1#01000B00D3D4E5
(1785792029.288002) can0 1CECFFF1#20120003FF19F000
(1785792029.288973) can0 1CEBFFF1#01000B0000000000
(1785792029.289969) can0 1CEBFFF1#0200000000000000
(1785792029.290962) can0 1CEBFFF1#03FD83C6F4FFFFFF
(1785792029.305209) can0 18FEF1F8#FF0000FFFFFFFFFF
(1785792029.306359) can0 18F005F8#7DFFFF7DFFFFFFFF
(1785792029.316942) can0 18F015F1#000043D24923476A
(1785792029.336950) can0 18FF09D1#01000B00D3D4E5
(1785792029.389975) can0 1CECFFF1#20120003FF19F000
(1785792029.390387) can0 1CEBFFF1#01000B0000000000
(1785792029.390999) can0 1CEBFFF1#0200000000000000
(1785792029.392465) can0 1CEBFFF1#03FD83C6F4FFFFFF
(1785792029.405636) can0 18FEF1F8#FF0000FFFFFFFFFF
(1785792029.407211) can0 18F005F8#7DFFFF7DFFFFFFFF
(1785792029.412904) can0 18ECFFFF#20100003FF13FF00
(1785792029.414111) can0 18EBFFFF#0100330F4871F410
(1785792029.415310) can0 18EBFFFF#024CA96400000000
(1785792029.416541) can0 18EBFFFF#03010BFFFFFFFFFF
(1785792029.418063) can0 18F015F1#000043D24923476A
(1785792029.437045) can0 18FF09D1#01000B00D3D4E5
(1785792029.489012) can0 1CECFFF1#20120003FF19F000
(1785792029.489969) can0 1CEBFFF1#01000B0000000000
(1785792029.491196) can0 1CEBFFF1#0200000000000000
(1785792029.492630) can0 1CEBFFF1#03FD83C6F4FFFFFF
(1785792029.505230) can0 18FEF1F8#FF0000FFFFFFFFFF
(1785792029.506398) can0 18F005F8#7DFFFF7DFFFFFFFF
(1785792029.518181) can0 18F015F1#000043D24924476A
(1785792029.537008) can0 18FF09D1#01000B00D3D4E5
(1785792029.589037) can0 1CECFFF1#20120003FF19F000
(1785792029.590018) can0 1CEBFFF1#01000B0000000000
(1785792029.590967) can0 1CEBFFF1#0200000000000000
(1785792029.591944) can0 1CEBFFF1#03FD83C6F4FFFFFF
(1785792029.605263) can0 18FEF1F8#FF0000FFFFFFFFFF
(1785792029.606427) can0 18F005F8#7DFFFF7DFFFFFFFF
(1785792029.618003) can0 18F015F1#000043D24923476A
(1785792029.628892) can0 18F017F1#EE7209589D85
(1785792029.629327) can0 18F018F1#EA330535901D
(1785792029.637021) can0 18FF09D1#01000B00D3D4E5
(1785792029.637281) can0 18FF14D1#
(1785792029.689028) can0 1CECFFF1#20120003FF19F000
(1785792029.689971) can0 1CEBFFF1#01000B0000000000
(1785792029.690965) can0 1CEBFFF1#0200000000000000
(1785792029.691941) can0 1CEBFFF1#03FD83C6F4FFFFFF
(1785792029.705258) can0 18FEF1F8#FF0000FFFFFFFFFF
(1785792029.706417) can0 18F005F8#7DFFFF7DFFFFFFFF
(1785792029.717971) can0 18F015F1#000043D24923476A
(1785792029.737141) can0 18FF09D1#01000B00D3F4E8
(1785792029.789239) can0 1CECFFF1#20120003FF19F000
(1785792029.789988) can0 1CEBFFF1#01000B0000000000
(1785792029.790989) can0 1CEBFFF1#0200000000000000
(1785792029.791957) can0 1CEBFFF1#03FD83C6F4FFFFFF
(1785792029.805602) can0 18FEF1F8#FF0000FFFFFFFFFF
(1785792029.807232) can0 18F005F8#7DFFFF7DFFFFFFFF
(1785792029.817985) can0 18F015F1#000043D24924476B
(1785792029.836930) can0 18FF09D1#01000B00D3F4E8
(1785792029.889010) can0 1CECFFF1#20120003FF19F000
(1785792029.889973) can0 1CEBFFF1#01000B0000000000
(1785792029.890975) can0 1CEBFFF1#0200000000000000
(1785792029.891959) can0 1CEBFFF1#03FD820635FFFFFF
(1785792029.905620) can0 18FEF1F8#FF0000FFFFFFFFFF
(1785792029.906974) can0 18F005F8#7DFFFF7DFFFFFFFF
(1785792029.908139) can0 18ECFFFF#20100003FF13FF00
(1785792029.909236) can0 18EBFFFF#0100330F4871F410
(1785792029.910344) can0 18EBFFFF#024CA96400000000
(1785792029.911462) can0 18EBFFFF#03010BFFFFFFFFFF
(1785792029.917939) can0 18F015F1#000043D14923476A
(1785792029.936958) can0 18FF09D1#01000B00D3F4E8
(1785792029.988996) can0 1CECFFF1#20120003FF19F000
(1785792029.989974) can0 1CEBFFF1#01000B0000000000
(1785792029.990972) can0 1CEBFFF1#0200000000000000
(1785792029.991948) can0 1CEBFFF1#03FD83C6F4FFFFFF
(1785792030.005235) can0 18FEF1F8#FF0000FFFFFFFFFF
(1785792030.006595) can0 18F005F8#7DFFFF7DFFFFFFFF
(1785792030.018017) can0 18F015F1#000043D24924476A
(1785792030.036975) can0 18FF09D1#01000B00D3F4E8
(1785792030.089553) can0 1CECFFF1#20120003FF19F000
(1785792030.090475) can0 1CEBFFF1#01000B0000000000
(1785792030.091008) can0 1CEBFFF1#0200000000000000
(1785792030.091981) can0 1CEBFFF1#03FD83C6F4FFFFFF
(1785792030.105367) can0 18FEF1F8#FF0000FFFFFFFFFF
(1785792030.106524) can0 18F005F8#7DFFFF7DFFFFFFFF
(1785792030.118999) can0 18F015F1#000043D14924476B
(1785792030.137018) can0 18FF09D1#01000B00D3F4E8
(1785792030.137340) can0 18FF14D1#
(1785792030.190193) can0 1CECFFF1#20120003FF19F000
(1785792030.191231) can0 1CEBFFF1#01000B0000000000
(1785792030.191971) can0 1CEBFFF1#0200000000000000
(1785792030.192947) can0 1CEBFFF1#03FD820635FFFFFF
(1785792030.205215) can0 18FEF1F8#FF0000FFFFFFFFFF
(1785792030.206355) can0 18F005F8#7DFFFF7DFFFFFFFF
(1785792030.218956) can0 18F015F1#000043D14923476A
(1785792030.236915) can0 18FF09D1#01000B00D3F4E8
(1785792030.290023) can0 1CECFFF1#20120003FF19F000
(1785792030.290975) can0 1CEBFFF1#01000B0000000000
(1785792030.291970) can0 1CEBFFF1#0200000000000000
(1785792030.292955) can0 1CEBFFF1#03FD820635FFFFFF
(1785792030.305196) can0 18FEF1F8#FF0000FFFFFFFFFF
(1785792030.306325) can0 18F005F8#7DFFFF7DFFFFFFFF
(1785792030.318941) can0 18F015F1#000043D24923476A
(1785792030.337349) can0 18FF09D1#01000B00D3F4E8
(1785792030.390085) can0 1CECFFF1#20120003FF19F000
(1785792030.391058) can0 1CEBFFF1#01000B0000000000
(1785792030.392007) can0 1CEBFFF1#0200000000000000
(1785792030.392996) can0 1CEBFFF1#03FD83C6F4FFFFFF
(1785792030.405627) can0 18FEF1F8#FF0000FFFFFFFFFF
(1785792030.407025) can0 18F005F8#7DFFFF7DFFFFFFFF
(1785792030.409596) can0 18ECFFFF#20100003FF13FF00
(1785792030.411271) can0 18EBFFFF#0100330F4871F410
(1785792030.412574) can0 18EBFFFF#024CA96400000000
(1785792030.413876) can0 18EBFFFF#03010BFFFFFFFFFF
(1785792030.419008) can0 18F015F1#000043D14924476B
(1785792030.437442) can0 18FF09D1#01000B00D3F4E8
(1785792030.490699) can0 1CECFFF1#20120003FF19F000
(1785792030.491080) can0 1CEBFFF1#01000B0000000000
(1785792030.491963) can0 1CEBFFF1#0200000000000000
(1785792030.492944) can0 1CEBFFF1#03FD820635FFFFFF
(1785792030.505274) can0 18FEF1F8#FF0000FFFFFFFFFF
(1785792030.506706) can0 18F005F8#7DFFFF7DFFFFFFFF
(1785792030.519563) can0 18F015F1#000043D14923476A
(1785792030.536972) can0 18FF09D1#01000B00D3F4E8
(1785792030.590069) can0 1CECFFF1#20120003FF19F000
(1785792030.590987) can0 1CEBFFF1#01000B0000000000
(1785792030.591971) can0 1CEBFFF1#0200000000000000
(1785792030.592952) can0 1CEBFFF1#03FD820635FFFFFF
(1785792030.605206) can0 18FEF1F8#FF0000FFFFFFFFFF
(1785792030.606341) can0 18F005F8#7DFFFF7DFFFFFFFF
(1785792030.619971) can0 18F015F1#000043D14923476A
(1785792030.629930) can0 18F017F1#F038097C9D9E
(1785792030.630346) can0 18F018F1#E91E05028F4B
(1785792030.637014) can0 18FF09D1#01000B00D3F4E8
(1785792030.637294) can0 18FF14D1#
(1785792030.690028) can0 1CECFFF1#20120003FF19F000
(1785792030.690985) can0 1CEBFFF1#01000B0000000000
(1785792030.691977) can0 1CEBFFF1#0200000000000000
(1785792030.692964) can0 1CEBFFF1#03FD820635FFFFFF
(1785792030.705255) can0 18FEF1F8#FF0000FFFFFFFFFF
(1785792030.706428) can0 18F005F8#7DFFFF7DFFFFFFFF
(1785792030.718979) can0 18F015F1#000043D14924476B
(1785792030.737009) can0 18FF09D1#01000B00D3F4E8
(1785792030.790032) can0 1CECFFF1#20120003FF19F000
(1785792030.790968) can0 1CEBFFF1#01000B0000000000
(1785792030.791966) can0 1CEBFFF1#0200000000000000
(1785792030.792949) can0 1CEBFFF1#03FD820635FFFFFF
(1785792030.805533) can0 18FEF1F8#FF0000FFFFFFFFFF
(1785792030.806785) can0 18F005F8#7DFFFF7DFFFFFFFF
(1785792030.819045) can0 18F015F1#000043D14923476B
(1785792030.836923) can0 18FF09D1#01000B00D3F4E8
(1785792030.890023) can0 1CECFFF1#20120003FF19F000
(1785792030.890980) can0 1CEBFFF1#01000B0000000000
(1785792030.891982) can0 1CEBFFF1#0200000000000000
(1785792030.892965) can0 1CEBFFF1#03FD820635FFFFFF
(1785792030.905374) can0 18FEF1F8#FF0000FFFFFFFFFF
(1785792030.906740) can0 18F005F8#7DFFFF7DFFFFFFFF
(1785792030.908093) can0 18ECFFFF#20100003FF13FF00
(1785792030.909205) can0 18EBFFFF#0100330F4871F410
(1785792030.910317) can0 18EBFFFF#024CA96400000000
(1785792030.911436) can0 18EBFFFF#03010BFFFFFFFFFF
(1785792030.918970) can0 18F015F1#000043D14923476A
(1785792030.936975) can0 18FF09D1#01000B00D3F4E8
(1785792030.991000) can0 1CECFFF1#20120003FF19F000
(1785792030.991982) can0 1CEBFFF1#01000B0000000000
(1785792030.992981) can0 1CEBFFF1#0200000000000000
(1785792030.993967) can0 1CEBFFF1#03FD820635FFFFFF
(1785792031.005180) can0 18FEF1F8#FF0000FFFFFFFFFF
(1785792031.006312) can0 18F005F8#7DFFFF7DFFFFFFFF
(1785792031.019957) can0 18F015F1#000043D14923476A
(1785792031.036882) can0 18FF09D1#01000B00D3F4E8
(1785792031.091221) can0 1CECFFF1#20120003FF19F000
(1785792031.092021) can0 1CEBFFF1#01000B0000000000
(1785792031.093014) can0 1CEBFFF1#0200000000000000
(1785792031.094048) can0 1CEBFFF1#03FD820635FFFFFF
(1785792031.105728) can0 18FEF1F8#FF0000FFFFFFFFFF
(1785792031.107476) can0 18F005F8#7DFFFF7DFFFFFFFF
(1785792031.120158) can0 18F015F1#000043D14923476A
(1785792031.137254) can0 18FF09D1#01000B00D3F4E8
(1785792031.137558) can0 18FF14D1#
(1785792031.137837) can0 18FF16D1#01000B0064
(1785792031.191784) can0 1CECFFF1#20120003FF19F000
(1785792031.192262) can0 1CEBFFF1#01000B0000000000
(1785792031.193056) can0 1CEBFFF1#0200000000000000
(1785792031.193972) can0 1CEBFFF1#03FD820635FFFFFF
(1785792031.205207) can0 18FEF1F8#FF0000FFFFFFFFFF
(1785792031.206343) can0 18F005F8#7DFFFF7DFFFFFFFF
(1785792031.219961) can0 18F015F1#000043D14923476A
(1785792031.237017) can0 18FF09D1#01000B00D390E8
(1785792031.291032) can0 1CECFFF1#20120003FF19F000
(1785792031.291984) can0 1CEBFFF1#01000B0000000000
(1785792031.292977) can0 1CEBFFF1#0200000000000000
(1785792031.293963) can0 1CEBFFF1#03FD820635FFFFFF
(1785792031.305192) can0 18FEF1F8#FF0000FFFFFFFFFF
(1785792031.306318) can0 18F005F8#7DFFFF7DFFFFFFFF
(1785792031.319950) can0 18F015F1#000043D24924476A
(1785792031.336879) can0 18FF09D1#01000B00D390E8
(1785792031.391048) can0 1CECFFF1#20120003FF19F000
(1785792031.391989) can0 1CEBFFF1#01000B0000000000
(1785792031.393007) can0 1CEBFFF1#0200000000000000
(1785792031.393982) can0 1CEBFFF1#03FD820635FFFFFF
(1785792031.405984) can0 18FEF1F8#FF0000FFFFFFFFFF
(1785792031.407424) can0 18F005F8#7DFFFF7DFFFFFFFF
(1785792031.408711) can0 18ECFFFF#20100003FF13FF00
(1785792031.409878) can0 18EBFFFF#0100330F4871F410
(1785792031.411073) can0 18EBFFFF#024CA96400000000
(1785792031.412282) can0 18EBFFFF#03010BFFFFFFFFFF
(1785792031.420033) can0 18F015F1#000043D14923476A
(1785792031.437095) can0 18FF09D1#01000B00D390E8
(1785792031.491013) can0 1CECFFF1#20120003FF19F000
(1785792031.492119) can0 1CEBFFF1#01000B0000000000
(1785792031.492976) can0 1CEBFFF1#0200000000000000
(1785792031.493958) can0 1CEBFFF1#03FD820635FFFFFF
(1785792031.505233) can0 18FEF1F8#FF0000FFFFFFFFFF
(1785792031.506385) can0 18F005F8#7DFFFF7DFFFFFFFF
(1785792031.521023) can0 18F015F1#000043D24924476A
(1785792031.537500) can0 18FF09D1#01000B00D390E8
(1785792031.591154) can0 1CECFFF1#20120003FF19F000
(1785792031.591995) can0 1CEBFFF1#01000B0000000000
(1785792031.592985) can0 1CEBFFF1#0200000000000000
(1785792031.593963) can0 1CEBFFF1#03FD83C6F4FFFFFF
(1785792031.605236) can0 18FEF1F8#FF0000FFFFFFFFFF
(1785792031.606432) can0 18F005F8#7DFFFF7DFFFFFFFF
(1785792031.621069) can0 18F015F1#000043D24923476A
(1785792031.631977) can0 18F017F1#F038097C9D9E
(1785792031.632324) can0 18F018F1#E91E05028F4B
(1785792031.636955) can0 18FF09D1#01000B00D390E8
(1785792031.637210) can0 18FF14D1#
(1785792031.692037) can0 1CECFFF1#20120003FF19F000
(1785792031.693012) can0 1CEBFFF1#01000B0000000000
(1785792031.694037) can0 1CEBFFF1#0200000000000000
(1785792031.694977) can0 1CEBFFF1#03FD820635FFFFFF
(1785792031.705261) can0 18FEF1F8#FF0000FFFFFFFFFF
(1785792031.706413) can0 18F005F8#7DFFFF7DFFFFFFFF
(1785792031.720974) can0 18F015F1#000043D14923476A
(1785792031.736903) can0 18FF09D1#01000B00D390E8
(1785792031.792119) can0 1CECFFF1#20120003FF19F000
(1785792031.793054) can0 1CEBFFF1#01000B0000000000
(1785792031.794012) can0 1CEBFFF1#0200000000000000
(1785792031.795045) can0 1CEBFFF1#03FD820635FFFFFF
(1785792031.805861) can0 18FEF1F8#FF0000FFFFFFFFFF
(1785792031.807525) can0 18F005F8#7DFFFF7DFFFFFFFF
(1785792031.821510) can0 18F015F1#000043D24924476A
(1785792031.839496) can0 18FF09D1#01000B00D390E8
(1785792031.892024) can0 1CECFFF1#20120003FF19F000
(1785792031.892983) can0 1CEBFFF1#01000B0000000000
(1785792031.893979) can0 1CEBFFF1#0200000000000000
(1785792031.894967) can0 1CEBFFF1#03FD83C6F4FFFFFF
(1785792031.905289) can0 18FEF1F8#FF0000FFFFFFFFFF
(1785792031.906682) can0 18F005F8#7DFFFF7DFFFFFFFF
(1785792031.907906) can0 18ECFFFF#20100003FF13FF00
(1785792031.909062) can0 18EBFFFF#0100330F4871F410
(1785792031.910186) can0 18EBFFFF#024CA96400000000
(1785792031.911319) can0 18EBFFFF#03010BFFFFFFFFFF
(1785792031.920977) can0 18F015F1#000043D24923476A
(1785792031.936870) can0 18FF09D1#01000B00D390E8
(1785792031.992013) can0 1CECFFF1#20120003FF19F000
(1785792031.992978) can0 1CEBFFF1#01000B0000000000
(1785792031.993978) can0 1CEBFFF1#0200000000000000
(1785792031.994957) can0 1CEBFFF1#03FD83C6F4FFFFFF
(1785792032.005232) can0 18FEF1F8#FF0000FFFFFFFFFF
(1785792032.006390) can0 18F005F8#7DFFFF7DFFFFFFFF
(1785792032.021006) can0 18F015F1#000043D24923476A
(1785792032.036930) can0 18FF09D1#01000B00D390E8
(1785792032.092150) can0 1CECFFF1#20120003FF19F000
(1785792032.093042) can0 1CEBFFF1#01000B0000000000
(1785792032.094027) can0 1CEBFFF1#0200000000000000
(1785792032.095018) can0 1CEBFFF1#03FD83C6F4FFFFFF
(1785792032.105402) can0 18FEF1F8#FF0000FFFFFFFFFF
(1785792032.106674) can0 18F005F8#7DFFFF7DFFFFFFFF
(1785792032.122146) can0 18F015F1#000043D24924476A
(1785792032.137143) can0 18FF09D1#01000B00D390E8
(1785792032.137860) can0 18FF14D1#
(1785792032.192115) can0 1CECFFF1#20120003FF19F000
(1785792032.193008) can0 1CEBFFF1#01000B0000000000
(1785792032.194004) can0 1CEBFFF1#0200000000000000
(1785792032.195028) can0 1CEBFFF1#03FD83C6F4FFFFFF
(1785792032.205207) can0 18FEF1F8#FF0000FFFFFFFFFF
(1785792032.206341) can0 18F005F8#7DFFFF7DFFFFFFFF
(1785792032.220978) can0 18F015F1#000043D24923476A
(1785792032.236834) can0 18FF09D1#01000B00D3BCE9
(1785792032.293013) can0 1CECFFF1#20120003FF19F000
(1785792032.293989) can0 1CEBFFF1#01000B0000000000
(1785792032.294982) can0 1CEBFFF1#0200000000000000
(1785792032.295986) can0 1CEBFFF1#03FD83C6F4FFFFFF
(1785792032.305184) can0 18FEF1F8#FF0000FFFFFFFFFF
(1785792032.306319) can0 18F005F8#7DFFFF7DFFFFFFFF
(1785792032.321959) can0 18F015F1#000043D24923476A
(1785792032.336840) can0 18FF09D1#01000B00D3BCE9
(1785792032.393041) can0 1CECFFF1#20120003FF19F000
(1785792032.394015) can0 1CEBFFF1#01000B0000000000
(1785792032.395003) can0 1CEBFFF1#0200000000000000
(1785792032.396049) can0 1CEBFFF1#03FD83C6F4FFFFFF
(1785792032.405868) can0 18FEF1F8#FF0000FFFFFFFFFF
(1785792032.407146) can0 18F005F8#7DFFFF7DFFFFFFFF
(1785792032.409378) can0 18ECFFFF#20100003FF13FF00
(1785792032.410601) can0 18EBFFFF#0100330F4871F410
(1785792032.411855) can0 18EBFFFF#024CA96400000000
(1785792032.413060) can0 18EBFFFF#03010BFFFFFFFFFF
(1785792032.422073) can0 18F015F1#000043D24924476A
(1785792032.437163) can0 18FF09D1#01000B00D3BCE9
(1785792032.493173) can0 1CECFFF1#20120003FF19F000
(1785792032.493999) can0 1CEBFFF1#01000B0000000000
(1785792032.495078) can0 1CEBFFF1#0200000000000000
(1785792032.496072) can0 1CEBFFF1#03FD83C6F4FFFFFF
(1785792032.505421) can0 18FEF1F8#FF0000FFFFFFFFFF
(1785792032.506675) can0 18F005F8#7DFFFF7DFFFFFFFF
(1785792032.522270) can0 18F015F1#000043D24923476A
(1785792032.536878) can0 18FF09D1#01000B00D3BCE9
(1785792032.593059) can0 1CECFFF1#20120003FF19F000
(1785792032.594002) can0 1CEBFFF1#01000B0000000000
(1785792032.594990) can0 1CEBFFF1#0200000000000000
(1785792032.596001) can0 1CEBFFF1#03FD83C6F4FFFFFF
(1785792032.605229) can0 18FEF1F8#FF0000FFFFFFFFFF
(1785792032.606439) can0 18F005F8#7DFFFF7DFFFFFFFF
(1785792032.622018) can0 18F015F1#000043D24923476A
(1785792032.632934) can0 18F017F1#F022094C9D4C
(1785792032.633350) can0 18F018F1#E7B305748FC8
(1785792032.636932) can0 18FF09D1#01000B00D3BCE9
(1785792032.637200) can0 18FF14D1#
(1785792032.693092) can0 1CECFFF1#20120003FF19F000
(1785792032.694002) can0 1CEBFFF1#01000B0000000000
(1785792032.695036) can0 1CEBFFF1#0200000000000000
(1785792032.696055) can0 1CEBFFF1#03FD83C6F4FFFFFF
(1785792032.705228) can0 18FEF1F8#FF0000FFFFFFFFFF
(1785792032.706417) can0 18F005F8#7DFFFF7DFFFFFFFF
(1785792032.722000) can0 18F015F1#000043D24924476B
(1785792032.736871) can0 18FF09D1#01000B00D3BCE9
(1785792032.793650) can0 1CECFFF1#20120003FF19F000
(1785792032.794153) can0 1CEBFFF1#01000B0000000000
(1785792032.795018) can0 1CEBFFF1#0200000000000000
(1785792032.796131) can0 1CEBFFF1#03FD83C6F4FFFFFF
(1785792032.807546) can0 18FEF1F8#FF0000FFFFFFFFFF
(1785792032.808728) can0 18F005F8#7DFFFF7DFFFFFFFF
(1785792032.822080) can0 18F015F1#000043D24923476A
(1785792032.836897) can0 18FF09D1#01000B00D3BCE9
(1785792032.893053) can0 1CECFFF1#20120003FF19F000
(1785792032.893992) can0 1CEBFFF1#01000B0000000000
(1785792032.894995) can0 1CEBFFF1#0200000000000000
(1785792032.896007) can0 1CEBFFF1#03FD83C6F4FFFFFF
(1785792032.905719) can0 18FEF1F8#FF0000FFFFFFFFFF
(1785792032.906959) can0 18F005F8#7DFFFF7DFFFFFFFF
(1785792032.908113) can0 18ECFFFF#20100003FF13FF00
(1785792032.909221) can0 18EBFFFF#0100330F4871F410
(1785792032.910336) can0 18EBFFFF#024CA96400000000
(1785792032.911471) can0 18EBFFFF#03010BFFFFFFFFFF
(1785792032.921963) can0 18F015F1#000043D24923476A
(1785792032.936857) can0 18FF09D1#01000B00D3BCE9
(1785792032.993034) can0 1CECFFF1#20120003FF19F000
(1785792032.994003) can0 1CEBFFF1#01000B0000000000
(1785792032.995002) can0 1CEBFFF1#0200000000000000
(1785792032.996010) can0 1CEBFFF1#03FD83C6F4FFFFFF
(1785792033.005194) can0 18FEF1F8#FF0000FFFFFFFFFF
(1785792033.006348) can0 18F005F8#7DFFFF7DFFFFFFFF
(1785792033.021973) can0 18F015F1#000043D24924476B
(1785792033.036816) can0 18FF09D1#01000B00D3BCE9
(1785792033.094354) can0 1CECFFF1#20120003FF19F000
(1785792033.095040) can0 1CEBFFF1#01000B0000000000
(1785792033.096579) can0 1CEBFFF1#0200000000000000
(1785792033.097004) can0 1CEBFFF1#03FD83C6F4FFFFFF
(1785792033.105441) can0 18FEF1F8#FF0000FFFFFFFFFF
(1785792033.106842) can0 18F005F8#7DFFFF7DFFFFFFFF
(1785792033.123082) can0 18F015F1#000043D24923476A
(1785792033.137148) can0 18FF09D1#01000B00D3BCE9
(1785792033.137669) can0 18FF14D1#
(1785792033.137926) can0 18FF16D1#01000B0064
(1785792033.194206) can0 1CECFFF1#20120003FF19F000
(1785792033.195068) can0 1CEBFFF1#01000B0000000000
(1785792033.196056) can0 1CEBFFF1#0200000000000000
(1785792033.196997) can0 1CEBFFF1#03FD83C6F4FFFFFF
(1785792033.205220) can0 18FEF1F8#FF0000FFFFFFFFFF
(1785792033.206461) can0 18F005F8#7DFFFF7DFFFFFFFF
(1785792033.222966) can0 18F015F1#000043D24923476A
(1785792033.236830) can0 18FF09D1#01000B00D364E7
(1785792033.294030) can0 1CECFFF1#20120003FF19F000
(1785792033.294993) can0 1CEBFFF1#01000B0000000000
(1785792033.295997) can0 1CEBFFF1#0200000000000000
(1785792033.296971) can0 1CEBFFF1#03FD820635FFFFFF
(1785792033.305177) can0 18FEF1F8#FF0000FFFFFFFFFF
(1785792033.306315) can0 18F005F8#7DFFFF7DFFFFFFFF
(1785792033.322974) can0 18F015F1#000043D24924476B
(1785792033.336827) can0 18FF09D1#01000B00D364E7
(1785792033.394106) can0 1CECFFF1#20120003FF19F000
(1785792033.395065) can0 1CEBFFF1#01000B0000000000
(1785792033.396059) can0 1CEBFFF1#0200000000000000
(1785792033.397123) can0 1CEBFFF1#03FD83C6F4FFFFFF
(1785792033.405629) can0 18FEF1F8#FF0000FFFFFFFFFF
(1785792033.406942) can0 18F005F8#7DFFFF7DFFFFFFFF
(1785792033.408100) can0 18ECFFFF#20100003FF13FF00
(1785792033.409269) can0 18EBFFFF#0100330F4871F410
(1785792033.410515) can0 18EBFFFF#024CA96400000000
(1785792033.411802) can0 18EBFFFF#03010BFFFFFFFFFF
(1785792033.423125) can0 18F015F1#000043D24923476A
(1785792033.436982) can0 18FF09D1#01000B00D364E7
(1785792033.494035) can0 1CECFFF1#20120003FF19F000
(1785792033.495014) can0 1CEBFFF1#01000B0000000000
(1785792033.496016) can0 1CEBFFF1#0200000000000000
(1785792033.496970) can0 1CEBFFF1#03FD83C6F4FFFFFF
(1785792033.505220) can0 18FEF1F8#FF0000FFFFFFFFFF
(1785792033.506357) can0 18F005F8#7DFFFF7DFFFFFFFF
(1785792033.532354) can0 18F015F1#000043D24923476A
(1785792033.537077) can0 18FF09D1#01000B00D364E7
(1785792033.594114) can0 1CECFFF1#20120003FF19F000
(1785792033.595026) can0 1CEBFFF1#01000B0000000000
(1785792033.596133) can0 1CEBFFF1#0200000000000000
(1785792033.597022) can0 1CEBFFF1#03FD83C6F4FFFFFF
(1785792033.605284) can0 18FEF1F8#FF0000FFFFFFFFFF
(1785792033.606830) can0 18F005F8#7DFFFF7DFFFFFFFF
(1785792033.624016) can0 18F015F1#000043D24924476B
(1785792033.633935) can0 18F017F1#F022094C9D4C
(1785792033.634384) can0 18F018F1#E7B305748FC8
(1785792033.636877) can0 18FF09D1#01000B00D364E7
(1785792033.637149) can0 18FF14D1#
(1785792033.694047) can0 1CECFFF1#20120003FF19F000
(1785792033.695009) can0 1CEBFFF1#01000B0000000000
(1785792033.696130) can0 1CEBFFF1#0200000000000000
(1785792033.696974) can0 1CEBFFF1#03FD83C6F4FFFFFF
(1785792033.705250) can0 18FEF1F8#FF0000FFFFFFFFFF
(1785792033.706467) can0 18F005F8#7DFFFF7DFFFFFFFF
(1785792033.722977) can0 18F015F1#000043D24923476A
(1785792033.736835) can0 18FF09D1#01000B00D3C8E7
(1785792033.794350) can0 1CECFFF1#20120003FF19F000
(1785792033.795212) can0 1CEBFFF1#01000B0000000000
(1785792033.796230) can0 1CEBFFF1#0200000000000000
(1785792033.796994) can0 1CEBFFF1#03FD83C6F4FFFFFF
(1785792033.805519) can0 18FEF1F8#FF0000FFFFFFFFFF
(1785792033.806996) can0 18F005F8#7DFFFF7DFFFFFFFF
(1785792033.823044) can0 18F015F1#000043D24922476A
(1785792033.837001) can0 18FF09D1#01000B00D3C8E7
(1785792033.895042) can0 1CECFFF1#20120003FF19F000
(1785792033.896039) can0 1CEBFFF1#01000B0000000000
(1785792033.897014) can0 1CEBFFF1#0200000000000000
(1785792033.897976) can0 1CEBFFF1#03FD83C6F4FFFFFF
(1785792033.905640) can0 18FEF1F8#FF0000FFFFFFFFFF
(1785792033.906911) can0 18F005F8#7DFFFF7DFFFFFFFF
(1785792033.908041) can0 18ECFFFF#20100003FF13FF00
(1785792033.909154) can0 18EBFFFF#0100330F4871F410
(1785792033.910274) can0 18EBFFFF#024CA96400000000
(1785792033.911411) can0 18EBFFFF#03010BFFFFFFFFFF
(1785792033.923977) can0 18F015F1#000043D24923476B
(1785792033.936809) can0 18FF09D1#01000B00D3C8E7
(1785792033.995052) can0 1CECFFF1#20120003FF19F000
(1785792033.996006) can0 1CEBFFF1#01000B0000000000
(1785792033.996997) can0 1CEBFFF1#0200000000000000
(1785792033.997977) can0 1CEBFFF1#03FD83C6F4FFFFFF
(1785792034.005407) can0 18FEF1F8#FF0000FFFFFFFFFF
(1785792034.006572) can0 18F005F8#7DFFFF7DFFFFFFFF
(1785792034.024028) can0 18F015F1#000043D24923476A
(1785792034.036833) can0 18FF09D1#01000B00D3C8E7
(1785792034.095182) can0 1CECFFF1#20120003FF19F000
(1785792034.096057) can0 1CEBFFF1#01000B0000000000
(1785792034.097061) can0 1CEBFFF1#0200000000000000
(1785792034.098032) can0 1CEBFFF1#03FD83C6F4FFFFFF
(1785792034.105303) can0 18FEF1F8#FF0000FFFFFFFFFF
(1785792034.106475) can0 18F005F8#7DFFFF7DFFFFFFFF
(1785792034.124116) can0 18F015F1#000043D24923476A
(1785792034.136981) can0 18FF09D1#01000B00D3C8E7
(1785792034.137434) can0 18FF14D1#
(1785792034.195457) can0 1CECFFF1#20120003FF19F000
(1785792034.196348) can0 1CEBFFF1#01000B0000000000
(1785792034.196975) can0 1CEBFFF1#0200000000000000
(1785792034.198036) can0 1CEBFFF1#03FD83C6F4FFFFFF
(1785792034.205397) can0 18FEF1F8#FF0000FFFFFFFFFF
(1785792034.206580) can0 18F005F8#7DFFFF7DFFFFFFFF
(1785792034.224001) can0 18F015F1#000043D24924476B
(1785792034.236798) can0 18FF09D1#01000B00D364E7
(1785792034.295042) can0 1CECFFF1#20120003FF19F000
(1785792034.296015) can0 1CEBFFF1#01000B0000000000
(1785792034.297008) can0 1CEBFFF1#0200000000000000
(1785792034.297984) can0 1CEBFFF1#03FD83C6F4FFFFFF
(1785792034.305190) can0 18FEF1F8#FF0000FFFFFFFFFF
(1785792034.306349) can0 18F005F8#7DFFFF7DFFFFFFFF
(1785792034.323986) can0 18F015F1#000043D24923476A
(1785792034.337076) can0 18FF09D1#01000B00D364E7
(1785792034.395066) can0 1CECFFF1#20120003FF19F000
(1785792034.396115) can0 1CEBFFF1#01000B0000000000
(1785792034.397223) can0 1CEBFFF1#0200000000000000
(1785792034.398031) can0 1CEBFFF1#03FD83C6F4FFFFFF
(1785792034.405562) can0 18FEF1F8#FF0000FFFFFFFFFF
(1785792034.406898) can0 18F005F8#7DFFFF7DFFFFFFFF
(1785792034.408140) can0 18ECFFFF#20100003FF13FF00
(1785792034.409294) can0 18EBFFFF#0100330F4871F410
(1785792034.410488) can0 18EBFFFF#024CA96400000000
(1785792034.411723) can0 18EBFFFF#03010BFFFFFFFFFF
(1785792034.424105) can0 18F015F1#000043D24923476A
(1785792034.437002) can0 18FF09D1#01000B00D364E7
(1785792034.495044) can0 1CECFFF1#20120003FF19F000
(1785792034.496018) can0 1CEBFFF1#01000B0000000000
(1785792034.496997) can0 1CEBFFF1#0200000000000000
(1785792034.497971) can0 1CEBFFF1#03FD83C6F4FFFFFF
(1785792034.505187) can0 18FEF1F8#FF0000FFFFFFFFFF
(1785792034.506445) can0 18F005F8#7DFFFF7DFFFFFFFF
(1785792034.524006) can0 18F015F1#000043D24924476B
(1785792034.537104) can0 18FF09D1#01000B00D364E7
(1785792034.596074) can0 1CECFFF1#20120003FF19F000
(1785792034.597048) can0 1CEBFFF1#01000B0000000000
(1785792034.598009) can0 1CEBFFF1#0200000000000000
(1785792034.598981) can0 1CEBFFF1#03FD83C6F4FFFFFF
(1785792034.605189) can0 18FEF1F8#FF0000FFFFFFFFFF
(1785792034.606444) can0 18F005F8#7DFFFF7DFFFFFFFF
(1785792034.625012) can0 18F015F1#000043D24923476A
(1785792034.635943) can0 18F017F1#F01F09CA9CFE
(1785792034.636400) can0 18F018F1#E7B305559283
(1785792034.637099) can0 18FF09D1#01000B00D364E7
(1785792034.637461) can0 18FF14D1#
(1785792034.696028) can0 1CECFFF1#20120003FF19F000
(1785792034.697014) can0 1CEBFFF1#01000B0000000000
(1785792034.698011) can0 1CEBFFF1#0200000000000000
(1785792034.698993) can0 1CEBFFF1#03FD83C6F4FFFFFF
(1785792034.705236) can0 18FEF1F8#FF0000FFFFFFFFFF
(1785792034.706455) can0 18F005F8#7DFFFF7DFFFFFFFF
(1785792034.724998) can0 18F015F1#000043D24923476A
(1785792034.736806) can0 18FF09D1#01000B00D35EE8
(1785792034.796085) can0 1CECFFF1#20120003FF19F000
(1785792034.797040) can0 1CEBFFF1#01000B0000000000
(1785792034.798033) can0 1CEBFFF1#0200000000000000
(1785792034.799007) can0 1CEBFFF1#03FD83C6F4FFFFFF
(1785792034.805232) can0 18FEF1F8#FF0000FFFFFFFFFF
(1785792034.806704) can0 18F005F8#7DFFFF7DFFFFFFFF
(1785792034.825016) can0 18F015F1#000043D24924476B
(1785792034.836929) can0 18FF09D1#01000B00D35EE8
(1785792034.896122) can0 1CECFFF1#20120003FF19F000
(1785792034.897015) can0 1CEBFFF1#01000B0000000000
(1785792034.898011) can0 1CEBFFF1#0200000000000000
(1785792034.898994) can0 1CEBFFF1#03FD83C6F4FFFFFF
(1785792034.905276) can0 18FEF1F8#FF0000FFFFFFFFFF
(1785792034.906501) can0 18F005F8#7DFFFF7DFFFFFFFF
(1785792034.911687) can0 18ECFFFF#20100003FF13FF00
(1785792034.912874) can0 18EBFFFF#0100330F4871F410
(1785792034.914079) can0 18EBFFFF#024CA96400000000
(1785792034.915256) can0 18EBFFFF#03010BFFFFFFFFFF
(1785792034.925012) can0 18F015F1#000043D24923476A
(1785792034.936845) can0 18FF09D1#01000B00D35EE8
(1785792034.996090) can0 1CECFFF1#20120003FF19F000
(1785792034.997012) can0 1CEBFFF1#01000B0000000000
(1785792034.998008) can0 1CEBFFF1#0200000000000000
(1785792034.998993) can0 1CEBFFF1#03FD83C6F4FFFFFF
(1785792035.005266) can0 18FEF1F8#FF0000FFFFFFFFFF
(1785792035.006472) can0 18F005F8#7DFFFF7DFFFFFFFF
(1785792035.024992) can0 18F015F1#000043D24923476A
(1785792035.036763) can0 18FF09D1#01000B00D35EE8
(1785792035.096242) can0 1CECFFF1#20120003FF19F000
(1785792035.097038) can0 1CEBFFF1#01000B0000000000
(1785792035.098035) can0 1CEBFFF1#0200000000000000
(1785792035.099049) can0 1CEBFFF1#03FD83C6F4FFFFFF
(1785792035.105335) can0 18FEF1F8#FF0000FFFFFFFFFF
(1785792035.106533) can0 18F005F8#7DFFFF7DFFFFFFFF
(1785792035.126430) can0 18F015F1#000043D24924476B
(1785792035.137034) can0 18FF09D1#01000B00D35EE8
(1785792035.137393) can0 18FF14D1#
(1785792035.197254) can0 1CECFFF1#20120003FF19F000
(1785792035.198143) can0 1CEBFFF1#01000B0000000000
(1785792035.199237) can0 1CEBFFF1#0200000000000000
(1785792035.200102) can0 1CEBFFF1#03FD83C6F4FFFFFF
(1785792035.205412) can0 18FEF1F8#FF0000FFFFFFFFFF
(1785792035.206716) can0 18F005F8#7DFFFF7DFFFFFFFF
(1785792035.226196) can0 18F015F1#000043D24923476A
(1785792035.236790) can0 18FF09D1#01000B00D35EE8
(1785792035.296054) can0 1CECFFF1#20120003FF19F000
(1785792035.297010) can0 1CEBFFF1#01000B0000000000
(1785792035.298012) can0 1CEBFFF1#0200000000000000
(1785792035.298987) can0 1CEBFFF1#03FD83C6F4FFFFFF
(1785792035.305211) can0 18FEF1F8#FF0000FFFFFFFFFF
(1785792035.306360) can0 18F005F8#7DFFFF7DFFFFFFFF
(1785792035.324988) can0 18F015F1#000043D24923476A
(1785792035.336839) can0 18FF09D1#01000B00D35EE8
(1785792035.397079) can0 1CECFFF1#20120003FF19F000
(1785792035.398126) can0 1CEBFFF1#01000B0000000000
(1785792035.399091) can0 1CEBFFF1#0200000000000000
(1785792035.400077) can0 1CEBFFF1#03FD83C6F4FFFFFF
(1785792035.405327) can0 18FEF1F8#FF0000FFFFFFFFFF
(1785792035.406514) can0 18F005F8#7DFFFF7DFFFFFFFF
(1785792035.408224) can0 18ECFFFF#20100003FF13FF00
(1785792035.409452) can0 18EBFFFF#0100330F4871F410
(1785792035.410651) can0 18EBFFFF#024CA96400000000
(1785792035.411820) can0 18EBFFFF#03010BFFFFFFFFFF
(1785792035.426072) can0 18F015F1#000043D24923476B
(1785792035.436839) can0 18FF09D1#01000B00D35EE8
(1785792035.497094) can0 1CECFFF1#20120003FF19F000
(1785792035.498022) can0 1CEBFFF1#01000B0000000000
(1785792035.499024) can0 1CEBFFF1#0200000000000000
(1785792035.499995) can0 1CEBFFF1#03FD83C6F4FFFFFF
(1785792035.505204) can0 18FEF1F8#FF0000FFFFFFFFFF
(1785792035.506360) can0 18F005F8#7DFFFF7DFFFFFFFF
(1785792035.526149) can0 18F015F1#000043D24923476A
(1785792035.537044) can0 18FF09D1#01000B00D35EE8
(1785792035.597071) can0 1CECFFF1#20120003FF19F000
(1785792035.598023) can0 1CEBFFF1#01000B0000000000
(1785792035.599012) can0 1CEBFFF1#0200000000000000
(1785792035.599989) can0 1CEBFFF1#03FD83C6F4FFFFFF
(1785792035.605202) can0 18FEF1F8#FF0000FFFFFFFFFF
(1785792035.606402) can0 18F005F8#7DFFFF7DFFFFFFFF
(1785792035.626193) can0 18F015F1#000043D24923476A
(1785792035.636889) can0 18FF09D1#01000B00D35EE8
(1785792035.637292) can0 18F017F1#F01F09CA9CFE
(1785792035.637740) can0 18F018F1#E7B305559283
(1785792035.638016) can0 18FF14D1#
(1785792035.697126) can0 1CECFFF1#20120003FF19F000
(1785792035.698032) can0 1CEBFFF1#01000B0000000000
(1785792035.699012) can0 1CEBFFF1#0200000000000000
(1785792035.700002) can0 1CEBFFF1#03FD83C6F4FFFFFF
(1785792035.705251) can0 18FEF1F8#FF0000FFFFFFFFFF
(1785792035.706549) can0 18F005F8#7DFFFF7DFFFFFFFF
(1785792035.726063) can0 18F015F1#000043D24923476B
(1785792035.736808) can0 18FF09D1#01000B00D358E9
(1785792035.801958) can0 1CECFFF1#20120003FF19F000
(1785792035.802855) can0 1CEBFFF1#03FD83C6F4FFFFFF
(1785792035.803059) can0 1CEBFFF1#01000B0000000000
(1785792035.805409) can0 18FEF1F8#FF0000FFFFFFFFFF
(1785792035.806700) can0 18F005F8#7DFFFF7DFFFFFFFF
(1785792035.826162) can0 18F015F1#000043D24923476A
(1785792035.836807) can0 18FF09D1#01000B00D358E9
(1785792035.897056) can0 1CECFFF1#20120003FF19F000
(1785792035.898013) can0 1CEBFFF1#01000B0000000000
(1785792035.899013) can0 1CEBFFF1#0200000000000000
(1785792035.900086) can0 1CEBFFF1#03FD83C6F4FFFFFF
(1785792035.905393) can0 18FEF1F8#FF0000FFFFFFFFFF
(1785792035.906737) can0 18F005F8#7DFFFF7DFFFFFFFF
(1785792035.907963) can0 18ECFFFF#20100003FF13FF00
(1785792035.909079) can0 18EBFFFF#0100330F4871F410
(1785792035.910196) can0 18EBFFFF#024CA96400000000
(1785792035.911326) can0 18EBFFFF#03010BFFFFFFFFFF
(1785792035.926005) can0 18F015F1#000043D24923476A
(1785792035.936929) can0 18FF09D1#01000B00D358E9
(1785792035.998050) can0 1CECFFF1#20120003FF19F000
(1785792035.999015) can0 1CEBFFF1#01000B0000000000
(1785792036.000012) can0 1CEBFFF1#0200000000000000
(1785792036.001007) can0 1CEBFFF1#03FD83C6F4FFFFFF
(1785792036.005200) can0 18FEF1F8#FF0000FFFFFFFFFF
(1785792036.006375) can0 18F005F8#7DFFFF7DFFFFFFFF
(1785792036.027037) can0 18F015F1#000043D24923476B
(1785792036.036773) can0 18FF09D1#01000B00D358E9
(1785792036.098220) can0 1CECFFF1#20120003FF19F000
(1785792036.099064) can0 1CEBFFF1#01000B0000000000
(1785792036.100047) can0 1CEBFFF1#0200000000000000
(1785792036.101017) can0 1CEBFFF1#03FD83C6F4FFFFFF
(1785792036.105345) can0 18FEF1F8#FF0000FFFFFFFFFF
(1785792036.106576) can0 18F005F8#7DFFFF7DFFFFFFFF
(1785792036.127150) can0 18F015F1#000043D24923476A
(1785792036.136844) can0 18FF09D1#01000B00D358E9
(1785792036.137243) can0 18FF14D1#
(1785792036.198187) can0 1CECFFF1#20120003FF19F000
(1785792036.199020) can0 1CEBFFF1#01000B0000000000
(1785792036.200020) can0 1CEBFFF1#0200000000000000
(1785792036.201073) can0 1CEBFFF1#03FD83C6F4FFFFFF
(1785792036.205906) can0 18FEF1F8#FF0000FFFFFFFFFF
(1785792036.207366) can0 18F005F8#7DFFFF7DFFFFFFFF
(1785792036.227212) can0 18F015F1#000043D249234769
(1785792036.236845) can0 18FF09D1#01000B00D358E9
(1785792036.298062) can0 1CECFFF1#20120003FF19F000
(1785792036.299025) can0 1CEBFFF1#01000B0000000000
(1785792036.300019) can0 1CEBFFF1#0200000000000000
(1785792036.300997) can0 1CEBFFF1#03FD83C6F4FFFFFF
(1785792036.305176) can0 18FEF1F8#FF0000FFFFFFFFFF
(1785792036.306358) can0 18F005F8#7DFFFF7DFFFFFFFF
(1785792036.327010) can0 18F015F1#000043D24924476A
(1785792036.336723) can0 18FF09D1#01000B00D364E7
(1785792036.398073) can0 1CECFFF1#20120003FF19F000
(1785792036.399075) can0 1CEBFFF1#01000B0000000000
(1785792036.400390) can0 1CEBFFF1#0200000000000000
(1785792036.401025) can0 1CEBFFF1#03FD83C6F4FFFFFF
(1785792036.405317) can0 18FEF1F8#FF0000FFFFFFFFFF
(1785792036.406494) can0 18F005F8#7DFFFF7DFFFFFFFF
(1785792036.408269) can0 18ECFFFF#20100003FF13FF00
(1785792036.409586) can0 18EBFFFF#0100330F4871F410
(1785792036.410837) can0 18EBFFFF#024CA96400000000
(1785792036.412007) can0 18EBFFFF#03010BFFFFFFFFFF
(1785792036.427027) can0 18F015F1#000043D24923476A
(1785792036.436829) can0 18FF09D1#01000B00D364E7
(1785792036.498180) can0 1CECFFF1#20120003FF19F000
(1785792036.499046) can0 1CEBFFF1#01000B0000000000
(1785792036.500035) can0 1CEBFFF1#0200000000000000
(1785792036.501001) can0 1CEBFFF1#03FD83C6F4FFFFFF
(1785792036.505242) can0 18FEF1F8#FF0000FFFFFFFFFF
(1785792036.506370) can0 18F005F8#7DFFFF7DFFFFFFFF
(1785792036.527018) can0 18F015F1#000043D249234769
(1785792036.536897) can0 18FF09D1#01000B00D364E7
(1785792036.598096) can0 1CECFFF1#20120003FF19F000
(1785792036.599034) can0 1CEBFFF1#01000B0000000000
(1785792036.600051) can0 1CEBFFF1#0200000000000000
(1785792036.601007) can0 1CEBFFF1#03FD83C6F4FFFFFF
(1785792036.605192) can0 18FEF1F8#FF0000FFFFFFFFFF
(1785792036.606321) can0 18F005F8#7DFFFF7DFFFFFFFF
(1785792036.628021) can0 18F015F1#000043D249244769
(1785792036.636803) can0 18FF09D1#01000B00D364E7
(1785792036.637071) can0 18FF14D1#
(1785792036.637922) can0 18F017F1#F0B60AE69AB8
(1785792036.638389) can0 18F018F1#E9BB0585932D
(1785792036.698049) can0 1CECFFF1#20120003FF19F000
(1785792036.699032) can0 1CEBFFF1#01000B0000000000
(1785792036.700028) can0 1CEBFFF1#0200000000000000
(1785792036.701007) can0 1CEBFFF1#03FD83C6F4FFFFFF
(1785792036.705186) can0 18FEF1F8#FF0000FFFFFFFFFF
(1785792036.706331) can0 18F005F8#7DFFFF7DFFFFFFFF
(1785792036.727010) can0 18F015F1#000043D24923476A
(1785792036.736736) can0 18FF09D1#01000B00D364E7
(1785792036.799062) can0 1CECFFF1#20120003FF19F000
(1785792036.800020) can0 1CEBFFF1#01000B0000000000
(1785792036.801015) can0 1CEBFFF1#0200000000000000
(1785792036.801993) can0 1CEBFFF1#03FD83C6F4FFFFFF
(1785792036.805248) can0 18FEF1F8#FF0000FFFFFFFFFF
(1785792036.806437) can0 18F005F8#7DFFFF7DFFFFFFFF
(1785792036.828074) can0 18F015F1#000043D24923476A
(1785792036.836710) can0 18FF09D1#01000B00D364E7
(1785792036.899073) can0 1CECFFF1#20120003FF19F000
(1785792036.900022) can0 1CEBFFF1#01000B0000000000
(1785792036.901020) can0 1CEBFFF1#0200000000000000
(1785792036.901997) can0 1CEBFFF1#03FD83C6F4FFFFFF
(1785792036.905706) can0 18FEF1F8#FF0000FFFFFFFFFF
(1785792036.907045) can0 18F005F8#7DFFFF7DFFFFFFFF
(1785792036.908217) can0 18ECFFFF#20100003FF13FF00
(1785792036.909342) can0 18EBFFFF#0100330F4871F410
(1785792036.910456) can0 18EBFFFF#024CA96400000000
(1785792036.911579) can0 18EBFFFF#03010BFFFFFFFFFF
(1785792036.928011) can0 18F015F1#000043D24924476A
(1785792036.936731) can0 18FF09D1#01000B00D364E7
(1785792036.999065) can0 1CECFFF1#20120003FF19F000
(1785792037.000036) can0 1CEBFFF1#01000B0000000000
(1785792037.001033) can0 1CEBFFF1#0200000000000000
(1785792037.002009) can0 1CEBFFF1#03FD83C6F4FFFFFF
(1785792037.005242) can0 18FEF1F8#FF0000FFFFFFFFFF
(1785792037.006413) can0 18F005F8#7DFFFF7DFFFFFFFF
(1785792037.028018) can0 18F015F1#000043D24923476A
(1785792037.036721) can0 18FF09D1#01000B00D364E7
(1785792037.099168) can0 1CECFFF1#20120003FF19F000
(1785792037.100050) can0 1CEBFFF1#01000B0000000000
(1785792037.101049) can0 1CEBFFF1#0200000000000000
(1785792037.102029) can0 1CEBFFF1#03FD83C6F4FFFFFF
(1785792037.105693) can0 18FEF1F8#FF0000FFFFFFFFFF
(1785792037.106978) can0 18F005F8#7DFFFF7DFFFFFFFF
(1785792037.129114) can0 18F015F1#000043D24923476A
(1785792037.137041) can0 18FF09D1#01000B00D364E7
(1785792037.137796) can0 18FF14D1#
(1785792037.138685) can0 18FF16D1#01000B0064
(1785792037.199069) can0 1CECFFF1#20120003FF19F000
(1785792037.200024) can0 1CEBFFF1#01000B0000000000
(1785792037.201021) can0 1CEBFFF1#0200000000000000
(1785792037.202045) can0 1CEBFFF1#03FD83C6F4FFFFFF
(1785792037.205205) can0 18FEF1F8#FF0000FFFFFFFFFF
(1785792037.206762) can0 18F005F8#7DFFFF7DFFFFFFFF
(1785792037.228332) can0 18F015F1#000043D24924476B
(1785792037.236840) can0 18FF09D1#01000B00D364E7
(1785792037.299080) can0 1CECFFF1#20120003FF19F000
(1785792037.300022) can0 1CEBFFF1#01000B0000000000
(1785792037.301020) can0 1CEBFFF1#0200000000000000
(1785792037.301998) can0 1CEBFFF1#03FD83C6F4FFFFFF
(1785792037.305175) can0 18FEF1F8#FF0000FFFFFFFFFF
(1785792037.306313) can0 18F005F8#7DFFFF7DFFFFFFFF
(1785792037.328003) can0 18F015F1#000043D24923476A
(1785792037.336701) can0 18FF09D1#01000B00D39CE6
(1785792037.399249) can0 1CECFFF1#20120003FF19F000
(1785792037.400108) can0 1CEBFFF1#01000B0000000000
(1785792037.401037) can0 1CEBFFF1#0200000000000000
(1785792037.402017) can0 1CEBFFF1#03FD83C6F4FFFFFF
(1785792037.406779) can0 18FEF1F8#FF0000FFFFFFFFFF
(1785792037.407944) can0 18F005F8#7DFFFF7DFFFFFFFF
(1785792037.409080) can0 18ECFFFF#20100003FF13FF00
(1785792037.410200) can0 18EBFFFF#0100330F4871F410
(1785792037.411366) can0 18EBFFFF#024CA96400000000
(1785792037.412525) can0 18EBFFFF#03010BFFFFFFFFFF
(1785792037.428022) can0 18F015F1#000043D249234769
(1785792037.436715) can0 18FF09D1#01000B00D39CE6
(1785792037.499175) can0 1CECFFF1#20120003FF19F000
(1785792037.500041) can0 1CEBFFF1#01000B0000000000
(1785792037.501027) can0 1CEBFFF1#0200000000000000
(1785792037.502015) can0 1CEBFFF1#03FD83C6F4FFFFFF
(1785792037.505702) can0 18FEF1F8#FF0000FFFFFFFFFF
(1785792037.507005) can0 18F005F8#7DFFFF7DFFFFFFFF
(1785792037.528546) can0 18F015F1#000043D24924476A
(1785792037.536766) can0 18FF09D1#01000B00D39CE6
(1785792037.600119) can0 1CECFFF1#20120003FF19F000
(1785792037.601050) can0 1CEBFFF1#01000B0000000000
(1785792037.602072) can0 1CEBFFF1#0200000000000000
(1785792037.603156) can0 1CEBFFF1#03FD83C6F4FFFFFF
(1785792037.605434) can0 18FEF1F8#FF0000FFFFFFFFFF
(1785792037.606836) can0 18F005F8#7DFFFF7DFFFFFFFF
(1785792037.629064) can0 18F015F1#000043D24923476A
(1785792037.636810) can0 18FF09D1#01000B00D39CE6
(1785792037.637090) can0 18FF14D1#
(1785792037.639991) can0 18F017F1#F0B60AE69AB8
(1785792037.640399) can0 18F018F1#E9BB0585932D
(1785792037.700096) can0 1CECFFF1#20120003FF19F000
(1785792037.701039) can0 1CEBFFF1#01000B0000000000
(1785792037.702106) can0 1CEBFFF1#0200000000000000
(1785792037.703249) can0 1CEBFFF1#03FD83C6F4FFFFFF
(1785792037.705215) can0 18FEF1F8#FF0000FFFFFFFFFF
(1785792037.706388) can0 18F005F8#7DFFFF7DFFFFFFFF
(1785792037.729072) can0 18F015F1#000043D249234769
(1785792037.736705) can0 18FF09D1#01000B00D39CE6
(1785792037.800098) can0 1CECFFF1#20120003FF19F000
(1785792037.801053) can0 1CEBFFF1#01000B0000000000
(1785792037.802053) can0 1CEBFFF1#0200000000000000
(1785792037.803019) can0 1CEBFFF1#03FD83C6F4FFFFFF
(1785792037.805223) can0 18FEF1F8#FF0000FFFFFFFFFF
(1785792037.806511) can0 18F005F8#7DFFFF7DFFFFFFFF
(1785792037.829141) can0 18F015F1#000043D24924476A
(1785792037.837006) can0 18FF09D1#01000B00D39CE6
(1785792037.900211) can0 1CECFFF1#20120003FF19F000
(1785792037.901038) can0 1CEBFFF1#01000B0000000000
(1785792037.902030) can0 1CEBFFF1#0200000000000000
(1785792037.903008) can0 1CEBFFF1#03FD83C6F4FFFFFF
(1785792037.905796) can0 18FEF1F8#FF0000FFFFFFFFFF
(1785792037.907144) can0 18F005F8#7DFFFF7DFFFFFFFF
(1785792037.908340) can0 18ECFFFF#20100003FF13FF00
(1785792037.909459) can0 18EBFFFF#0100330F4871F410
(1785792037.910571) can0 18EBFFFF#024CA96400000000
(1785792037.911693) can0 18EBFFFF#03010BFFFFFFFFFF
(1785792037.929032) can0 18F015F1#000043D24923476A
(1785792037.936685) can0 18FF09D1#01000B00D39CE6
(1785792038.000083) can0 1CECFFF1#20120003FF19F000
(1785792038.001057) can0 1CEBFFF1#01000B0000000000
(1785792038.002203) can0 1CEBFFF1#0200000000000000
(1785792038.003026) can0 1CEBFFF1#03FD83C6F4FFFFFF
(1785792038.005224) can0 18FEF1F8#FF0000FFFFFFFFFF
(1785792038.006450) can0 18F005F8#7DFFFF7DFFFFFFFF
(1785792038.029046) can0 18F015F1#000043D249234769
(1785792038.036719) can0 18FF09D1#01000B00D39CE6
(1785792038.100192) can0 1CECFFF1#20120003FF19F000
(1785792038.101086) can0 1CEBFFF1#01000B0000000000
(1785792038.102102) can0 1CEBFFF1#0200000000000000
(1785792038.103087) can0 1CEBFFF1#03FD83C6F4FFFFFF
(1785792038.105353) can0 18FEF1F8#FF0000FFFFFFFFFF
(1785792038.106666) can0 18F005F8#7DFFFF7DFFFFFFFF
(1785792038.130224) can0 18F015F1#000043D24924476A
(1785792038.136829) can0 18FF09D1#01000B00D39CE6
(1785792038.137169) can0 18FF14D1#
(1785792038.200173) can0 1CECFFF1#20120003FF19F000
(1785792038.201076) can0 1CEBFFF1#01000B0000000000
(1785792038.202050) can0 1CEBFFF1#0200000000000000
(1785792038.203023) can0 1CEBFFF1#03FD83C6F4FFFFFF
(1785792038.205419) can0 18FEF1F8#FF0000FFFFFFFFFF
(1785792038.206602) can0 18F005F8#7DFFFF7DFFFFFFFF
(1785792038.229077) can0 18F015F1#000043D249234769
(1785792038.236735) can0 18FF09D1#01000B00D39CE6
(1785792038.301080) can0 1CECFFF1#20120003FF19F000
(1785792038.302035) can0 1CEBFFF1#01000B0000000000
(1785792038.303033) can0 1CEBFFF1#0200000000000000
(1785792038.304007) can0 1CEBFFF1#03FD83C6F4FFFFFF
(1785792038.305260) can0 18FEF1F8#FF0000FFFFFFFFFF
(1785792038.306388) can0 18F005F8#7DFFFF7DFFFFFFFF
(1785792038.330003) can0 18F015F1#000043D24923476A
(1785792038.336656) can0 18FF09D1#01000B00D39CE6
(1785792038.401092) can0 1CECFFF1#20120003FF19F000
(1785792038.402056) can0 1CEBFFF1#01000B0000000000
(1785792038.403043) can0 1CEBFFF1#0200000000000000
(1785792038.404062) can0 1CEBFFF1#03FD83C6F4FFFFFF
(1785792038.405954) can0 18FEF1F8#FF0000FFFFFFFFFF
(1785792038.407207) can0 18F005F8#7DFFFF7DFFFFFFFF
(1785792038.408380) can0 18ECFFFF#20100003FF13FF00
(1785792038.409625) can0 18EBFFFF#0100330F4871F410
(1785792038.410915) can0 18EBFFFF#024CA96400000000
(1785792038.412043) can0 18EBFFFF#03010BFFFFFFFFFF
(1785792038.430181) can0 18F015F1#000043D24924476A
(1785792038.436784) can0 18FF09D1#01000B00D39CE6
(1785792038.501070) can0 1CECFFF1#20120003FF19F000
(1785792038.502041) can0 1CEBFFF1#01000B0000000000
(1785792038.503030) can0 1CEBFFF1#0200000000000000
(1785792038.504009) can0 1CEBFFF1#03FD83C6F4FFFFFF
(1785792038.505324) can0 18FEF1F8#FF0000FFFFFFFFFF
(1785792038.506452) can0 18F005F8#7DFFFF7DFFFFFFFF
(1785792038.530037) can0 18F015F1#000043D249234769
(1785792038.536688) can0 18FF09D1#01000B00D39CE6
(1785792038.601089) can0 1CECFFF1#20120003FF19F000
(1785792038.602043) can0 1CEBFFF1#01000B0000000000
(1785792038.603041) can0 1CEBFFF1#0200000000000000
(1785792038.604015) can0 1CEBFFF1#03FD83C6F4FFFFFF
(1785792038.605244) can0 18FEF1F8#FF0000FFFFFFFFFF
(1785792038.606438) can0 18F005F8#7DFFFF7DFFFFFFFF
(1785792038.631061) can0 18F015F1#000043D249234769
(1785792038.636762) can0 18FF09D1#01000B00D39CE6
(1785792038.637078) can0 18FF14D1#
(1785792038.640939) can0 18F017F1#F0610AED9A6A
(1785792038.641440) can0 18F018F1#EA3805919060
(1785792038.701082) can0 1CECFFF1#20120003FF19F000
(1785792038.702043) can0 1CEBFFF1#01000B0000000000
(1785792038.703043) can0 1CEBFFF1#0200000000000000
(1785792038.704023) can0 1CEBFFF1#03FD83C6F4FFFFFF
(1785792038.705215) can0 18FEF1F8#FF0000FFFFFFFFFF
(1785792038.706362) can0 18F005F8#7DFFFF7DFFFFFFFF
(1785792038.730037) can0 18F015F1#000043D24924476A
(1785792038.736655) can0 18FF09D1#01000B00D39CE6
(1785792038.801129) can0 1CECFFF1#20120003FF19F000
(1785792038.802043) can0 1CEBFFF1#01000B0000000000
(1785792038.803053) can0 1CEBFFF1#0200000000000000
(1785792038.804028) can0 1CEBFFF1#03FD83C6F4FFFFFF
(1785792038.805433) can0 18FEF1F8#FF0000FFFFFFFFFF
(1785792038.806622) can0 18F005F8#7DFFFF7DFFFFFFFF
(1785792038.830253) can0 18F015F1#000043D249244769
(1785792038.836674) can0 18FF09D1#01000B00D3C8E7
(1785792038.902155) can0 1CECFFF1#20120003FF19F000
(1785792038.903071) can0 1CEBFFF1#01000B0000000000
(1785792038.904123) can0 1CEBFFF1#0200000000000000
(1785792038.905179) can0 1CEBFFF1#03FD83C6F4FFFFFF
(1785792038.909017) can0 18FEF1F8#FF0000FFFFFFFFFF
(1785792038.910261) can0 18F005F8#7DFFFF7DFFFFFFFF
(1785792038.911483) can0 18ECFFFF#20100003FF13FF00
(1785792038.912665) can0 18EBFFFF#0100330F4871F410
(1785792038.913841) can0 18EBFFFF#024CA96400000000
(1785792038.915009) can0 18EBFFFF#03010BFFFFFFFFFF
(1785792038.930034) can0 18F015F1#000043D249234769
(1785792038.936678) can0 18FF09D1#01000B00D3C8E7
(1785792039.001071) can0 1CECFFF1#20120003FF19F000
(1785792039.002058) can0 1CEBFFF1#01000B0000000000
(1785792039.003044) can0 1CEBFFF1#0200000000000000
(1785792039.004021) can0 1CEBFFF1#03FD83C6F4FFFFFF
(1785792039.005247) can0 18FEF1F8#FF0000FFFFFFFFFF
(1785792039.006422) can0 18F005F8#7DFFFF7DFFFFFFFF
(1785792039.030028) can0 18F015F1#000043D24924476A
(1785792039.036634) can0 18FF09D1#01000B00D3C8E7
(1785792039.102089) can0 1CECFFF1#20120003FF19F000
(1785792039.103049) can0 1CEBFFF1#01000B0000000000
(1785792039.104047) can0 1CEBFFF1#0200000000000000
(1785792039.105028) can0 1CEBFFF1#03FD83C6F4FFFFFF
(1785792039.105586) can0 18FEF1F8#FF0000FFFFFFFFFF
(1785792039.106804) can0 18F005F8#7DFFFF7DFFFFFFFF
(1785792039.131109) can0 18F015F1#000043D249234769
(1785792039.136876) can0 18FF09D1#01000B00D3C8E7
(1785792039.137144) can0 18FF14D1#
(1785792039.202108) can0 1CECFFF1#20120003FF19F000
(1785792039.203224) can0 1CEBFFF1#01000B0000000000
(1785792039.204064) can0 1CEBFFF1#0200000000000000
(1785792039.205026) can0 1CEBFFF1#03FD83C6F4FFFFFF
(1785792039.205577) can0 18FEF1F8#FF0000FFFFFFFFFF
(1785792039.206930) can0 18F005F8#7DFFFF7DFFFFFFFF
(1785792039.231079) can0 18F015F1#000043D249234769
(1785792039.236797) can0 18FF09D1#01000B00D3C8E7
(1785792039.302123) can0 1CECFFF1#20120003FF19F000
(1785792039.303054) can0 1CEBFFF1#01000B0000000000
(1785792039.304048) can0 1CEBFFF1#0200000000000000
(1785792039.305033) can0 1CEBFFF1#03FD83C6F4FFFFFF
(1785792039.305585) can0 18FEF1F8#FF0000FFFFFFFFFF
(1785792039.306790) can0 18F005F8#7DFFFF7DFFFFFFFF
(1785792039.331099) can0 18F015F1#000043D24924476A
(1785792039.336663) can0 18FF09D1#01000B00D3C8E7
(1785792039.402102) can0 1CECFFF1#20120003FF19F000
(1785792039.403051) can0 1CEBFFF1#01000B0000000000
(1785792039.404415) can0 1CEBFFF1#0200000000000000
(1785792039.405283) can0 1CEBFFF1#03FD83C6F4FFFFFF
(1785792039.405787) can0 18FEF1F8#FF0000FFFFFFFFFF
(1785792039.407154) can0 18F005F8#7DFFFF7DFFFFFFFF
(1785792039.408359) can0 18ECFFFF#20100003FF13FF00
(1785792039.409501) can0 18EBFFFF#0100330F4871F410
(1785792039.410644) can0 18EBFFFF#024CA96400000000
(1785792039.411801) can0 18EBFFFF#03010BFFFFFFFFFF
(1785792039.431061) can0 18F015F1#000043D249234769
(1785792039.436637) can0 18FF09D1#01000B00D3C8E7
(1785792039.502318) can0 1CECFFF1#20120003FF19F000
(1785792039.503092) can0 1CEBFFF1#01000B0000000000
(1785792039.504040) can0 1CEBFFF1#0200000000000000
(1785792039.505045) can0 1CEBFFF1#03FD83C6F4FFFFFF
(1785792039.505623) can0 18FEF1F8#FF0000FFFFFFFFFF
(1785792039.506813) can0 18F005F8#7DFFFF7DFFFFFFFF
(1785792039.531171) can0 18F015F1#000043D249234769
(1785792039.536737) can0 18FF09D1#01000B00D3C8E7
(1785792039.602343) can0 1CECFFF1#20120003FF19F000
(1785792039.603206) can0 1CEBFFF1#01000B0000000000
(1785792039.604065) can0 1CEBFFF1#0200000000000000
(1785792039.605110) can0 1CEBFFF1#03FD83C6F4FFFFFF
(1785792039.605618) can0 18FEF1F8#FF0000FFFFFFFFFF
(1785792039.606856) can0 18F005F8#7DFFFF7DFFFFFFFF
(1785792039.632183) can0 18F015F1#000043D24924476A
(1785792039.636726) can0 18FF09D1#01000B00D3C8E7
(1785792039.637116) can0 18FF14D1#
(1785792039.642924) can0 18F017F1#F0610AED9A6A
(1785792039.643406) can0 18F018F1#EA3805919060
(1785792039.703142) can0 1CECFFF1#20120003FF19F000
(1785792039.704072) can0 1CEBFFF1#01000B0000000000
(1785792039.705044) can0 1CEBFFF1#0200000000000000
(1785792039.705623) can0 18FEF1F8#FF0000FFFFFFFFFF
(1785792039.706350) can0 1CEBFFF1#03FD83C6F4FFFFFF
(1785792039.707600) can0 18F005F8#7DFFFF7DFFFFFFFF
(1785792039.732071) can0 18F015F1#000043D249234769
(1785792039.736650) can0 18FF09D1#01000B00D3C8E7
(1785792039.803127) can0 1CECFFF1#20120003FF19F000
(1785792039.804048) can0 1CEBFFF1#01000B0000000000
(1785792039.805044) can0 1CEBFFF1#0200000000000000
(1785792039.805601) can0 18FEF1F8#FF0000FFFFFFFFFF
(1785792039.806277) can0 1CEBFFF1#03FD83C6F4FFFFFF
(1785792039.806758) can0 18F005F8#7DFFFF7DFFFFFFFF
(1785792039.832197) can0 18F015F1#000043D249234769
(1785792039.836858) can0 18FF09D1#01000B00D3C8E7
(1785792039.903227) can0 1CECFFF1#20120003FF19F000
(1785792039.904170) can0 1CEBFFF1#01000B0000000000
(1785792039.905364) can0 1CEBFFF1#0200000000000000
(1785792039.905941) can0 18FEF1F8#FF0000FFFFFFFFFF
(1785792039.906425) can0 1CEBFFF1#03FD83C6F4FFFFFF
(1785792039.907904) can0 18F005F8#7DFFFF7DFFFFFFFF
(1785792039.911284) can0 18ECFFFF#20100003FF13FF00
(1785792039.912453) can0 18EBFFFF#0100330F4871F410
(1785792039.913607) can0 18EBFFFF#024CA96400000000
(1785792039.914771) can0 18EBFFFF#03010BFFFFFFFFFF
(1785792039.932160) can0 18F015F1#000043D24924476A
(1785792039.936635) can0 18FF09D1#01000B00D3C8E7
(1785792040.003085) can0 1CECFFF1#20120003FF19F000
(1785792040.004056) can0 1CEBFFF1#01000B0000000000
(1785792040.005044) can0 1CEBFFF1#0200000000000000
(1785792040.005612) can0 18FEF1F8#FF0000FFFFFFFFFF
(1785792040.006218) can0 1CEBFFF1#03FD83C6F4FFFFFF
(1785792040.007440) can0 18F005F8#7DFFFF7DFFFFFFFF
(1785792040.032112) can0 18F015F1#000043D249234769
(1785792040.036636) can0 18FF09D1#01000B00D3C8E7
(1785792040.103110) can0 1CECFFF1#20120003FF19F000
(1785792040.104067) can0 1CEBFFF1#01000B0000000000
(1785792040.105112) can0 1CEBFFF1#0200000000000000
(1785792040.105621) can0 18FEF1F8#FF0000FFFFFFFFFF
(1785792040.106325) can0 1CEBFFF1#03FD83C6F4FFFFFF
(1785792040.106842) can0 18F005F8#7DFFFF7DFFFFFFFF
(1785792040.133186) can0 18F015F1#000043D249234769
(1785792040.136771) can0 18FF09D1#01000B00D3C8E7
(1785792040.137074) can0 18FF14D1#
(1785792040.203110) can0 1CECFFF1#20120003FF19F000
(1785792040.204062) can0 1CEBFFF1#01000B0000000000
(1785792040.205049) can0 1CEBFFF1#0200000000000000
(1785792040.205602) can0 18FEF1F8#FF0000FFFFFFFFFF
(1785792040.206630) can0 1CEBFFF1#03FD83C6F4FFFFFF
(1785792040.207037) can0 18F005F8#7DFFFF7DFFFFFFFF
(1785792040.232045) can0 18F015F1#000043D24924476A
(1785792040.236756) can0 18FF09D1#01000B00D3C8E7
(1785792040.303096) can0 1CECFFF1#20120003FF19F000
(1785792040.304065) can0 1CEBFFF1#01000B0000000000
(1785792040.305045) can0 1CEBFFF1#0200000000000000
(1785792040.305601) can0 18FEF1F8#FF0000FFFFFFFFFF
(1785792040.306301) can0 1CEBFFF1#03FD83C6F4FFFFFF
(1785792040.306799) can0 18F005F8#7DFFFF7DFFFFFFFF
(1785792040.332039) can0 18F015F1#000043D249234769
(1785792040.336731) can0 18FF09D1#01000B00D3C8E7
(1785792040.403095) can0 1CECFFF1#20120003FF19F000
(1785792040.404106) can0 1CEBFFF1#01000B0000000000
(1785792040.405086) can0 1CEBFFF1#0200000000000000
(1785792040.405715) can0 18FEF1F8#FF0000FFFFFFFFFF
(1785792040.406257) can0 1CEBFFF1#03FD83C6F4FFFFFF
(1785792040.407480) can0 18F005F8#7DFFFF7DFFFFFFFF
(1785792040.408709) can0 18ECFFFF#20100003FF13FF00
(1785792040.409823) can0 18EBFFFF#0100330F4871F410
(1785792040.410932) can0 18EBFFFF#024CA96400000000
(1785792040.412089) can0 18EBFFFF#03010BFFFFFFFFFF
(1785792040.432055) can0 18F015F1#000043D249234769
(1785792040.436617) can0 18FF09D1#01000B00D3C8E7
(1785792040.504402) can0 1CECFFF1#20120003FF19F000
(1785792040.505116) can0 1CEBFFF1#01000B0000000000
(1785792040.506167) can0 1CEBFFF1#0200000000000000
(1785792040.506638) can0 18FEF1F8#FF0000FFFFFFFFFF
(1785792040.507418) can0 1CEBFFF1#03FD83C6F4FFFFFF
(1785792040.507899) can0 18F005F8#7DFFFF7DFFFFFFFF
(1785792040.533082) can0 18F015F1#000043D24924476A
(1785792040.536622) can0 18FF09D1#01000B00D3C8E7
(1785792040.604139) can0 1CECFFF1#20120003FF19F000
(1785792040.605051) can0 1CEBFFF1#01000B0000000000
(1785792040.605609) can0 18FEF1F8#FF0000FFFFFFFFFF
(1785792040.606359) can0 1CEBFFF1#0200000000000000
(1785792040.606825) can0 18F005F8#7DFFFF7DFFFFFFFF
(1785792040.607419) can0 1CEBFFF1#03FD83C6F4FFFFFF
(1785792040.633056) can0 18F015F1#000043D24923476A
(1785792040.636715) can0 18FF09D1#01000B00D3C8E7
(1785792040.637075) can0 18FF14D1#
(1785792040.643958) can0 18F017F1#F08C09FD99D0
(1785792040.644417) can0 18F018F1#E849058C944D
(1785792040.704074) can0 1CECFFF1#20120003FF19F000
(1785792040.705056) can0 1CEBFFF1#01000B0000000000
(1785792040.705616) can0 18FEF1F8#FF0000FFFFFFFFFF
(1785792040.706334) can0 1CEBFFF1#0200000000000000
(1785792040.706803) can0 18F005F8#7DFFFF7DFFFFFFFF
(1785792040.707406) can0 1CEBFFF1#03FD83C6F4FFFFFF
(1785792040.733051) can0 18F015F1#000043D24923476A
(1785792040.736585) can0 18FF09D1#01000B00D3C8E7
(1785792040.804249) can0 1CECFFF1#20120003FF19F000
(1785792040.805148) can0 1CEBFFF1#01000B0000000000
(1785792040.805628) can0 18FEF1F8#FF0000FFFFFFFFFF
(1785792040.806358) can0 1CEBFFF1#0200000000000000
(1785792040.806842) can0 18F005F8#7DFFFF7DFFFFFFFF
(1785792040.807431) can0 1CEBFFF1#03FD83C6F4FFFFFF
(1785792040.833137) can0 18F015F1#000043D24924476A
(1785792040.836626) can0 18FF09D1#01000B00D364E7
(1785792040.904900) can0 1CECFFF1#20120003FF19F000
(1785792040.906668) can0 1CEBFFF1#01000B0000000000
(1785792040.907487) can0 1CEBFFF1#0200000000000000
(1785792040.907917) can0 1CEBFFF1#03FD83C6F4FFFFFF
(1785792040.909979) can0 18FEF1F8#FF0000FFFFFFFFFF
(1785792040.911298) can0 18F005F8#7DFFFF7DFFFFFFFF
(1785792040.913226) can0 18ECFFFF#20100003FF13FF00
(1785792040.914568) can0 18EBFFFF#0100330F4871F410
(1785792040.915844) can0 18EBFFFF#024CA96400000000
(1785792040.917027) can0 18EBFFFF#03010BFFFFFFFFFF
(1785792040.933059) can0 18F015F1#000043D249234769
(1785792040.936608) can0 18FF09D1#01000B00D364E7
(1785792041.004095) can0 1CECFFF1#20120003FF19F000
(1785792041.005060) can0 1CEBFFF1#01000B0000000000
(1785792041.005620) can0 18FEF1F8#FF0000FFFFFFFFFF
(1785792041.006315) can0 1CEBFFF1#0200000000000000
(1785792041.006788) can0 18F005F8#7DFFFF7DFFFFFFFF
(1785792041.007387) can0 1CEBFFF1#03FD83C6F4FFFFFF
(1785792041.033044) can0 18F015F1#000043D249234769
(1785792041.036580) can0 18FF09D1#01000B00D364E7
(1785792041.104099) can0 1CECFFF1#20120003FF19F000
(1785792041.105080) can0 1CEBFFF1#01000B0000000000
(1785792041.105638) can0 18FEF1F8#FF0000FFFFFFFFFF
(1785792041.106320) can0 1CEBFFF1#0200000000000000
(1785792041.106793) can0 18F005F8#7DFFFF7DFFFFFFFF
(1785792041.107398) can0 1CEBFFF1#03FD83C6F4FFFFFF
(1785792041.134284) can0 18F015F1#000043D24924476A
(1785792041.136764) can0 18FF09D1#01000B00D364E7
(1785792041.137268) can0 18FF14D1#
(1785792041.205081) can0 1CECFFF1#20120003FF19F000
(1785792041.205628) can0 18FEF1F8#FF0000FFFFFFFFFF
(1785792041.206360) can0 1CEBFFF1#01000B0000000000
(1785792041.206812) can0 18F005F8#7DFFFF7DFFFFFFFF
(1785792041.207444) can0 1CEBFFF1#0200000000000000
(1785792041.208045) can0 1CEBFFF1#03FD83C6F4FFFFFF
(1785792041.233472) can0 18F015F1#000043D24923476A
(1785792041.236679) can0 18FF09D1#01000B00D364E7
(1785792041.305048) can0 1CECFFF1#20120003FF19F000
(1785792041.305604) can0 18FEF1F8#FF0000FFFFFFFFFF
(1785792041.306283) can0 1CEBFFF1#01000B0000000000
(1785792041.306766) can0 18F005F8#7DFFFF7DFFFFFFFF
(1785792041.307390) can0 1CEBFFF1#0200000000000000
(1785792041.308037) can0 1CEBFFF1#03FD83C6F4FFFFFF
(1785792041.334054) can0 18F015F1#000043D249234769
(1785792041.336598) can0 18FF09D1#01000B00D3C8E7
(1785792041.405092) can0 1CECFFF1#20120003FF19F000
(1785792041.405610) can0 18FEF1F8#FF0000FFFFFFFFFF
(1785792041.406344) can0 1CEBFFF1#01000B0000000000
(1785792041.406847) can0 18F005F8#7DFFFF7DFFFFFFFF
(1785792041.407596) can0 1CEBFFF1#0200000000000000
(1785792041.407987) can0 1CEBFFF1#03FD83C6F4FFFFFF
(1785792041.408574) can0 18ECFFFF#20100003FF13FF00
(1785792041.409703) can0 18EBFFFF#0100330F4871F410
(1785792041.410842) can0 18EBFFFF#024CA96400000000
(1785792041.411974) can0 18EBFFFF#03010BFFFFFFFFFF
(1785792041.434070) can0 18F015F1#000043D24924476A
(1785792041.436754) can0 18FF09D1#01000B00D3C8E7
(1785792041.505216) can0 1CECFFF1#20120003FF19F000
(1785792041.507128) can0 1CEBFFF1#01000B0000000000
(1785792041.507542) can0 18FEF1F8#FF0000FFFFFFFFFF
(1785792041.508074) can0 1CEBFFF1#03FD83C6F4FFFFFF
(1785792041.508424) can0 1CEBFFF1#0200000000000000
(1785792041.509801) can0 18F005F8#7DFFFF7DFFFFFFFF
(1785792041.534117) can0 18F015F1#000043D24924476A
(1785792041.536594) can0 18FF09D1#01000B00D3C8E7
(1785792041.605130) can0 1CECFFF1#20120003FF19F000
(1785792041.605784) can0 18FEF1F8#FF0000FFFFFFFFFF
(1785792041.606861) can0 1CEBFFF1#01000B0000000000
(1785792041.607237) can0 18F005F8#7DFFFF7DFFFFFFFF
(1785792041.608155) can0 1CEBFFF1#03FD83C6F4FFFFFF
(1785792041.635119) can0 18F015F1#000043D24923476A
(1785792041.636666) can0 18FF09D1#01000B00D3C8E7
(1785792041.636977) can0 18FF14D1#
(1785792041.645049) can0 18F017F1#F08C09FD99D0
(1785792041.645411) can0 18F018F1#E849058C944D
(1785792041.705083) can0 1CECFFF1#20120003FF19F000
(1785792041.705690) can0 18FEF1F8#FF0000FFFFFFFFFF
(1785792041.706467) can0 1CEBFFF1#01000B0000000000
(1785792041.706951) can0 18F005F8#7DFFFF7DFFFFFFFF
(1785792041.707569) can0 1CEBFFF1#0200000000000000
(1785792041.708128) can0 1CEBFFF1#03FD83C6F4FFFFFF
(1785792041.734093) can0 18F015F1#000043D24924476A
(1785792041.736548) can0 18FF09D1#01000B00D3C8E7
(1785792041.805073) can0 1CECFFF1#20120003FF19F000
(1785792041.805624) can0 18FEF1F8#FF0000FFFFFFFFFF
(1785792041.806323) can0 1CEBFFF1#01000B0000000000
(1785792041.806795) can0 18F005F8#7DFFFF7DFFFFFFFF
(1785792041.807420) can0 1CEBFFF1#0200000000000000
(1785792041.808061) can0 1CEBFFF1#03FD83C6F4FFFFFF
(1785792041.834312) can0 18F015F1#000043D24923476A
(1785792041.836655) can0 18FF09D1#01000B00D300E7
(1785792041.905560) can0 1CECFFF1#20120003FF19F000
(1785792041.906157) can0 18FEF1F8#FF0000FFFFFFFFFF
(1785792041.906443) can0 1CEBFFF1#01000B0000000000
(1785792041.907311) can0 1CEBFFF1#0200000000000000
(1785792041.909237) can0 18F005F8#7DFFFF7DFFFFFFFF
(1785792041.909674) can0 1CEBFFF1#03FD83C6F4FFFFFF
(1785792041.914592) can0 18ECFFFF#20100003FF13FF00
(1785792041.915724) can0 18EBFFFF#0100330F4871F410
(1785792041.916914) can0 18EBFFFF#024CA96400000000
(1785792041.918029) can0 18EBFFFF#03010BFFFFFFFFFF
(1785792041.934354) can0 18F015F1#000043D24923476A
(1785792041.936607) can0 18FF09D1#01000B00D300E7
(1785792042.005249) can0 18FEF1F8#FF0000FFFFFFFFFF
(1785792042.006058) can0 1CECFFF1#20120003FF19F000
(1785792042.006604) can0 18F005F8#7DFFFF7DFFFFFFFF
(1785792042.007257) can0 1CEBFFF1#01000B0000000000
(1785792042.008117) can0 1CEBFFF1#0200000000000000
(1785792042.009046) can0 1CEBFFF1#03FD83C6F4FFFFFF
(1785792042.035084) can0 18F015F1#000043D24924476A
(1785792042.036625) can0 18FF09D1#01000B00D300E7
(1785792042.105235) can0 18FEF1F8#FF0000FFFFFFFFFF
(1785792042.106069) can0 1CECFFF1#20120003FF19F000
(1785792042.106633) can0 18F005F8#7DFFFF7DFFFFFFFF
(1785792042.107234) can0 1CEBFFF1#01000B0000000000
(1785792042.108083) can0 1CEBFFF1#0200000000000000
(1785792042.109053) can0 1CEBFFF1#03FD83C6F4FFFFFF
(1785792042.135094) can0 18F015F1#000043D24923476A
(1785792042.136718) can0 18FF09D1#01000B00D300E7
(1785792042.137106) can0 18FF14D1#
(1785792042.205457) can0 18FEF1F8#FF0000FFFFFFFFFF
(1785792042.206146) can0 1CECFFF1#20120003FF19F000
(1785792042.206633) can0 18F005F8#7DFFFF7DFFFFFFFF
(1785792042.207248) can0 1CEBFFF1#01000B0000000000
(1785792042.208063) can0 1CEBFFF1#0200000000000000
(1785792042.209104) can0 1CEBFFF1#03FD83C6F4FFFFFF
(1785792042.235160) can0 18F015F1#000043D249234769
(1785792042.236558) can0 18FF09D1#01000B00D300E7
(1785792042.305250) can0 18FEF1F8#FF0000FFFFFFFFFF
(1785792042.306060) can0 1CECFFF1#20120003FF19F000
(1785792042.306601) can0 18F005F8#7DFFFF7DFFFFFFFF
(1785792042.307222) can0 1CEBFFF1#01000B0000000000
(1785792042.308067) can0 1CEBFFF1#0200000000000000
(1785792042.309047) can0 1CEBFFF1#03FD83C6F4FFFFFF
(1785792042.335063) can0 18F015F1#000043D24924476A
(1785792042.336557) can0 18FF09D1#01000B00D364E7
(1785792042.405464) can0 18FEF1F8#FF0000FFFFFFFFFF
(1785792042.406263) can0 1CECFFF1#20120003FF19F000
(1785792042.406789) can0 18F005F8#7DFFFF7DFFFFFFFF
(1785792042.407664) can0 1CEBFFF1#01000B0000000000
(1785792042.408067) can0 1CEBFFF1#0200000000000000
(1785792042.408614) can0 18ECFFFF#20100003FF13FF00
(1785792042.409296) can0 1CEBFFF1#03FD83C6F4FFFFFF
(1785792042.409777) can0 18EBFFFF#0100330F4871F410
(1785792042.410954) can0 18EBFFFF#024CA96400000000
(1785792042.412146) can0 18EBFFFF#03010BFFFFFFFFFF
(1785792042.435074) can0 18F015F1#000043D24923476A
(1785792042.436553) can0 18FF09D1#01000B00D364E7
(1785792042.505529) can0 18FEF1F8#FF0000FFFFFFFFFF
(1785792042.506068) can0 1CECFFF1#20120003FF19F000
(1785792042.507093) can0 1CEBFFF1#01000B0000000000
(1785792042.507647) can0 18F005F8#7DFFFF7DFFFFFFFF
(1785792042.508262) can0 1CEBFFF1#0200000000000000
(1785792042.509149) can0 1CEBFFF1#03FD83C6F4FFFFFF
(1785792042.535122) can0 18F015F1#000043D24923476A
(1785792042.536544) can0 18FF09D1#01000B00D364E7
(1785792042.605548) can0 18FEF1F8#FF0000FFFFFFFFFF
(1785792042.606922) can0 18F005F8#7DFFFF7DFFFFFFFF
(1785792042.607549) can0 1CECFFF1#20120003FF19F000
(1785792042.608132) can0 1CEBFFF1#01000B0000000000
(1785792042.609071) can0 1CEBFFF1#0200000000000000
(1785792042.610051) can0 1CEBFFF1#03FD83C6F4FFFFFF
(1785792042.636072) can0 18F015F1#000043D24924476A
(1785792042.636633) can0 18FF09D1#01000B00D364E7
(1785792042.636955) can0 18FF14D1#
(1785792042.646039) can0 18F017F1#F03F09779976
(1785792042.646428) can0 18F018F1#E8F705A79394
(1785792042.705218) can0 18FEF1F8#FF0000FFFFFFFFFF
(1785792042.706065) can0 1CECFFF1#20120003FF19F000
(1785792042.706602) can0 18F005F8#7DFFFF7DFFFFFFFF
(1785792042.707222) can0 1CEBFFF1#01000B0000000000
(1785792042.708067) can0 1CEBFFF1#0200000000000000
(1785792042.709042) can0 1CEBFFF1#03FD83C6F4FFFFFF
(1785792042.736078) can0 18F015F1#000043D24924476A
(1785792042.736558) can0 18FF09D1#01000B00D364E7
(1785792042.805285) can0 18FEF1F8#FF0000FFFFFFFFFF
(1785792042.806662) can0 18F005F8#7DFFFF7DFFFFFFFF
(1785792042.807261) can0 1CECFFF1#20120003FF19F000
(1785792042.808098) can0 1CEBFFF1#01000B0000000000
(1785792042.809093) can0 1CEBFFF1#0200000000000000
(1785792042.810110) can0 1CEBFFF1#03FD83C6F4FFFFFF
(1785792042.836344) can0 18F015F1#000043D24923476A
(1785792042.836873) can0 18FF09D1#01000B00D364E7
(1785792042.905343) can0 18FEF1F8#FF0000FFFFFFFFFF
(1785792042.907071) can0 1CECFFF1#20120003FF19F000
(1785792042.907598) can0 18F005F8#7DFFFF7DFFFFFFFF
(1785792042.908212) can0 1CEBFFF1#01000B0000000000
(1785792042.908759) can0 18ECFFFF#20100003FF13FF00
(1785792042.909391) can0 1CEBFFF1#0200000000000000
(1785792042.909910) can0 18EBFFFF#0100330F4871F410
(1785792042.910537) can0 1CEBFFF1#03FD83C6F4FFFFFF
(1785792042.911052) can0 18EBFFFF#024CA96400000000
(1785792042.912162) can0 18EBFFFF#03010BFFFFFFFFFF
(1785792042.936214) can0 18F015F1#000043D24924476B
(1785792042.936542) can0 18FF09D1#01000B00D364E7
(1785792043.005241) can0 18FEF1F8#FF0000FFFFFFFFFF
(1785792043.006413) can0 18F005F8#7DFFFF7DFFFFFFFF
(1785792043.007060) can0 1CECFFF1#20120003FF19F000
(1785792043.008070) can0 1CEBFFF1#01000B0000000000
(1785792043.009068) can0 1CEBFFF1#0200000000000000
(1785792043.010046) can0 1CEBFFF1#03FD83C6F4FFFFFF
(1785792043.036060) can0 18F015F1#000043D24923476A
(1785792043.036624) can0 18FF09D1#01000B00D364E7
(1785792043.105184) can0 18FEF1F8#FF0000FFFFFFFFFF
(1785792043.106344) can0 18F005F8#7DFFFF7DFFFFFFFF
(1785792043.107101) can0 1CECFFF1#20120003FF19F000
(1785792043.108074) can0 1CEBFFF1#01000B0000000000
(1785792043.109069) can0 1CEBFFF1#0200000000000000
(1785792043.110050) can0 1CEBFFF1#03FD83C6F4FFFFFF
(1785792043.136773) can0 18FF09D1#01000B00D364E7
(1785792043.137271) can0 18F015F1#000043D24923476A
(1785792043.137564) can0 18FF14D1#
(1785792043.137975) can0 18FF16D1#01000B0064
(1785792043.205651) can0 18FEF1F8#FF0000FFFFFFFFFF
(1785792043.206979) can0 18F005F8#7DFFFF7DFFFFFFFF
(1785792043.207594) can0 1CECFFF1#20120003FF19F000
(1785792043.208168) can0 1CEBFFF1#01000B0000000000
(1785792043.209081) can0 1CEBFFF1#0200000000000000
(1785792043.210045) can0 1CEBFFF1#03FD83C6F4FFFFFF
(1785792043.236111) can0 18F015F1#000043D24924476A
(1785792043.236558) can0 18FF09D1#01000B00D364E7
(1785792043.305242) can0 18FEF1F8#FF0000FFFFFFFFFF
(1785792043.306392) can0 18F005F8#7DFFFF7DFFFFFFFF
(1785792043.307072) can0 1CECFFF1#20120003FF19F000
(1785792043.308083) can0 1CEBFFF1#01000B0000000000
(1785792043.309080) can0 1CEBFFF1#0200000000000000
(1785792043.310053) can0 1CEBFFF1#03FD83C6F4FFFFFF
(1785792043.336054) can0 18F015F1#000043D24923476A
(1785792043.336564) can0 18FF09D1#01000B00D300E7
(1785792043.405435) can0 18FEF1F8#FF0000FFFFFFFFFF
(1785792043.406748) can0 18F005F8#7DFFFF7DFFFFFFFF
(1785792043.408076) can0 1CECFFF1#20120003FF19F000
(1785792043.408601) can0 18ECFFFF#20100003FF13FF00
(1785792043.409263) can0 1CEBFFF1#01000B0000000000
(1785792043.409752) can0 18EBFFFF#0100330F4871F410
(1785792043.410430) can0 1CEBFFF1#0200000000000000
(1785792043.410922) can0 18EBFFFF#024CA96400000000
(1785792043.411585) can0 1CEBFFF1#03FD83C6F4FFFFFF
(1785792043.412059) can0 18EBFFFF#03010BFFFFFFFFFF
(1785792043.436558) can0 18FF09D1#01000B00D300E7
(1785792043.437061) can0 18F015F1#000043D24923476A
(1785792043.508808) can0 18FEF1F8#FF0000FFFFFFFFFF
(1785792043.509157) can0 1CECFFF1#20120003FF19F000
(1785792043.509331) can0 1CEBFFF1#01000B0000000000
(1785792043.510083) can0 1CEBFFF1#0200000000000000
(1785792043.510659) can0 18F005F8#7DFFFF7DFFFFFFFF
(1785792043.511219) can0 1CEBFFF1#03FD83C6F4FFFFFF
(1785792043.536772) can0 18FF09D1#01000B00D300E7
(1785792043.537398) can0 18F015F1#000043D24924476B
(1785792043.608311) can0 1CECFFF1#20120003FF19F000
(1785792043.608844) can0 18FEF1F8#FF0000FFFFFFFFFF
(1785792043.609779) can0 1CEBFFF1#01000B0000000000
(1785792043.610440) can0 1CEBFFF1#0200000000000000
(1785792043.611081) can0 1CEBFFF1#03FD83C6F4FFFFFF
(1785792043.612683) can0 18F005F8#7DFFFF7DFFFFFFFF
(1785792043.637027) can0 18FF09D1#01000B00D300E7
(1785792043.637532) can0 18F015F1#000043D24923476A
(1785792043.637816) can0 18FF14D1#
(1785792043.648030) can0 18F017F1#F03F09779976
(1785792043.648442) can0 18F018F1#E8F705A79394
(1785792043.705319) can0 18FEF1F8#FF0000FFFFFFFFFF
(1785792043.708089) can0 1CECFFF1#20120003FF19F000
(1785792043.708614) can0 18F005F8#7DFFFF7DFFFFFFFF
(1785792043.709267) can0 1CEBFFF1#01000B0000000000
(1785792043.710084) can0 1CEBFFF1#0200000000000000
(1785792043.711066) can0 1CEBFFF1#03FD83C6F4FFFFFF
(1785792043.736554) can0 18FF09D1#01000B00D300E7
(1785792043.737014) can0 18F015F1#000043D24923476A
(1785792043.805286) can0 18FEF1F8#FF0000FFFFFFFFFF
(1785792043.806545) can0 18F005F8#7DFFFF7DFFFFFFFF
(1785792043.808072) can0 1CECFFF1#20120003FF19F000
(1785792043.809085) can0 1CEBFFF1#01000B0000000000
(1785792043.810092) can0 1CEBFFF1#0200000000000000
(1785792043.811084) can0 1CEBFFF1#03FD83C6F4FFFFFF
(1785792043.836587) can0 18FF09D1#01000B00D338E6
(1785792043.837028) can0 18F015F1#000043D24924476A
(1785792043.905618) can0 18FEF1F8#FF0000FFFFFFFFFF
(1785792043.907041) can0 18F005F8#7DFFFF7DFFFFFFFF
(1785792043.908216) can0 1CECFFF1#20120003FF19F000
(1785792043.909079) can0 1CEBFFF1#01000B0000000000
(1785792043.909609) can0 18ECFFFF#20100003FF13FF00
(1785792043.910262) can0 1CEBFFF1#0200000000000000
(1785792043.910717) can0 18EBFFFF#0100330F4871F410
(1785792043.911457) can0 1CEBFFF1#03FD83C6F4FFFFFF
(1785792043.911936) can0 18EBFFFF#024CA96400000000
(1785792043.913054) can0 18EBFFFF#03010BFFFFFFFFFF
(1785792043.936839) can0 18FF09D1#01000B00D338E6
(1785792043.937456) can0 18F015F1#000043D24923476A
(1785792044.005317) can0 18FEF1F8#FF0000FFFFFFFFFF
(1785792044.006468) can0 18F005F8#7DFFFF7DFFFFFFFF
(1785792044.008077) can0 1CECFFF1#20120003FF19F000
(1785792044.009074) can0 1CEBFFF1#01000B0000000000
(1785792044.010071) can0 1CEBFFF1#0200000000000000
(1785792044.011050) can0 1CEBFFF1#03FD83C6F4FFFFFF
(1785792044.036541) can0 18FF09D1#01000B00D338E6
(1785792044.037088) can0 18F015F1#000043D24923476A
(1785792044.105226) can0 18FEF1F8#FF0000FFFFFFFFFF
(1785792044.106379) can0 18F005F8#7DFFFF7DFFFFFFFF
(1785792044.108064) can0 1CECFFF1#20120003FF19F000
(1785792044.109084) can0 1CEBFFF1#01000B0000000000
(1785792044.110077) can0 1CEBFFF1#0200000000000000
(1785792044.111056) can0 1CEBFFF1#03FD83C6F4FFFFFF
(1785792044.136754) can0 18FF09D1#01000B00D338E6
(1785792044.137157) can0 18FF14D1#
(1785792044.138055) can0 18F015F1#000043D24924476B
(1785792044.205301) can0 18FEF1F8#FF0000FFFFFFFFFF
(1785792044.206729) can0 18F005F8#7DFFFF7DFFFFFFFF
(1785792044.209189) can0 1CECFFF1#20120003FF19F000
(1785792044.210110) can0 1CEBFFF1#01000B0000000000
(1785792044.211125) can0 1CEBFFF1#0200000000000000
(1785792044.212092) can0 1CEBFFF1#03FD83C6F4FFFFFF
(1785792044.236565) can0 18FF09D1#01000B00D338E6
(1785792044.238051) can0 18F015F1#000043D24923476A
(1785792044.305260) can0 18FEF1F8#FF0000FFFFFFFFFF
(1785792044.306737) can0 18F005F8#7DFFFF7DFFFFFFFF
(1785792044.309073) can0 1CECFFF1#20120003FF19F000
(1785792044.310076) can0 1CEBFFF1#01000B0000000000
(1785792044.311077) can0 1CEBFFF1#0200000000000000
(1785792044.312061) can0 1CEBFFF1#03FD83C6F4FFFFFF
(1785792044.336505) can0 18FF09D1#01000B00D306E6
(1785792044.338052) can0 18F015F1#000043D24923476A
(1785792044.405468) can0 18FEF1F8#FF0000FFFFFFFFFF
(1785792044.407030) can0 18F005F8#7DFFFF7DFFFFFFFF
(1785792044.408180) can0 18ECFFFF#20100003FF13FF00
(1785792044.409073) can0 1CECFFF1#20120003FF19F000
(1785792044.409599) can0 18EBFFFF#0100330F4871F410
(1785792044.410257) can0 1CEBFFF1#01000B0000000000
(1785792044.410860) can0 18EBFFFF#024CA96400000000
(1785792044.411538) can0 1CEBFFF1#0200000000000000
(1785792044.412039) can0 18EBFFFF#03010BFFFFFFFFFF
(1785792044.412628) can0 1CEBFFF1#03FD83C6F4FFFFFF
(1785792044.436540) can0 18FF09D1#01000B00D306E6
(1785792044.438043) can0 18F015F1#000043D24924476B
(1785792044.505488) can0 18FEF1F8#FF0000FFFFFFFFFF
(1785792044.506790) can0 18F005F8#7DFFFF7DFFFFFFFF
(1785792044.509156) can0 1CECFFF1#20120003FF19F000
(1785792044.510129) can0 1CEBFFF1#01000B0000000000
(1785792044.511226) can0 1CEBFFF1#0200000000000000
(1785792044.512077) can0 1CEBFFF1#03FD83C6F4FFFFFF
(1785792044.536814) can0 18FF09D1#01000B00D306E6
(1785792044.538233) can0 18F015F1#000043D24923476A
(1785792044.607833) can0 18FEF1F8#FF0000FFFFFFFFFF
(1785792044.609043) can0 18F005F8#7DFFFF7DFFFFFFFF
(1785792044.609658) can0 1CECFFF1#20120003FF19F000
(1785792044.610242) can0 1CEBFFF1#01000B0000000000
(1785792044.611091) can0 1CEBFFF1#0200000000000000
(1785792044.612257) can0 1CEBFFF1#03FD83C6F4FFFFFF
(1785792044.636611) can0 18FF09D1#01000B00D306E6
(1785792044.636976) can0 18FF14D1#
(1785792044.639075) can0 18F015F1#000043D24923476A
(1785792044.649022) can0 18F017F1#F0470ADD9AB2
(1785792044.649434) can0 18F018F1#E8F705D892DA
(1785792044.705236) can0 18FEF1F8#FF0000FFFFFFFFFF
(1785792044.706437) can0 18F005F8#7DFFFF7DFFFFFFFF
(1785792044.709072) can0 1CECFFF1#20120003FF19F000
(1785792044.710088) can0 1CEBFFF1#01000B0000000000
(1785792044.711094) can0 1CEBFFF1#0200000000000000
(1785792044.712067) can0 1CEBFFF1#03FD83C6F4FFFFFF
(1785792044.736515) can0 18FF09D1#01000B00D306E6
(1785792044.738056) can0 18F015F1#000043D24924476B
(1785792044.805381) can0 18FEF1F8#FF0000FFFFFFFFFF
(1785792044.806691) can0 18F005F8#7DFFFF7DFFFFFFFF
(1785792044.809095) can0 1CECFFF1#20120003FF19F000
(1785792044.810095) can0 1CEBFFF1#01000B0000000000
(1785792044.811088) can0 1CEBFFF1#0200000000000000
(1785792044.812066) can0 1CEBFFF1#03FD83C6F4FFFFFF
(1785792044.837015) can0 18FF09D1#01000B00D3D4E5
(1785792044.838126) can0 18F015F1#000043D24923476A
(1785792044.905686) can0 18FEF1F8#FF0000FFFFFFFFFF
(1785792044.906920) can0 18F005F8#7DFFFF7DFFFFFFFF
(1785792044.908053) can0 18ECFFFF#20100003FF13FF00
(1785792044.909075) can0 1CECFFF1#20120003FF19F000
(1785792044.909601) can0 18EBFFFF#0100330F4871F410
(1785792044.910223) can0 1CEBFFF1#01000B0000000000
(1785792044.910754) can0 18EBFFFF#024CA96400000000
(1785792044.911372) can0 1CEBFFF1#0200000000000000
(1785792044.911922) can0 18EBFFFF#03010BFFFFFFFFFF
(1785792044.912524) can0 1CEBFFF1#03FD83C6F4FFFFFF
(1785792044.936498) can0 18FF09D1#01000B00D3D4E5
(1785792044.940241) can0 18F015F1#000043D34923476A
(1785792045.005243) can0 18FEF1F8#FF0000FFFFFFFFFF
(1785792045.006496) can0 18F005F8#7DFFFF7DFFFFFFFF
(1785792045.010075) can0 1CECFFF1#20120003FF19F000
(1785792045.011097) can0 1CEBFFF1#01000B0000000000
(1785792045.012087) can0 1CEBFFF1#0200000000000000
(1785792045.013068) can0 1CEBFFF1#03FD83C6F4FFFFFF
(1785792045.036483) can0 18FF09D1#01000B00D3D4E5
(1785792045.039062) can0 18F015F1#000043D24924476B
(1785792045.105221) can0 18FEF1F8#FF0000FFFFFFFFFF
(1785792045.106421) can0 18F005F8#7DFFFF7DFFFFFFFF
(1785792045.110081) can0 1CECFFF1#20120003FF19F000
(1785792045.111090) can0 1CEBFFF1#01000B0000000000
(1785792045.112094) can0 1CEBFFF1#0200000000000000
(1785792045.113071) can0 1CEBFFF1#03FD83C6F4FFFFFF
(1785792045.136617) can0 18FF09D1#01000B00D3D4E5
(1785792045.136996) can0 18FF14D1#
(1785792045.139081) can0 18F015F1#000043D34923476B
(1785792045.206149) can0 18FEF1F8#FF0000FFFFFFFFFF
(1785792045.207765) can0 18F005F8#7DFFFF7DFFFFFFFF
(1785792045.210177) can0 1CECFFF1#20120003FF19F000
(1785792045.211122) can0 1CEBFFF1#01000B0000000000
(1785792045.212175) can0 1CEBFFF1#0200000000000000
(1785792045.213105) can0 1CEBFFF1#03FD8404B5FFFFFF
(1785792045.236536) can0 18FF09D1#01000B00D3D4E5
(1785792045.239065) can0 18F015F1#000043D34923476A
(1785792045.305297) can0 18FEF1F8#FF0000FFFFFFFFFF
(1785792045.306458) can0 18F005F8#7DFFFF7DFFFFFFFF
(1785792045.310073) can0 1CECFFF1#20120003FF19F000
(1785792045.311084) can0 1CEBFFF1#01000B0000000000
(1785792045.312082) can0 1CEBFFF1#0200000000000000
(1785792045.313058) can0 1CEBFFF1#03FD83C6F4FFFFFF
(1785792045.336548) can0 18FF09D1#01000B00D3D4E5
(1785792045.339098) can0 18F015F1#000043D24924476B
(1785792045.405348) can0 18FEF1F8#FF0000FFFFFFFFFF
(1785792045.406639) can0 18F005F8#7DFFFF7DFFFFFFFF
(1785792045.407782) can0 18ECFFFF#20100003FF13FF00
(1785792045.408910) can0 18EBFFFF#0100330F4871F410
(1785792045.410095) can0 1CECFFF1#20120003FF19F000
(1785792045.410619) can0 18EBFFFF#024CA96400000000
(1785792045.411316) can0 1CEBFFF1#01000B0000000000
(1785792045.411796) can0 18EBFFFF#03010BFFFFFFFFFF
(1785792045.412418) can0 1CEBFFF1#0200000000000000
(1785792045.413066) can0 1CEBFFF1#03FD83C6F4FFFFFF
(1785792045.436489) can0 18FF09D1#01000B00D3D4E5
(1785792045.439063) can0 18F015F1#000043D34923476A
(1785792045.505377) can0 18FEF1F8#FF0000FFFFFFFFFF
(1785792045.506821) can0 18F005F8#7DFFFF7DFFFFFFFF
(1785792045.510203) can0 1CECFFF1#20120003FF19F000
(1785792045.511113) can0 1CEBFFF1#01000B0000000000
(1785792045.512108) can0 1CEBFFF1#0200000000000000
(1785792045.513098) can0 1CEBFFF1#03FD8404B5FFFFFF
