(1785792563.706072) can0 1CECFFF1#20120003FF19F000
(1785792563.707003) can0 1CEBFFF1#0127100000000000
(1785792563.707996) can0 1CEBFFF1#0200000000000000
(1785792563.708974) can0 1CEBFFF1#03FFE7ACF4FFFFFF
(1785792563.717237) can0 18FEF1F8#FF0000FFFFFFFFFF
(1785792563.718440) can0 18F005F8#7DFFFF7DFFFFFFFF
(1785792563.733311) can0 18FF09D1#01000B00D370E5
(1785792563.733579) can0 18FF14D1#
(1785792563.735956) can0 18F015F1#0000463648DD4632
(1785792563.807033) can0 1CECFFF1#20120003FF19F000
(1785792563.807995) can0 1CEBFFF1#0127100000000000
(1785792563.809001) can0 1CEBFFF1#0200000000000000
(1785792563.809977) can0 1CEBFFF1#03FFE7ACF4FFFFFF
(1785792563.815512) can0 18FEF1F8#FF0000FFFFFFFFFF
(1785792563.816708) can0 18F005F8#7DFFFF7DFFFFFFFF
(1785792563.832920) can0 18FF09D1#01000B00D370E5
(1785792563.835973) can0 18F015F1#0000463648DC4632
(1785792563.907150) can0 1CECFFF1#20120003FF19F000
(1785792563.907994) can0 1CEBFFF1#0127100000000000
(1785792563.909125) can0 1CEBFFF1#0200000000000000
(1785792563.910067) can0 1CEBFFF1#03FFE7ACF4FFFFFF
(1785792563.917073) can0 18FEF1F8#FF0000FFFFFFFFFF
(1785792563.918332) can0 18F005F8#7DFFFF7DFFFFFFFF
(1785792563.932990) can0 18FF09D1#01000B00D370E5
(1785792563.936062) can0 18F015F1#0000463648DD4632
(1785792564.007080) can0 1CECFFF1#20120003FF19F000
(1785792564.008011) can0 1CEBFFF1#0127100000000000
(1785792564.009044) can0 1CEBFFF1#0200000000000000
(1785792564.010049) can0 1CEBFFF1#03FFE7ACF4FFFFFF
(1785792564.016227) can0 18FEF1F8#FF0000FFFFFFFFFF
(1785792564.017924) can0 18F005F8#7DFFFF7DFFFFFFFF
(1785792564.032949) can0 18FF09D1#01000B00D370E5
(1785792564.035979) can0 18F015F1#0000463648DD4632
(1785792564.107073) can0 1CECFFF1#20120003FF19F000
(1785792564.107994) can0 1CEBFFF1#0127100000000000
(1785792564.109001) can0 1CEBFFF1#0200000000000000
(1785792564.109974) can0 1CEBFFF1#03FFE7ACF4FFFFFF
(1785792564.115687) can0 18FEF1F8#FF0000FFFFFFFFFF
(1785792564.116840) can0 18F005F8#7DFFFF7DFFFFFFFF
(1785792564.132936) can0 18FF09D1#01000B00D370E5
(1785792564.135979) can0 18F015F1#0000463648DC4632
(1785792564.207117) can0 1CECFFF1#20120003FF19F000
(1785792564.207995) can0 1CEBFFF1#0127100000000000
(1785792564.209019) can0 1CEBFFF1#0200000000000000
(1785792564.209981) can0 1CEBFFF1#03FFE7ACF4FFFFFF
(1785792564.215643) can0 18FEF1F8#FF0000FFFFFFFFFF
(1785792564.216846) can0 18F005F8#7DFFFF7DFFFFFFFF
(1785792564.233207) can0 18FF09D1#01000B00D370E5
(1785792564.233685) can0 18FF14D1#
(1785792564.233968) can0 18FF16D1#01000B0064
(1785792564.236109) can0 18F015F1#0000463648DC4632
(1785792564.307053) can0 1CECFFF1#20120003FF19F000
(1785792564.307990) can0 1CEBFFF1#0127100000000000
(1785792564.309003) can0 1CEBFFF1#0200000000000000
(1785792564.309992) can0 1CEBFFF1#03FFE7ACF4FFFFFF
(1785792564.315495) can0 18FEF1F8#FF0000FFFFFFFFFF
(1785792564.316660) can0 18F005F8#7DFFFF7DFFFFFFFF
(1785792564.332950) can0 18FF09D1#01000B00D370E5
(1785792564.335972) can0 18F015F1#0000463648DD4632
(1785792564.407054) can0 1CECFFF1#20120003FF19F000
(1785792564.408000) can0 1CEBFFF1#0127100000000000
(1785792564.409014) can0 1CEBFFF1#0200000000000000
(1785792564.409986) can0 1CEBFFF1#03FFE7ACF4FFFFFF
(1785792564.415575) can0 18FEF1F8#FF0000FFFFFFFFFF
(1785792564.416755) can0 18F005F8#7DFFFF7DFFFFFFFF
(1785792564.432893) can0 18FF09D1#01000B00D370E5
(1785792564.435969) can0 18F015F1#0000463648DC4632
(1785792564.508032) can0 1CECFFF1#20120003FF19F000
(1785792564.509000) can0 1CEBFFF1#0127100000000000
(1785792564.510012) can0 1CEBFFF1#0200000000000000
(1785792564.510987) can0 1CEBFFF1#03FFE7ACF4FFFFFF
(1785792564.515481) can0 18FEF1F8#FF0000FFFFFFFFFF
(1785792564.516653) can0 18F005F8#7DFFFF7DFFFFFFFF
(1785792564.532999) can0 18FF09D1#01000B00D370E5
(1785792564.537044) can0 18F015F1#0000463648DC4632
(1785792564.608036) can0 1CECFFF1#20120003FF19F000
(1785792564.608987) can0 1CEBFFF1#0127100000000000
(1785792564.609994) can0 1CEBFFF1#0200000000000000
(1785792564.610976) can0 1CEBFFF1#03FFE7ACF4FFFFFF
(1785792564.615481) can0 18FEF1F8#FF0000FFFFFFFFFF
(1785792564.616807) can0 18F005F8#7DFFFF7DFFFFFFFF
(1785792564.632890) can0 18FF09D1#01000B00D370E5
(1785792564.637033) can0 18F015F1#0000463648DD4632
(1785792564.646948) can0 18F017F1#EFEB024298B8
(1785792564.647409) can0 18F018F1#EC8FFC849496
(1785792564.708052) can0 1CECFFF1#20120003FF19F000
(1785792564.708991) can0 1CEBFFF1#0127100000000000
(1785792564.709999) can0 1CEBFFF1#0200000000000000
(1785792564.710976) can0 1CEBFFF1#03FFE7ACF4FFFFFF
(1785792564.715507) can0 18FEF1F8#FF0000FFFFFFFFFF
(1785792564.716632) can0 18F005F8#7DFFFF7DFFFFFFFF
(1785792564.732960) can0 18FF09D1#01000B00D370E5
(1785792564.733253) can0 18FF14D1#
(1785792564.736974) can0 18F015F1#0000463648DC4632
(1785792564.808036) can0 1CECFFF1#20120003FF19F000
(1785792564.809001) can0 1CEBFFF1#0127100000000000
(1785792564.810013) can0 1CEBFFF1#0200000000000000
(1785792564.810985) can0 1CEBFFF1#03FFE7ACF4FFFFFF
(1785792564.817517) can0 18FEF1F8#FF0000FFFFFFFFFF
(1785792564.819167) can0 18F005F8#7DFFFF7DFFFFFFFF
(1785792564.832881) can0 18FF09D1#01000B00D370E5
(1785792564.836977) can0 18F015F1#0000463648DC4632
(1785792564.908200) can0 1CECFFF1#20120003FF19F000
(1785792564.909023) can0 1CEBFFF1#0127100000000000
(1785792564.910063) can0 1CEBFFF1#0200000000000000
(1785792564.911011) can0 1CEBFFF1#03FFE7ACF4FFFFFF
(1785792564.916924) can0 18FEF1F8#FF0000FFFFFFFFFF
(1785792564.918379) can0 18F005F8#7DFFFF7DFFFFFFFF
(1785792564.933034) can0 18FF09D1#01000B00D3F4E8
(1785792564.937062) can0 18F015F1#0000463648DD4632
(1785792565.008040) can0 1CECFFF1#20120003FF19F000
(1785792565.008991) can0 1CEBFFF1#0127100000000000
(1785792565.010000) can0 1CEBFFF1#0200000000000000
(1785792565.010974) can0 1CEBFFF1#03FFE7ACF4FFFFFF
(1785792565.016330) can0 18FEF1F8#FF0000FFFFFFFFFF
(1785792565.017717) can0 18F005F8#7DFFFF7DFFFFFFFF
(1785792565.032912) can0 18FF09D1#01000B00D3F4E8
(1785792565.037003) can0 18F015F1#0000463648DC4632
(1785792565.108062) can0 1CECFFF1#20120003FF19F000
(1785792565.108996) can0 1CEBFFF1#0127100000000000
(1785792565.110006) can0 1CEBFFF1#0200000000000000
(1785792565.110980) can0 1CEBFFF1#03FFE7ACF4FFFFFF
(1785792565.115519) can0 18FEF1F8#FF0000FFFFFFFFFF
(1785792565.116687) can0 18F005F8#7DFFFF7DFFFFFFFF
(1785792565.132887) can0 18FF09D1#01000B00D3F4E8
(1785792565.136977) can0 18F015F1#0000463648DC4632
(1785792565.208175) can0 1CECFFF1#20120003FF19F000
(1785792565.209034) can0 1CEBFFF1#0127100000000000
(1785792565.210029) can0 1CEBFFF1#0200000000000000
(1785792565.210999) can0 1CEBFFF1#03FFE7ACF4FFFFFF
(1785792565.215598) can0 18FEF1F8#FF0000FFFFFFFFFF
(1785792565.216858) can0 18F005F8#7DFFFF7DFFFFFFFF
(1785792565.233069) can0 18FF09D1#01000B00D3F4E8
(1785792565.233515) can0 18FF14D1#
(1785792565.237089) can0 18F015F1#0000463648DD4632
(1785792565.309077) can0 1CECFFF1#20120003FF19F000
(1785792565.309996) can0 1CEBFFF1#0127100000000000
(1785792565.311002) can0 1CEBFFF1#0200000000000000
(1785792565.311976) can0 1CEBFFF1#03FFE7ACF4FFFFFF
(1785792565.317147) can0 18FEF1F8#FF0000FFFFFFFFFF
(1785792565.318364) can0 18F005F8#7DFFFF7DFFFFFFFF
(1785792565.332992) can0 18FF09D1#01000B00D3F4E8
(1785792565.338312) can0 18F015F1#0000463648DC4632
(1785792565.409065) can0 1CECFFF1#20120003FF19F000
(1785792565.410011) can0 1CEBFFF1#0127100000000000
(1785792565.411013) can0 1CEBFFF1#0200000000000000
(1785792565.411990) can0 1CEBFFF1#03FFE7ACF4FFFFFF
(1785792565.415512) can0 18FEF1F8#FF0000FFFFFFFFFF
(1785792565.416641) can0 18F005F8#7DFFFF7DFFFFFFFF
(1785792565.432880) can0 18FF09D1#01000B00D3F4E8
(1785792565.437994) can0 18F015F1#0000463648DC4632
(1785792565.509047) can0 1CECFFF1#20120003FF19F000
(1785792565.510007) can0 1CEBFFF1#0127100000000000
(1785792565.511019) can0 1CEBFFF1#0200000000000000
(1785792565.512016) can0 1CEBFFF1#03FFE7ACF4FFFFFF
(1785792565.515546) can0 18FEF1F8#FF0000FFFFFFFFFF
(1785792565.516806) can0 18F005F8#7DFFFF7DFFFFFFFF
(1785792565.533053) can0 18FF09D1#01000B00D3F4E8
(1785792565.538073) can0 18F015F1#0000463648DC4632
(1785792565.609040) can0 1CECFFF1#20120003FF19F000
(1785792565.609991) can0 1CEBFFF1#0127100000000000
(1785792565.611005) can0 1CEBFFF1#0200000000000000
(1785792565.611977) can0 1CEBFFF1#03FFE7ACF4FFFFFF
(1785792565.615532) can0 18FEF1F8#FF0000FFFFFFFFFF
(1785792565.616865) can0 18F005F8#7DFFFF7DFFFFFFFF
(1785792565.632951) can0 18FF09D1#01000B00D3F4E8
(1785792565.638077) can0 18F015F1#0000463648DC4632
(1785792565.649198) can0 18F017F1#EFEB024298B8
(1785792565.650093) can0 18F018F1#EC8FFC849496
(1785792565.709096) can0 1CECFFF1#20120003FF19F000
(1785792565.710001) can0 1CEBFFF1#0127100000000000
(1785792565.711008) can0 1CEBFFF1#0200000000000000
(1785792565.711980) can0 1CEBFFF1#03FFE7ACF4FFFFFF
(1785792565.715518) can0 18FEF1F8#FF0000FFFFFFFFFF
(1785792565.716979) can0 18F005F8#7DFFFF7DFFFFFFFF
(1785792565.732963) can0 18FF09D1#01000B00D3F4E8
(1785792565.733382) can0 18FF14D1#
(1785792565.738028) can0 18F015F1#0000463648DC4632
(1785792565.809048) can0 1CECFFF1#20120003FF19F000
(1785792565.810033) can0 1CEBFFF1#0127100000000000
(1785792565.811024) can0 1CEBFFF1#0200000000000000
(1785792565.812000) can0 1CEBFFF1#03FFE7ACF4FFFFFF
(1785792565.815504) can0 18FEF1F8#FF0000FFFFFFFFFF
(1785792565.816686) can0 18F005F8#7DFFFF7DFFFFFFFF
(1785792565.832868) can0 18FF09D1#01000B00D3F4E8
(1785792565.837998) can0 18F015F1#0000463648DD4632
(1785792565.909113) can0 1CECFFF1#20120003FF19F000
(1785792565.910107) can0 1CEBFFF1#0127100000000000
(1785792565.911041) can0 1CEBFFF1#0200000000000000
(1785792565.912018) can0 1CEBFFF1#03FFE7ACF4FFFFFF
(1785792565.915672) can0 18FEF1F8#FF0000FFFFFFFFFF
(1785792565.916898) can0 18F005F8#7DFFFF7DFFFFFFFF
(1785792565.932952) can0 18FF09D1#01000B00D3F4E8
(1785792565.938281) can0 18F015F1#0000463648DC4632
(1785792566.009066) can0 1CECFFF1#20120003FF19F000
(1785792566.010007) can0 1CEBFFF1#0127100000000000
(1785792566.012660) can0 1CEBFFF1#0200000000000000
(1785792566.012929) can0 1CEBFFF1#03FFE7ACF4FFFFFF
(1785792566.015492) can0 18FEF1F8#FF0000FFFFFFFFFF
(1785792566.016680) can0 18F005F8#7DFFFF7DFFFFFFFF
(1785792566.032893) can0 18FF09D1#01000B00D3F4E8
(1785792566.039007) can0 18F015F1#0000463648DD4632
(1785792566.110061) can0 1CECFFF1#20120003FF19F000
(1785792566.111012) can0 1CEBFFF1#0127100000000000
(1785792566.112020) can0 1CEBFFF1#0200000000000000
(1785792566.112994) can0 1CEBFFF1#03FFE7ACF4FFFFFF
(1785792566.115511) can0 18FEF1F8#FF0000FFFFFFFFFF
(1785792566.116668) can0 18F005F8#7DFFFF7DFFFFFFFF
(1785792566.132884) can0 18FF09D1#01000B00D3F4E8
(1785792566.138999) can0 18F015F1#0000463648DD4632
(1785792566.210144) can0 1CECFFF1#20120003FF19F000
(1785792566.211020) can0 1CEBFFF1#0127100000000000
(1785792566.212038) can0 1CEBFFF1#0200000000000000
(1785792566.213011) can0 1CEBFFF1#03FFE7ACF4FFFFFF
(1785792566.215611) can0 18FEF1F8#FF0000FFFFFFFFFF
(1785792566.216838) can0 18F005F8#7DFFFF7DFFFFFFFF
(1785792566.236629) can0 18FF09D1#01000B00D3F4E8
(1785792566.236922) can0 18FF14D1#
(1785792566.238997) can0 18F015F1#0000463648DC4632
(1785792566.310093) can0 1CECFFF1#20120003FF19F000
(1785792566.311008) can0 1CEBFFF1#0127100000000000
(1785792566.312014) can0 1CEBFFF1#0200000000000000
(1785792566.312991) can0 1CEBFFF1#03FFE7ACF4FFFFFF
(1785792566.315497) can0 18FEF1F8#FF0000FFFFFFFFFF
(1785792566.316671) can0 18F005F8#7DFFFF7DFFFFFFFF
(1785792566.332871) can0 18FF09D1#01000B00D3F4E8
(1785792566.339003) can0 18F015F1#0000463648DD4632
(1785792566.410085) can0 1CECFFF1#20120003FF19F000
(1785792566.411011) can0 1CEBFFF1#0127100000000000
(1785792566.412021) can0 1CEBFFF1#0200000000000000
(1785792566.412993) can0 1CEBFFF1#03FFE7ACF4FFFFFF
(1785792566.415518) can0 18FEF1F8#FF0000FFFFFFFFFF
(1785792566.416714) can0 18F005F8#7DFFFF7DFFFFFFFF
(1785792566.432843) can0 18FF09D1#01000B00D3F4E8
(1785792566.438994) can0 18F015F1#0000463648DD4632
(1785792566.510034) can0 1CECFFF1#20120003FF19F000
(1785792566.511014) can0 1CEBFFF1#0127100000000000
(1785792566.512025) can0 1CEBFFF1#0200000000000000
(1785792566.512997) can0 1CEBFFF1#03FFE7ACF4FFFFFF
(1785792566.515484) can0 18FEF1F8#FF0000FFFFFFFFFF
(1785792566.516675) can0 18F005F8#7DFFFF7DFFFFFFFF
(1785792566.532878) can0 18FF09D1#01000B00D3F4E8
(1785792566.539095) can0 18F015F1#0000463548DC4632
(1785792566.610208) can0 1CECFFF1#20120003FF19F000
(1785792566.611023) can0 1CEBFFF1#0127100000000000
(1785792566.612033) can0 1CEBFFF1#0200000000000000
(1785792566.612993) can0 1CEBFFF1#03FFE7ACF4FFFFFF
(1785792566.615501) can0 18FEF1F8#FF0000FFFFFFFFFF
(1785792566.616670) can0 18F005F8#7DFFFF7DFFFFFFFF
(1785792566.632841) can0 18FF09D1#01000B00D3F4E8
(1785792566.639026) can0 18F015F1#0000463648DD4632
(1785792566.649916) can0 18F017F1#F05B020A98D4
(1785792566.650380) can0 18F018F1#EC43FCCB93F1
(1785792566.710138) can0 1CECFFF1#20120003FF19F000
(1785792566.711019) can0 1CEBFFF1#0127100000000000
(1785792566.712020) can0 1CEBFFF1#0200000000000000
(1785792566.713004) can0 1CEBFFF1#03FFE7ACF4FFFFFF
(1785792566.715620) can0 18FEF1F8#FF0000FFFFFFFFFF
(1785792566.716844) can0 18F005F8#7DFFFF7DFFFFFFFF
(1785792566.732915) can0 18FF09D1#01000B00D3F4E8
(1785792566.733211) can0 18FF14D1#
(1785792566.739000) can0 18F015F1#0000463648DD4632
(1785792566.811044) can0 1CECFFF1#20120003FF19F000
(1785792566.812009) can0 1CEBFFF1#0127100000000000
(1785792566.813017) can0 1CEBFFF1#0200000000000000
(1785792566.813990) can0 1CEBFFF1#03FFE7ACF4FFFFFF
(1785792566.815478) can0 18FEF1F8#FF0000FFFFFFFFFF
(1785792566.816641) can0 18F005F8#7DFFFF7DFFFFFFFF
(1785792566.832814) can0 18FF09D1#01000B00D3F4E8
(1785792566.839985) can0 18F015F1#0000463648DC4632
(1785792566.911168) can0 1CECFFF1#20120003FF19F000
(1785792566.912037) can0 1CEBFFF1#0127100000000000
(1785792566.913056) can0 1CEBFFF1#0200000000000000
(1785792566.914055) can0 1CEBFFF1#03FFE7ACF4FFFFFF
(1785792566.915759) can0 18FEF1F8#FF0000FFFFFFFFFF
(1785792566.917085) can0 18F005F8#7DFFFF7DFFFFFFFF
(1785792566.933022) can0 18FF09D1#01000B00D3F4E8
(1785792566.940329) can0 18F015F1#0000463648DD4632
(1785792567.011043) can0 1CECFFF1#20120003FF19F000
(1785792567.012009) can0 1CEBFFF1#0127100000000000
(1785792567.013021) can0 1CEBFFF1#0200000000000000
(1785792567.013994) can0 1CEBFFF1#03FFE7ACF4FFFFFF
(1785792567.015474) can0 18FEF1F8#FF0000FFFFFFFFFF
(1785792567.016630) can0 18F005F8#7DFFFF7DFFFFFFFF
(1785792567.032914) can0 18FF09D1#01000B00D3F4E8
(1785792567.040014) can0 18F015F1#0000463648DD4632
(1785792567.111078) can0 1CECFFF1#20120003FF19F000
(1785792567.112020) can0 1CEBFFF1#0127100000000000
(1785792567.113026) can0 1CEBFFF1#0200000000000000
(1785792567.114013) can0 1CEBFFF1#03FFE7ACF4FFFFFF
(1785792567.115515) can0 18FEF1F8#FF0000FFFFFFFFFF
(1785792567.116666) can0 18F005F8#7DFFFF7DFFFFFFFF
(1785792567.132831) can0 18FF09D1#01000B00D3F4E8
(1785792567.139991) can0 18F015F1#0000463548DC4631
(1785792567.211175) can0 1CECFFF1#20120003FF19F000
(1785792567.212027) can0 1CEBFFF1#0127100000000000
(1785792567.213048) can0 1CEBFFF1#0200000000000000
(1785792567.214020) can0 1CEBFFF1#03FFE66C35FFFFFF
(1785792567.215601) can0 18FEF1F8#FF0000FFFFFFFFFF
(1785792567.216859) can0 18F005F8#7DFFFF7DFFFFFFFF
(1785792567.232974) can0 18FF09D1#01000B00D3F4E8
(1785792567.233378) can0 18FF14D1#
(1785792567.240121) can0 18F015F1#0000463548DC4631
(1785792567.311092) can0 1CECFFF1#20120003FF19F000
(1785792567.312102) can0 1CEBFFF1#0127100000000000
(1785792567.313064) can0 1CEBFFF1#0200000000000000
(1785792567.314026) can0 1CEBFFF1#03FFE7ACF4FFFFFF
(1785792567.315763) can0 18FEF1F8#FF0000FFFFFFFFFF
(1785792567.317110) can0 18F005F8#7DFFFF7DFFFFFFFF
(1785792567.332888) can0 18FF09D1#01000B00D3F4E8
(1785792567.339998) can0 18F015F1#0000463548DD4632
(1785792567.411071) can0 1CECFFF1#20120003FF19F000
(1785792567.412011) can0 1CEBFFF1#0127100000000000
(1785792567.413020) can0 1CEBFFF1#0200000000000000
(1785792567.414036) can0 1CEBFFF1#03FFE66C35FFFFFF
(1785792567.415531) can0 18FEF1F8#FF0000FFFFFFFFFF
(1785792567.416695) can0 18F005F8#7DFFFF7DFFFFFFFF
(1785792567.432821) can0 18FF09D1#01000B00D3F4E8
(1785792567.439995) can0 18F015F1#0000463548DC4632
(1785792567.511058) can0 1CECFFF1#20120003FF19F000
(1785792567.512134) can0 1CEBFFF1#0127100000000000
(1785792567.513088) can0 1CEBFFF1#0200000000000000
(1785792567.514005) can0 1CEBFFF1#03FFE66C35FFFFFF
(1785792567.515493) can0 18FEF1F8#FF0000FFFFFFFFFF
(1785792567.517086) can0 18F005F8#7DFFFF7DFFFFFFFF
(1785792567.532951) can0 18FF09D1#01000B00D3F4E8
(1785792567.540107) can0 18F015F1#0000463548DD4632
(1785792567.612046) can0 1CECFFF1#20120003FF19F000
(1785792567.613005) can0 1CEBFFF1#0127100000000000
(1785792567.614016) can0 1CEBFFF1#0200000000000000
(1785792567.614996) can0 1CEBFFF1#03FFE66C35FFFFFF
(1785792567.615555) can0 18FEF1F8#FF0000FFFFFFFFFF
(1785792567.616837) can0 18F005F8#7DFFFF7DFFFFFFFF
(1785792567.632792) can0 18FF09D1#01000B00D3F4E8
(1785792567.641066) can0 18F015F1#0000463548DD4632
(1785792567.651002) can0 18F017F1#F05B020A98D4
(1785792567.651383) can0 18F018F1#EC43FCCB93F1
(1785792567.712275) can0 1CECFFF1#20120003FF19F000
(1785792567.713143) can0 1CEBFFF1#0127100000000000
(1785792567.714094) can0 1CEBFFF1#0200000000000000
(1785792567.715229) can0 1CEBFFF1#03FFE66C35FFFFFF
(1785792567.715729) can0 18FEF1F8#FF0000FFFFFFFFFF
(1785792567.717056) can0 18F005F8#7DFFFF7DFFFFFFFF
(1785792567.732895) can0 18FF09D1#01000B00D3F4E8
(1785792567.733253) can0 18FF14D1#
(1785792567.741006) can0 18F015F1#0000463548DC4632
(1785792567.812047) can0 1CECFFF1#20120003FF19F000
(1785792567.813015) can0 1CEBFFF1#0127100000000000
(1785792567.814023) can0 1CEBFFF1#0200000000000000
(1785792567.815005) can0 1CEBFFF1#03FFE66C35FFFFFF
(1785792567.815571) can0 18FEF1F8#FF0000FFFFFFFFFF
(1785792567.816734) can0 18F005F8#7DFFFF7DFFFFFFFF
(1785792567.832813) can0 18FF09D1#01000B00D3F4E8
(1785792567.841007) can0 18F015F1#0000463548DD4632
(1785792567.912173) can0 1CECFFF1#20120003FF19F000
(1785792567.913024) can0 1CEBFFF1#0127100000000000
(1785792567.914909) can0 1CEBFFF1#0200000000000000
(1785792567.915205) can0 1CEBFFF1#03FFE66C35FFFFFF
(1785792567.916392) can0 18FEF1F8#FF0000FFFFFFFFFF
(1785792567.917626) can0 18F005F8#7DFFFF7DFFFFFFFF
(1785792567.933123) can0 18FF09D1#01000B00D3F4E8
(1785792567.941183) can0 18F015F1#0000463548DD4632
(1785792568.012112) can0 1CECFFF1#20120003FF19F000
(1785792568.013012) can0 1CEBFFF1#0127100000000000
(1785792568.014021) can0 1CEBFFF1#0200000000000000
(1785792568.015000) can0 1CEBFFF1#03FFE66C35FFFFFF
(1785792568.015570) can0 18FEF1F8#FF0000FFFFFFFFFF
(1785792568.016755) can0 18F005F8#7DFFFF7DFFFFFFFF
(1785792568.032890) can0 18FF09D1#01000B00D3F4E8
(1785792568.041005) can0 18F015F1#0000463548DC4632
(1785792568.112086) can0 1CECFFF1#20120003FF19F000
(1785792568.113020) can0 1CEBFFF1#0127100000000000
(1785792568.114025) can0 1CEBFFF1#0200000000000000
(1785792568.115004) can0 1CEBFFF1#03FFE66C35FFFFFF
(1785792568.115569) can0 18FEF1F8#FF0000FFFFFFFFFF
(1785792568.116786) can0 18F005F8#7DFFFF7DFFFFFFFF
(1785792568.132799) can0 18FF09D1#01000B00D3F4E8
(1785792568.141009) can0 18F015F1#0000463548DD4632
(1785792568.213055) can0 1CECFFF1#20120003FF19F000
(1785792568.214027) can0 1CEBFFF1#0127100000000000
(1785792568.215039) can0 1CEBFFF1#0200000000000000
(1785792568.215601) can0 18FEF1F8#FF0000FFFFFFFFFF
(1785792568.216295) can0 1CEBFFF1#03FFE66C35FFFFFF
(1785792568.216799) can0 18F005F8#7DFFFF7DFFFFFFFF
(1785792568.233044) can0 18FF09D1#01000B00D3F4E8
(1785792568.233508) can0 18FF14D1#
(1785792568.233923) can0 18FF16D1#01000B0064
(1785792568.241116) can0 18F015F1#0000463548DD4632
(1785792568.313059) can0 1CECFFF1#20120003FF19F000
(1785792568.314017) can0 1CEBFFF1#0127100000000000
(1785792568.315021) can0 1CEBFFF1#0200000000000000
(1785792568.315579) can0 18FEF1F8#FF0000FFFFFFFFFF
(1785792568.316260) can0 1CEBFFF1#03FFE66C35FFFFFF
(1785792568.316734) can0 18F005F8#7DFFFF7DFFFFFFFF
(1785792568.332764) can0 18FF09D1#01000B00D3F4E8
(1785792568.342023) can0 18F015F1#0000463548DD4632
(1785792568.413086) can0 1CECFFF1#20120003FF19F000
(1785792568.414702) can0 1CEBFFF1#0127100000000000
(1785792568.415078) can0 1CEBFFF1#0200000000000000
(1785792568.416039) can0 1CEBFFF1#03FFE66C35FFFFFF
(1785792568.416565) can0 18FEF1F8#FF0000FFFFFFFFFF
(1785792568.417725) can0 18F005F8#7DFFFF7DFFFFFFFF
(1785792568.432807) can0 18FF09D1#01000B00D30CE5
(1785792568.442013) can0 18F015F1#0000463548DD4632
(1785792568.513105) can0 1CECFFF1#20120003FF19F000
(1785792568.514041) can0 1CEBFFF1#0127100000000000
(1785792568.515040) can0 1CEBFFF1#0200000000000000
(1785792568.515601) can0 18FEF1F8#FF0000FFFFFFFFFF
(1785792568.516557) can0 1CEBFFF1#03FFE66C35FFFFFF
(1785792568.517077) can0 18F005F8#7DFFFF7DFFFFFFFF
(1785792568.532894) can0 18FF09D1#01000B00D30CE5
(1785792568.542033) can0 18F015F1#0000463548DD4632
(1785792568.613167) can0 1CECFFF1#20120003FF19F000
(1785792568.614047) can0 1CEBFFF1#0127100000000000
(1785792568.615044) can0 1CEBFFF1#0200000000000000
(1785792568.615629) can0 18FEF1F8#FF0000FFFFFFFFFF
(1785792568.616322) can0 1CEBFFF1#03FFE66C35FFFFFF
(1785792568.616897) can0 18F005F8#7DFFFF7DFFFFFFFF
(1785792568.632818) can0 18FF09D1#01000B00D30CE5
(1785792568.642022) can0 18F015F1#0000463548DD4632
(1785792568.653108) can0 18F017F1#F06602639925
(1785792568.653465) can0 18F018F1#EC5AFC6393B6
(1785792568.713163) can0 1CECFFF1#20120003FF19F000
(1785792568.714035) can0 1CEBFFF1#0127100000000000
(1785792568.715034) can0 1CEBFFF1#0200000000000000
(1785792568.715592) can0 18FEF1F8#FF0000FFFFFFFFFF
(1785792568.716341) can0 1CEBFFF1#03FFE66C35FFFFFF
(1785792568.716772) can0 18F005F8#7DFFFF7DFFFFFFFF
(1785792568.732884) can0 18FF09D1#01000B00D30CE5
(1785792568.733210) can0 18FF14D1#
(1785792568.742031) can0 18F015F1#0000463548DD4632
(1785792568.813062) can0 1CECFFF1#20120003FF19F000
(1785792568.814036) can0 1CEBFFF1#0127100000000000
(1785792568.815041) can0 1CEBFFF1#0200000000000000
(1785792568.815597) can0 18FEF1F8#FF0000FFFFFFFFFF
(1785792568.816264) can0 1CEBFFF1#03FFE66C35FFFFFF
(1785792568.816744) can0 18F005F8#7DFFFF7DFFFFFFFF
(1785792568.832748) can0 18FF09D1#01000B00D30CE5
(1785792568.842007) can0 18F015F1#0000463548DD4632
(1785792568.913141) can0 1CECFFF1#20120003FF19F000
(1785792568.914744) can0 1CEBFFF1#0127100000000000
(1785792568.915260) can0 1CEBFFF1#0200000000000000
(1785792568.916065) can0 1CEBFFF1#03FFE66C35FFFFFF
(1785792568.916597) can0 18FEF1F8#FF0000FFFFFFFFFF
(1785792568.917748) can0 18F005F8#7DFFFF7DFFFFFFFF
(1785792568.932853) can0 18FF09D1#01000B00D30CE5
(1785792568.942247) can0 18F015F1#0000463548DD4632
(1785792569.014069) can0 1CECFFF1#20120003FF19F000
(1785792569.015021) can0 1CEBFFF1#0127100000000000
(1785792569.015575) can0 18FEF1F8#FF0000FFFFFFFFFF
(1785792569.016239) can0 1CEBFFF1#0200000000000000
(1785792569.016749) can0 18F005F8#7DFFFF7DFFFFFFFF
(1785792569.017351) can0 1CEBFFF1#03FFE66C35FFFFFF
(1785792569.032776) can0 18FF09D1#01000B00D30CE5
(1785792569.042059) can0 18F015F1#0000463548DD4632
(1785792569.114097) can0 1CECFFF1#20120003FF19F000
(1785792569.115027) can0 1CEBFFF1#0127100000000000
(1785792569.115610) can0 18FEF1F8#FF0000FFFFFFFFFF
(1785792569.116305) can0 1CEBFFF1#0200000000000000
(1785792569.116790) can0 18F005F8#7DFFFF7DFFFFFFFF
(1785792569.117392) can0 1CEBFFF1#03FFE66C35FFFFFF
(1785792569.132741) can0 18FF09D1#01000B00D30CE5
(1785792569.143013) can0 18F015F1#0000463548DD4632
(1785792569.214053) can0 1CECFFF1#20120003FF19F000
(1785792569.215029) can0 1CEBFFF1#0127100000000000
(1785792569.215588) can0 18FEF1F8#FF0000FFFFFFFFFF
(1785792569.216247) can0 1CEBFFF1#0200000000000000
(1785792569.216753) can0 18F005F8#7DFFFF7DFFFFFFFF
(1785792569.217356) can0 1CEBFFF1#03FFE66C35FFFFFF
(1785792569.232892) can0 18FF09D1#01000B00D30CE5
(1785792569.233316) can0 18FF14D1#
(1785792569.243140) can0 18F015F1#0000463548DD4632
(1785792569.314120) can0 1CECFFF1#20120003FF19F000
(1785792569.315322) can0 1CEBFFF1#0127100000000000
(1785792569.315728) can0 18FEF1F8#FF0000FFFFFFFFFF
(1785792569.316465) can0 1CEBFFF1#0200000000000000
(1785792569.316939) can0 18F005F8#7DFFFF7DFFFFFFFF
(1785792569.317528) can0 1CEBFFF1#03FFE66C35FFFFFF
(1785792569.332871) can0 18FF09D1#01000B00D30CE5
(1785792569.343021) can0 18F015F1#0000463548DD4632
(1785792569.414175) can0 1CECFFF1#20120003FF19F000
(1785792569.415040) can0 1CEBFFF1#0127100000000000
(1785792569.415588) can0 18FEF1F8#FF0000FFFFFFFFFF
(1785792569.416283) can0 1CEBFFF1#0200000000000000
(1785792569.416756) can0 18F005F8#7DFFFF7DFFFFFFFF
(1785792569.417352) can0 1CEBFFF1#03FFE66C35FFFFFF
(1785792569.432753) can0 18FF09D1#01000B00D30CE5
(1785792569.443007) can0 18F015F1#0000463548DD4632
(1785792569.514086) can0 1CECFFF1#20120003FF19F000
(1785792569.515067) can0 1CEBFFF1#0127100000000000
(1785792569.515585) can0 18FEF1F8#FF0000FFFFFFFFFF
(1785792569.516305) can0 1CEBFFF1#0200000000000000
(1785792569.516783) can0 18F005F8#7DFFFF7DFFFFFFFF
(1785792569.517379) can0 1CEBFFF1#03FFE66C35FFFFFF
(1785792569.532740) can0 18FF09D1#01000B00D30CE5
(1785792569.543012) can0 18F015F1#0000463548DD4632
(1785792569.614182) can0 1CECFFF1#20120003FF19F000
(1785792569.616384) can0 1CEBFFF1#0127100000000000
(1785792569.616674) can0 1CEBFFF1#0200000000000000
(1785792569.617046) can0 1CEBFFF1#03FFE66C35FFFFFF
(1785792569.618313) can0 18FEF1F8#FF0000FFFFFFFFFF
(1785792569.619417) can0 18F005F8#7DFFFF7DFFFFFFFF
(1785792569.632739) can0 18FF09D1#01000B00D30CE5
(1785792569.643050) can0 18F015F1#0000463548DD4632
(1785792569.654026) can0 18F017F1#F06602639925
(1785792569.654369) can0 18F018F1#EC5AFC6393B6
(1785792569.715225) can0 1CECFFF1#20120003FF19F000
(1785792569.715632) can0 18FEF1F8#FF0000FFFFFFFFFF
(1785792569.716461) can0 1CEBFFF1#0127100000000000
(1785792569.716960) can0 18F005F8#7DFFFF7DFFFFFFFF
(1785792569.717564) can0 1CEBFFF1#0200000000000000
(1785792569.718147) can0 1CEBFFF1#03FFE66C35FFFFFF
(1785792569.732817) can0 18FF09D1#01000B00D30CE5
(1785792569.733093) can0 18FF14D1#
(1785792569.744011) can0 18F015F1#0000463548DD4632
(1785792569.815070) can0 1CECFFF1#20120003FF19F000
(1785792569.815597) can0 18FEF1F8#FF0000FFFFFFFFFF
(1785792569.816300) can0 1CEBFFF1#0127100000000000
(1785792569.816769) can0 18F005F8#7DFFFF7DFFFFFFFF
(1785792569.817391) can0 1CEBFFF1#0200000000000000
(1785792569.818028) can0 1CEBFFF1#03FFE66C35FFFFFF
(1785792569.832740) can0 18FF09D1#01000B00D30CE5
(1785792569.844021) can0 18F015F1#0000463548DD4632
(1785792569.915270) can0 1CECFFF1#20120003FF19F000
(1785792569.915753) can0 18FEF1F8#FF0000FFFFFFFFFF
(1785792569.916474) can0 1CEBFFF1#0127100000000000
(1785792569.916944) can0 18F005F8#7DFFFF7DFFFFFFFF
(1785792569.917624) can0 1CEBFFF1#0200000000000000
(1785792569.918135) can0 1CEBFFF1#03FFE66C35FFFFFF
(1785792569.932929) can0 18FF09D1#01000B00D3A8E4
(1785792569.944082) can0 18F015F1#0000463548DD4632
(1785792570.015051) can0 1CECFFF1#20120003FF19F000
(1785792570.015581) can0 18FEF1F8#FF0000FFFFFFFFFF
(1785792570.016850) can0 1CEBFFF1#0127100000000000
(1785792570.017099) can0 1CEBFFF1#0200000000000000
(1785792570.017581) can0 18F005F8#7DFFFF7DFFFFFFFF
(1785792570.018186) can0 1CEBFFF1#03FFE66C35FFFFFF
(1785792570.032751) can0 18FF09D1#01000B00D3A8E4
(1785792570.044053) can0 18F015F1#0000463548DD4632
(1785792570.115063) can0 1CECFFF1#20120003FF19F000
(1785792570.115626) can0 18FEF1F8#FF0000FFFFFFFFFF
(1785792570.116416) can0 1CEBFFF1#0127100000000000
(1785792570.116897) can0 18F005F8#7DFFFF7DFFFFFFFF
(1785792570.117515) can0 1CEBFFF1#0200000000000000
(1785792570.118082) can0 1CEBFFF1#03FFE66C35FFFFFF
(1785792570.132730) can0 18FF09D1#01000B00D3A8E4
(1785792570.144013) can0 18F015F1#0000463548DD4632
(1785792570.215158) can0 1CECFFF1#20120003FF19F000
(1785792570.215646) can0 18FEF1F8#FF0000FFFFFFFFFF
(1785792570.216343) can0 1CEBFFF1#0127100000000000
(1785792570.216820) can0 18F005F8#7DFFFF7DFFFFFFFF
(1785792570.217443) can0 1CEBFFF1#0200000000000000
(1785792570.218046) can0 1CEBFFF1#03FFE66C35FFFFFF
(1785792570.233000) can0 18FF09D1#01000B00D3A8E4
(1785792570.233410) can0 18FF14D1#
(1785792570.233682) can0 18FF16D1#01000B0064
(1785792570.244112) can0 18F015F1#0000463548DD4632
(1785792570.315286) can0 1CECFFF1#20120003FF19F000
(1785792570.315886) can0 18FEF1F8#FF0000FFFFFFFFFF
(1785792570.316575) can0 1CEBFFF1#0127100000000000
(1785792570.317144) can0 1CEBFFF1#0200000000000000
(1785792570.317771) can0 18F005F8#7DFFFF7DFFFFFFFF
(1785792570.318243) can0 1CEBFFF1#03FFE66C35FFFFFF
(1785792570.332708) can0 18FF09D1#01000B00D3A8E4
(1785792570.344030) can0 18F015F1#0000463548DD4633
(1785792570.415054) can0 1CECFFF1#20120003FF19F000
(1785792570.415597) can0 18FEF1F8#FF0000FFFFFFFFFF
(1785792570.416304) can0 1CEBFFF1#0127100000000000
(1785792570.416789) can0 18F005F8#7DFFFF7DFFFFFFFF
(1785792570.417402) can0 1CEBFFF1#0200000000000000
(1785792570.418055) can0 1CEBFFF1#03FFE66C35FFFFFF
(1785792570.432726) can0 18FF09D1#01000B00D3CEE6
(1785792570.444020) can0 18F015F1#0000463548DD4632
(1785792570.515532) can0 18FEF1F8#FF0000FFFFFFFFFF
(1785792570.516268) can0 1CECFFF1#20120003FF19F000
(1785792570.516750) can0 18F005F8#7DFFFF7DFFFFFFFF
(1785792570.517344) can0 1CEBFFF1#0127100000000000
(1785792570.518057) can0 1CEBFFF1#0200000000000000
(1785792570.519129) can0 1CEBFFF1#03FFE66C35FFFFFF
(1785792570.532722) can0 18FF09D1#01000B00D3CEE6
(1785792570.545018) can0 18F015F1#0000463548DD4632
(1785792570.615779) can0 18FEF1F8#FF0000FFFFFFFFFF
(1785792570.616271) can0 1CECFFF1#20120003FF19F000
(1785792570.617124) can0 1CEBFFF1#0127100000000000
(1785792570.617626) can0 18F005F8#7DFFFF7DFFFFFFFF
(1785792570.618258) can0 1CEBFFF1#0200000000000000
(1785792570.619060) can0 1CEBFFF1#03FFE66C35FFFFFF
(1785792570.632907) can0 18FF09D1#01000B00D3CEE6
(1785792570.645171) can0 18F015F1#0000463548DD4632
(1785792570.655020) can0 18F017F1#F07702369970
(1785792570.655423) can0 18F018F1#EB8AFBCB93A3
(1785792570.715787) can0 18FEF1F8#FF0000FFFFFFFFFF
(1785792570.716330) can0 1CECFFF1#20120003FF19F000
(1785792570.717097) can0 1CEBFFF1#0127100000000000
(1785792570.717578) can0 18F005F8#7DFFFF7DFFFFFFFF
(1785792570.718208) can0 1CEBFFF1#0200000000000000
(1785792570.719089) can0 1CEBFFF1#03FFE66C35FFFFFF
(1785792570.732816) can0 18FF09D1#01000B00D3CEE6
(1785792570.733219) can0 18FF14D1#
(1785792570.745189) can0 18F015F1#0000463548DD4633
(1785792570.815625) can0 18FEF1F8#FF0000FFFFFFFFFF
(1785792570.816323) can0 1CECFFF1#20120003FF19F000
(1785792570.816816) can0 18F005F8#7DFFFF7DFFFFFFFF
(1785792570.817408) can0 1CEBFFF1#0127100000000000
(1785792570.818047) can0 1CEBFFF1#0200000000000000
(1785792570.819048) can0 1CEBFFF1#03FFE66C35FFFFFF
(1785792570.832712) can0 18FF09D1#01000B00D3CEE6
(1785792570.845028) can0 18F015F1#0000463548DD4632
(1785792570.915765) can0 18FEF1F8#FF0000FFFFFFFFFF
(1785792570.916572) can0 1CECFFF1#20120003FF19F000
(1785792570.916969) can0 18F005F8#7DFFFF7DFFFFFFFF
(1785792570.917596) can0 1CEBFFF1#0127100000000000
(1785792570.918179) can0 1CEBFFF1#0200000000000000
(1785792570.919033) can0 1CEBFFF1#03FFE66C35FFFFFF
(1785792570.932770) can0 18FF09D1#01000B00D3CEE6
(1785792570.945216) can0 18F015F1#0000463548DD4632
(1785792571.015542) can0 18FEF1F8#FF0000FFFFFFFFFF
(1785792571.016252) can0 1CECFFF1#20120003FF19F000
(1785792571.016729) can0 18F005F8#7DFFFF7DFFFFFFFF
(1785792571.017329) can0 1CEBFFF1#0127100000000000
(1785792571.018049) can0 1CEBFFF1#0200000000000000
(1785792571.019027) can0 1CEBFFF1#03FFE66C35FFFFFF
(1785792571.032724) can0 18FF09D1#01000B00D30CE5
(1785792571.045031) can0 18F015F1#0000463548DD4632
(1785792571.115566) can0 18FEF1F8#FF0000FFFFFFFFFF
(1785792571.116348) can0 1CECFFF1#20120003FF19F000
(1785792571.116818) can0 18F005F8#7DFFFF7DFFFFFFFF
(1785792571.117423) can0 1CEBFFF1#0127100000000000
(1785792571.118059) can0 1CEBFFF1#0200000000000000
(1785792571.119032) can0 1CEBFFF1#03FFE66C35FFFFFF
(1785792571.132684) can0 18FF09D1#01000B00D30CE5
(1785792571.145025) can0 18F015F1#0000463548DD4632
(1785792571.215524) can0 18FEF1F8#FF0000FFFFFFFFFF
(1785792571.216270) can0 1CECFFF1#20120003FF19F000
(1785792571.216761) can0 18F005F8#7DFFFF7DFFFFFFFF
(1785792571.217360) can0 1CEBFFF1#0127100000000000
(1785792571.218069) can0 1CEBFFF1#0200000000000000
(1785792571.219044) can0 1CEBFFF1#03FFE66C35FFFFFF
(1785792571.232783) can0 18FF09D1#01000B00D30CE5
(1785792571.233126) can0 18FF14D1#
(1785792571.245164) can0 18F015F1#0000463448DD4632
(1785792571.315579) can0 18FEF1F8#FF0000FFFFFFFFFF
(1785792571.316835) can0 18F005F8#7DFFFF7DFFFFFFFF
(1785792571.317522) can0 1CECFFF1#20120003FF19F000
(1785792571.318040) can0 1CEBFFF1#0127100000000000
(1785792571.319044) can0 1CEBFFF1#0200000000000000
(1785792571.320024) can0 1CEBFFF1#03FFE56D75FFFFFF
(1785792571.332822) can0 18FF09D1#01000B00D30CE5
(1785792571.346343) can0 18F015F1#0000463448DD4632
(1785792571.415577) can0 18FEF1F8#FF0000FFFFFFFFFF
(1785792571.416767) can0 18F005F8#7DFFFF7DFFFFFFFF
(1785792571.417362) can0 1CECFFF1#20120003FF19F000
(1785792571.418040) can0 1CEBFFF1#0127100000000000
(1785792571.419070) can0 1CEBFFF1#0200000000000000
(1785792571.420032) can0 1CEBFFF1#03FFE56D75FFFFFF
(1785792571.432702) can0 18FF09D1#01000B00D30CE5
(1785792571.446037) can0 18F015F1#0000463548DD4632
(1785792571.515567) can0 18FEF1F8#FF0000FFFFFFFFFF
(1785792571.516774) can0 18F005F8#7DFFFF7DFFFFFFFF
(1785792571.517372) can0 1CECFFF1#20120003FF19F000
(1785792571.518048) can0 1CEBFFF1#0127100000000000
(1785792571.519059) can0 1CEBFFF1#0200000000000000
(1785792571.520048) can0 1CEBFFF1#03FFE66C35FFFFFF
(1785792571.532690) can0 18FF09D1#01000B00D30CE5
(1785792571.546069) can0 18F015F1#0000463448DD4632
(1785792571.615730) can0 18FEF1F8#FF0000FFFFFFFFFF
(1785792571.617040) can0 18F005F8#7DFFFF7DFFFFFFFF
(1785792571.617645) can0 1CECFFF1#20120003FF19F000
(1785792571.618213) can0 1CEBFFF1#0127100000000000
(1785792571.619088) can0 1CEBFFF1#0200000000000000
(1785792571.620068) can0 1CEBFFF1#03FFE56D75FFFFFF
(1785792571.632749) can0 18FF09D1#01000B00D30CE5
(1785792571.646444) can0 18F015F1#0000463448DD4632
(1785792571.657072) can0 18F017F1#F07702369970
(1785792571.657587) can0 18F018F1#EB8AFBCB93A3
(1785792571.716793) can0 18FEF1F8#FF0000FFFFFFFFFF
(1785792571.717136) can0 1CECFFF1#20120003FF19F000
(1785792571.718047) can0 1CEBFFF1#0127100000000000
(1785792571.718585) can0 18F005F8#7DFFFF7DFFFFFFFF
(1785792571.719209) can0 1CEBFFF1#0200000000000000
(1785792571.720041) can0 1CEBFFF1#03FFE56D75FFFFFF
(1785792571.732934) can0 18FF09D1#01000B00D30CE5
(1785792571.733332) can0 18FF14D1#
(1785792571.746063) can0 18F015F1#0000463448DD4632
(1785792571.815547) can0 18FEF1F8#FF0000FFFFFFFFFF
(1785792571.816787) can0 18F005F8#7DFFFF7DFFFFFFFF
(1785792571.817386) can0 1CECFFF1#20120003FF19F000
(1785792571.818056) can0 1CEBFFF1#0127100000000000
(1785792571.819057) can0 1CEBFFF1#0200000000000000
(1785792571.820037) can0 1CEBFFF1#03FFE56D75FFFFFF
(1785792571.832680) can0 18FF09D1#01000B00D30CE5
(1785792571.846173) can0 18F015F1#0000463448DD4632
(1785792571.916052) can0 18FEF1F8#FF0000FFFFFFFFFF
(1785792571.917338) can0 18F005F8#7DFFFF7DFFFFFFFF
(1785792571.918071) can0 1CECFFF1#20120003FF19F000
(1785792571.919082) can0 1CEBFFF1#0127100000000000
(1785792571.920083) can0 1CEBFFF1#0200000000000000
(1785792571.921066) can0 1CEBFFF1#03FFE56D75FFFFFF
(1785792571.932736) can0 18FF09D1#01000B00D30CE5
(1785792571.946201) can0 18F015F1#0000463448DD4632
(1785792572.015798) can0 18FEF1F8#FF0000FFFFFFFFFF
(1785792572.017340) can0 18F005F8#7DFFFF7DFFFFFFFF
(1785792572.018063) can0 1CECFFF1#20120003FF19F000
(1785792572.019054) can0 1CEBFFF1#0127100000000000
(1785792572.020066) can0 1CEBFFF1#0200000000000000
(1785792572.021031) can0 1CEBFFF1#03FFE56D75FFFFFF
(1785792572.032670) can0 18FF09D1#01000B00D30CE5
(1785792572.046142) can0 18F015F1#0000463448DD4632
(1785792572.115563) can0 18FEF1F8#FF0000FFFFFFFFFF
(1785792572.116787) can0 18F005F8#7DFFFF7DFFFFFFFF
(1785792572.118146) can0 1CECFFF1#20120003FF19F000
(1785792572.119068) can0 1CEBFFF1#0127100000000000
(1785792572.120112) can0 1CEBFFF1#0200000000000000
(1785792572.121063) can0 1CEBFFF1#03FFE56D75FFFFFF
(1785792572.123043) can0 18FF09D1#01000A00CFD4E6
(1785792572.132678) can0 18FF09D1#01000B00D30CE5
(1785792572.147055) can0 18F015F1#0000463448DD4632
(1785792572.215514) can0 18FEF1F8#FF0000FFFFFFFFFF
(1785792572.216714) can0 18F005F8#7DFFFF7DFFFFFFFF
(1785792572.218060) can0 1CECFFF1#20120003FF19F000
(1785792572.219055) can0 1CEBFFF1#0127100000000000
(1785792572.220067) can0 1CEBFFF1#0200000000000000
(1785792572.221042) can0 1CEBFFF1#03FFE56D75FFFFFF
(1785792572.232787) can0 18FF09D1#01000B00D30CE5
(1785792572.233063) can0 18FF14D1#
(1785792572.247140) can0 18F015F1#0000463448DD4633
(1785792572.315792) can0 18FEF1F8#FF0000FFFFFFFFFF
(1785792572.317136) can0 18F005F8#7DFFFF7DFFFFFFFF
(1785792572.318052) can0 1CECFFF1#20120003FF19F000
(1785792572.319095) can0 1CEBFFF1#0127100000000000
(1785792572.320057) can0 1CEBFFF1#0200000000000000
(1785792572.321032) can0 1CEBFFF1#03FFE56D75FFFFFF
(1785792572.332635) can0 18FF09D1#01000B00D30CE5
(1785792572.347030) can0 18F015F1#0000463548DD4632
(1785792572.415643) can0 18FEF1F8#FF0000FFFFFFFFFF
(1785792572.416808) can0 18F005F8#7DFFFF7DFFFFFFFF
(1785792572.418056) can0 1CECFFF1#20120003FF19F000
(1785792572.419047) can0 1CEBFFF1#0127100000000000
(1785792572.420060) can0 1CEBFFF1#0200000000000000
(1785792572.421042) can0 1CEBFFF1#03FFE66C35FFFFFF
(1785792572.432657) can0 18FF09D1#01000B00D30CE5
(1785792572.447048) can0 18F015F1#0000463448DE4632
(1785792572.515590) can0 18FEF1F8#FF0000FFFFFFFFFF
(1785792572.517644) can0 18F005F8#7DFFFF7DFFFFFFFF
(1785792572.518233) can0 1CECFFF1#20120003FF19F000
(1785792572.519114) can0 1CEBFFF1#0127100000000000
(1785792572.520066) can0 1CEBFFF1#0200000000000000
(1785792572.521042) can0 1CEBFFF1#03FFE56D75FFFFFF
(1785792572.532683) can0 18FF09D1#01000B00D3F4E8
(1785792572.547049) can0 18F015F1#0000463448DD4632
(1785792572.615844) can0 18FEF1F8#FF0000FFFFFFFFFF
(1785792572.617129) can0 18F005F8#7DFFFF7DFFFFFFFF
(1785792572.618150) can0 1CECFFF1#20120003FF19F000
(1785792572.619111) can0 1CEBFFF1#0127100000000000
(1785792572.620124) can0 1CEBFFF1#0200000000000000
(1785792572.621078) can0 1CEBFFF1#03FFE66C35FFFFFF
(1785792572.632882) can0 18FF09D1#01000B00D3F4E8
(1785792572.647288) can0 18F015F1#0000463548DD4632
(1785792572.658067) can0 18F017F1#EFFE02B59985
(1785792572.658492) can0 18F018F1#EC12FBEE935E
(1785792572.666019) can0 18F020F8#002054FD00000000
(1785792572.667178) can0 18F020F8#0100000000001F4E
(1785792572.668332) can0 18F020F8#02CDDBAA017E7BA0
(1785792572.669559) can0 18F020F8#03336C2D00001F4E
(1785792572.715755) can0 18FEF1F8#FF0000FFFFFFFFFF
(1785792572.717160) can0 18F005F8#7DFFFF7DFFFFFFFF
(1785792572.718052) can0 1CECFFF1#20120003FF19F000
(1785792572.719049) can0 1CEBFFF1#0127100000000000
(1785792572.720058) can0 1CEBFFF1#0200000000000000
(1785792572.721054) can0 1CEBFFF1#03FFE66C35FFFFFF
(1785792572.732882) can0 18FF09D1#01000B00D3F4E8
(1785792572.733298) can0 18FF14D1#
(1785792572.747067) can0 18F015F1#0000463448DD4632
(1785792572.815587) can0 18FEF1F8#FF0000FFFFFFFFFF
(1785792572.816823) can0 18F005F8#7DFFFF7DFFFFFFFF
(1785792572.819068) can0 1CECFFF1#20120003FF19F000
(1785792572.820062) can0 1CEBFFF1#0127100000000000
(1785792572.821073) can0 1CEBFFF1#0200000000000000
(1785792572.822050) can0 1CEBFFF1#03FFE56D75FFFFFF
(1785792572.832664) can0 18FF09D1#01000B00D3F4E8
(1785792572.848069) can0 18F015F1#0000463448DD4632
(1785792572.915877) can0 18FEF1F8#FF0000FFFFFFFFFF
(1785792572.917280) can0 18F005F8#7DFFFF7DFFFFFFFF
(1785792572.919166) can0 1CECFFF1#20120003FF19F000
(1785792572.920062) can0 1CEBFFF1#0127100000000000
(1785792572.920611) can0 18ECFFFF#20100003FF13FF00
(1785792572.921294) can0 1CEBFFF1#0200000000000000
(1785792572.921749) can0 18EBFFFF#0100330F48780610
(1785792572.922418) can0 1CEBFFF1#03FFE56D75FFFFFF
(1785792572.922910) can0 18EBFFFF#024C987A00000000
(1785792572.924053) can0 18EBFFFF#03010BFFFFFFFFFF
(1785792572.932700) can0 18FF09D1#01000B00D3F4E8
(1785792572.948181) can0 18F015F1#0000463448DD4632
(1785792573.015998) can0 18FEF1F8#FF0000FFFFFFFFFF
(1785792573.017225) can0 18F005F8#7DFFFF7DFFFFFFFF
(1785792573.019050) can0 1CECFFF1#20120003FF19F000
(1785792573.020063) can0 1CEBFFF1#0127100000000000
(1785792573.021059) can0 1CEBFFF1#0200000000000000
(1785792573.022037) can0 1CEBFFF1#03FFE66C35FFFFFF
(1785792573.032731) can0 18FF09D1#01000B00D3F4E8
(1785792573.048157) can0 18F015F1#0000463448DD4632
(1785792573.115572) can0 18FEF1F8#FF0000FFFFFFFFFF
(1785792573.116825) can0 18F005F8#7DFFFF7DFFFFFFFF
(1785792573.119067) can0 1CECFFF1#20120003FF19F000
(1785792573.120066) can0 1CEBFFF1#0127100000000000
(1785792573.121078) can0 1CEBFFF1#0200000000000000
(1785792573.122058) can0 1CEBFFF1#03FFE56D75FFFFFF
(1785792573.132630) can0 18FF09D1#01000B00D3F4E8
(1785792573.148047) can0 18F015F1#0000463448DD4632
(1785792573.199630) can0 18FF09D1#01000B00CFD4E6
(1785792573.215524) can0 18FEF1F8#FF0000FFFFFFFFFF
(1785792573.216722) can0 18F005F8#7DFFFF7DFFFFFFFF
(1785792573.219067) can0 1CECFFF1#20120003FF19F000
(1785792573.220068) can0 1CEBFFF1#0127100000000000
(1785792573.221078) can0 1CEBFFF1#0200000000000000
(1785792573.222069) can0 1CEBFFF1#03FFE56D75FFFFFF
(1785792573.232699) can0 18FF09D1#01000B00D3F4E8
(1785792573.232975) can0 18FF14D1#
(1785792573.248060) can0 18F015F1#0000463448DD4632
(1785792573.315840) can0 18FEF1F8#FF0000FFFFFFFFFF
(1785792573.317330) can0 18F005F8#7DFFFF7DFFFFFFFF
(1785792573.319197) can0 1CECFFF1#20120003FF19F000
(1785792573.320122) can0 1CEBFFF1#0127100000000000
(1785792573.321103) can0 1CEBFFF1#0200000000000000
(1785792573.322099) can0 1CEBFFF1#03FFE56D75FFFFFF
(1785792573.333022) can0 18FF09D1#01000B00D3F4E8
(1785792573.348528) can0 18F015F1#0000463448DD4632
(1785792573.420560) can0 1CECFFF1#20120003FF19F000
(1785792573.421088) can0 18FEF1F8#FF0000FFFFFFFFFF
(1785792573.421457) can0 1CEBFFF1#0127100000000000
(1785792573.422114) can0 1CEBFFF1#0200000000000000
(1785792573.423453) can0 1CEBFFF1#03FFE56D75FFFFFF
(1785792573.424347) can0 18F005F8#7DFFFF7DFFFFFFFF
(1785792573.429495) can0 18ECFFFF#20100003FF13FF00
(1785792573.431002) can0 18EBFFFF#0100330F48780610
(1785792573.432762) can0 18FF09D1#01000B00D3F4E8
(1785792573.433438) can0 18EBFFFF#024C987A00000000
(1785792573.435102) can0 18EBFFFF#03010BFFFFFFFFFF
(1785792573.449116) can0 18F015F1#0000463448DD4632
(1785792573.515890) can0 18FEF1F8#FF0000FFFFFFFFFF
(1785792573.517791) can0 18F005F8#7DFFFF7DFFFFFFFF
(1785792573.520080) can0 1CECFFF1#20120003FF19F000
(1785792573.521068) can0 1CEBFFF1#0127100000000000
(1785792573.522074) can0 1CEBFFF1#0200000000000000
(1785792573.523063) can0 1CEBFFF1#03FFE56D75FFFFFF
(1785792573.532808) can0 18FF09D1#01000B00D3F4E8
(1785792573.549251) can0 18F015F1#0000463448DD4632
(1785792573.615704) can0 18FEF1F8#FF0000FFFFFFFFFF
(1785792573.617149) can0 18F005F8#7DFFFF7DFFFFFFFF
(1785792573.620119) can0 1CECFFF1#20120003FF19F000
(1785792573.621087) can0 1CEBFFF1#0127100000000000
(1785792573.622094) can0 1CEBFFF1#0200000000000000
(1785792573.623059) can0 1CEBFFF1#03FFE56D75FFFFFF
(1785792573.632751) can0 18FF09D1#01000B00D3F4E8
(1785792573.649172) can0 18F015F1#0000463448DD4632
(1785792573.659044) can0 18F017F1#EFFE02B59985
(1785792573.659430) can0 18F018F1#EC12FBEE935E
(1785792573.716223) can0 18FEF1F8#FF0000FFFFFFFFFF
(1785792573.717744) can0 18F005F8#7DFFFF7DFFFFFFFF
(1785792573.720413) can0 1CECFFF1#20120003FF19F000
(1785792573.721118) can0 1CEBFFF1#0127100000000000
(1785792573.722312) can0 1CEBFFF1#0200000000000000
(1785792573.723229) can0 1CEBFFF1#03FFE56D75FFFFFF
(1785792573.732883) can0 18FF09D1#01000B00D3F4E8
(1785792573.733564) can0 18FF14D1#
(1785792573.749160) can0 18F015F1#0000463448DD4632
(1785792573.766724) can0 18F020F8#00CDDBAA017E7BA0
(1785792573.768314) can0 18F020F8#01336C2D0000124C
(1785792573.769823) can0 18F020F8#0254CBAA011183A0
(1785792573.771330) can0 18F020F8#0333592D0000124C
(1785792573.772383) can0 18DEF1F8#16000B
(1785792573.816104) can0 18FEF1F8#FF0000FFFFFFFFFF
(1785792573.817345) can0 18F005F8#7DFFFF7DFFFFFFFF
(1785792573.820079) can0 1CECFFF1#20120003FF19F000
(1785792573.821076) can0 1CEBFFF1#01000B0000000000
(1785792573.822067) can0 1CEBFFF1#0200000000000000
(1785792573.823046) can0 1CEBFFF1#03FFE58C75FFFFFF
(1785792573.832653) can0 18FF09D1#01000B00D3F4E8
(1785792573.849050) can0 18F015F1#0000463448DD4632
(1785792573.915735) can0 18FEF1F8#FF0000FFFFFFFFFF
(1785792573.917021) can0 18F005F8#7DFFFF7DFFFFFFFF
(1785792573.918179) can0 18ECFFFF#20100003FF13FF00
(1785792573.919313) can0 18EBFFFF#0100330F4871F410
(1785792573.920073) can0 1CECFFF1#20120003FF19F000
(1785792573.920601) can0 18EBFFFF#024CA96400000000
(1785792573.921268) can0 1CEBFFF1#01000B0000000000
(1785792573.921769) can0 18EBFFFF#03010BFFFFFFFFFF
(1785792573.922393) can0 1CEBFFF1#0200000000000000
(1785792573.923066) can0 1CEBFFF1#03FFE58C75FFFFFF
(1785792573.932634) can0 18FF09D1#01000B00D3F4E8
(1785792573.949067) can0 18F015F1#0000463448DD4632
(1785792574.015878) can0 18FEF1F8#FF0000FFFFFFFFFF
(1785792574.017120) can0 18F005F8#7DFFFF7DFFFFFFFF
(1785792574.020435) can0 1CECFFF1#20120003FF19F000
(1785792574.021163) can0 1CEBFFF1#01000B0000000000
(1785792574.022123) can0 1CEBFFF1#0200000000000000
(1785792574.023100) can0 1CEBFFF1#03FFE58C75FFFFFF
(1785792574.032765) can0 18FF09D1#01000B00D3F4E8
(1785792574.049220) can0 18F015F1#0000463448DD4632
(1785792574.115604) can0 18FEF1F8#FF0000FFFFFFFFFF
(1785792574.117698) can0 18F005F8#7DFFFF7DFFFFFFFF
(1785792574.120067) can0 1CECFFF1#20120003FF19F000
(1785792574.121071) can0 1CEBFFF1#01000B0000000000
(1785792574.122068) can0 1CEBFFF1#0200000000000000
(1785792574.123055) can0 1CEBFFF1#03FFE58C75FFFFFF
(1785792574.132746) can0 18FF09D1#01000B00D3F4E8
(1785792574.149067) can0 18F015F1#0000463448DD4632
(1785792574.215552) can0 18FEF1F8#FF0000FFFFFFFFFF
(1785792574.216760) can0 18F005F8#7DFFFF7DFFFFFFFF
(1785792574.221114) can0 1CECFFF1#20120003FF19F000
(1785792574.222098) can0 1CEBFFF1#01000B0000000000
(1785792574.223096) can0 1CEBFFF1#0200000000000000
(1785792574.224102) can0 1CEBFFF1#03FFE58C75FFFFFF
(1785792574.232808) can0 18FF09D1#01000B00D3F4E8
(1785792574.233072) can0 18FF14D1#
(1785792574.233551) can0 18FF16D1#01000B0064
(1785792574.250091) can0 18F015F1#0000463448DD4632
(1785792574.315804) can0 18FEF1F8#FF0000FFFFFFFFFF
(1785792574.317595) can0 18F005F8#7DFFFF7DFFFFFFFF
(1785792574.321134) can0 1CECFFF1#20120003FF19F000
(1785792574.322113) can0 1CEBFFF1#01000B0000000000
(1785792574.323114) can0 1CEBFFF1#0200000000000000
(1785792574.324090) can0 1CEBFFF1#03FFE58C75FFFFFF
(1785792574.332716) can0 18FF09D1#01000B00D3F4E8
(1785792574.350068) can0 18F015F1#0000463448DD4632
(1785792574.415821) can0 18FEF1F8#FF0000FFFFFFFFFF
(1785792574.417124) can0 18F005F8#7DFFFF7DFFFFFFFF
(1785792574.418385) can0 18ECFFFF#20100003FF13FF00
(1785792574.421753) can0 1CECFFF1#20120003FF19F000
(1785792574.422169) can0 1CEBFFF1#01000B0000000000
(1785792574.422669) can0 18EBFFFF#0100330F4871F410
(1785792574.423726) can0 1CEBFFF1#0200000000000000
(1785792574.424045) can0 1CEBFFF1#03FFE58C75FFFFFF
(1785792574.424654) can0 18EBFFFF#024CA96400000000
(1785792574.425883) can0 18EBFFFF#03010BFFFFFFFFFF
(1785792574.432611) can0 18FF09D1#01000B00D3F4E8
(1785792574.450074) can0 18F015F1#0000463448DD4632
(1785792574.515579) can0 18FEF1F8#FF0000FFFFFFFFFF
(1785792574.516823) can0 18F005F8#7DFFFF7DFFFFFFFF
(1785792574.521079) can0 1CECFFF1#20120003FF19F000
(1785792574.522081) can0 1CEBFFF1#01000B0000000000
(1785792574.523083) can0 1CEBFFF1#0200000000000000
(1785792574.524062) can0 1CEBFFF1#03FFE58C75FFFFFF
(1785792574.532810) can0 18FF09D1#01000B00D3F4E8
(1785792574.550071) can0 18F015F1#0000463448DD4632
(1785792574.615616) can0 18FEF1F8#FF0000FFFFFFFFFF
(1785792574.616887) can0 18F005F8#7DFFFF7DFFFFFFFF
(1785792574.621096) can0 1CECFFF1#20120003FF19F000
(1785792574.622085) can0 1CEBFFF1#01000B0000000000
(1785792574.623091) can0 1CEBFFF1#0200000000000000
(1785792574.624073) can0 1CEBFFF1#03FFE58C75FFFFFF
(1785792574.632713) can0 18FF09D1#01000B00D3F4E8
(1785792574.650167) can0 18F015F1#0000463448DD4632
(1785792574.661157) can0 18F017F1#F04202639970
(1785792574.661636) can0 18F018F1#EC2CFC8B93AD
(1785792574.715575) can0 18FEF1F8#FF0000FFFFFFFFFF
(1785792574.716772) can0 18F005F8#7DFFFF7DFFFFFFFF
(1785792574.721335) can0 1CECFFF1#20120003FF19F000
(1785792574.722242) can0 1CEBFFF1#01000B0000000000
(1785792574.723166) can0 1CEBFFF1#0200000000000000
(1785792574.724105) can0 1CEBFFF1#03FFE58C75FFFFFF
(1785792574.732694) can0 18FF09D1#01000B00D3F4E8
(1785792574.732979) can0 18FF14D1#
(1785792574.750199) can0 18F015F1#0000463448DD4632
(1785792574.815714) can0 18FEF1F8#FF0000FFFFFFFFFF
(1785792574.816905) can0 18F005F8#7DFFFF7DFFFFFFFF
(1785792574.821093) can0 1CECFFF1#20120003FF19F000
(1785792574.822083) can0 1CEBFFF1#01000B0000000000
(1785792574.823081) can0 1CEBFFF1#0200000000000000
(1785792574.824073) can0 1CEBFFF1#03FFE58C75FFFFFF
(1785792574.832969) can0 18FF09D1#01000B00D3F4E8
(1785792574.850107) can0 18F015F1#0000463448DD4633
(1785792574.915763) can0 18FEF1F8#FF0000FFFFFFFFFF
(1785792574.917524) can0 18F005F8#7DFFFF7DFFFFFFFF
(1785792574.918875) can0 18ECFFFF#20100003FF13FF00
(1785792574.920028) can0 18EBFFFF#0100330F4871F410
(1785792574.921078) can0 1CECFFF1#20120003FF19F000
(1785792574.921605) can0 18EBFFFF#024CA96400000000
(1785792574.922278) can0 1CEBFFF1#01000B0000000000
(1785792574.922768) can0 18EBFFFF#03010BFFFFFFFFFF
(1785792574.923391) can0 1CEBFFF1#0200000000000000
(1785792574.924069) can0 1CEBFFF1#03FFE58C75FFFFFF
(1785792574.932636) can0 18FF09D1#01000B00D3F4E8
(1785792574.950116) can0 18F015F1#0000463448DD4633
(1785792575.016232) can0 18FEF1F8#FF0000FFFFFFFFFF
(1785792575.017612) can0 18F005F8#7DFFFF7DFFFFFFFF
(1785792575.022236) can0 1CECFFF1#20120003FF19F000
(1785792575.023495) can0 1CEBFFF1#01000B0000000000
(1785792575.031192) can0 1CEBFFF1#0200000000000000
(1785792575.031511) can0 1CEBFFF1#03FFE58C75FFFFFF
(1785792575.038903) can0 18FF09D1#01000B00D3F4E8
(1785792575.051625) can0 18F015F1#0000463448DD4632
(1785792575.115740) can0 18FEF1F8#FF0000FFFFFFFFFF
(1785792575.117067) can0 18F005F8#7DFFFF7DFFFFFFFF
(1785792575.122204) can0 1CECFFF1#20120003FF19F000
(1785792575.123142) can0 1CEBFFF1#01000B0000000000
(1785792575.124092) can0 1CEBFFF1#0200000000000000
(1785792575.125096) can0 1CEBFFF1#03FFE58C75FFFFFF
(1785792575.132589) can0 18FF09D1#01000B00D3F4E8
(1785792575.151141) can0 18F015F1#0000463448DD4632
(1785792575.215588) can0 18FEF1F8#FF0000FFFFFFFFFF
(1785792575.216797) can0 18F005F8#7DFFFF7DFFFFFFFF
(1785792575.222077) can0 1CECFFF1#20120003FF19F000
(1785792575.223081) can0 1CEBFFF1#01000B0000000000
(1785792575.224078) can0 1CEBFFF1#0200000000000000
(1785792575.225058) can0 1CEBFFF1#03FFE44CB4FFFFFF
(1785792575.232638) can0 18FF09D1#01000B00D3F4E8
(1785792575.232900) can0 18FF14D1#
(1785792575.251082) can0 18F015F1#0000463348DD4632
(1785792575.315628) can0 18FEF1F8#FF0000FFFFFFFFFF
(1785792575.316883) can0 18F005F8#7DFFFF7DFFFFFFFF
(1785792575.322145) can0 1CECFFF1#20120003FF19F000
(1785792575.323097) can0 1CEBFFF1#01000B0000000000
(1785792575.324099) can0 1CEBFFF1#0200000000000000
(1785792575.325071) can0 1CEBFFF1#03FFE44CB4FFFFFF
(1785792575.332893) can0 18FF09D1#01000B00D3F4E8
(1785792575.351200) can0 18F015F1#0000463348DD4632
(1785792575.428837) can0 1CECFFF1#20120003FF19F000
(1785792575.429326) can0 1CEBFFF1#01000B0000000000
(1785792575.429640) can0 18FEF1F8#FF0000FFFFFFFFFF
(1785792575.429936) can0 1CEBFFF1#03FFE44CB4FFFFFF
(1785792575.431346) can0 18F005F8#7DFFFF7DFFFFFFFF
(1785792575.432631) can0 18FF09D1#01000B00D3F4E8
(1785792575.433092) can0 18ECFFFF#20100003FF13FF00
(1785792575.434381) can0 18EBFFFF#0100330F4871F410
(1785792575.435512) can0 18EBFFFF#024CA96400000000
(1785792575.436656) can0 18EBFFFF#03010BFFFFFFFFFF
(1785792575.451141) can0 18F015F1#0000463348DD4632
(1785792575.515714) can0 18FEF1F8#FF0000FFFFFFFFFF
(1785792575.517059) can0 18F005F8#7DFFFF7DFFFFFFFF
(1785792575.522142) can0 1CECFFF1#20120003FF19F000
(1785792575.523111) can0 1CEBFFF1#01000B0000000000
(1785792575.524133) can0 1CEBFFF1#0200000000000000
(1785792575.525100) can0 1CEBFFF1#03FFE44CB4FFFFFF
(1785792575.532671) can0 18FF09D1#01000B00D3F4E8
(1785792575.551145) can0 18F015F1#0000463348DD4632
(1785792575.615646) can0 18FEF1F8#FF0000FFFFFFFFFF
(1785792575.616927) can0 18F005F8#7DFFFF7DFFFFFFFF
(1785792575.622106) can0 1CECFFF1#20120003FF19F000
(1785792575.623136) can0 1CEBFFF1#01000B0000000000
(1785792575.624142) can0 1CEBFFF1#0200000000000000
(1785792575.625119) can0 1CEBFFF1#03FFE44CB4FFFFFF
(1785792575.632605) can0 18FF09D1#01000B00D3F4E8
(1785792575.651153) can0 18F015F1#0000463448DD4632
(1785792575.662016) can0 18F017F1#F04202639970
(1785792575.662468) can0 18F018F1#EC2CFC8B93AD
(1785792575.715806) can0 18FEF1F8#FF0000FFFFFFFFFF
(1785792575.717132) can0 18F005F8#7DFFFF7DFFFFFFFF
(1785792575.722191) can0 1CECFFF1#20120003FF19F000
(1785792575.723128) can0 1CEBFFF1#01000B0000000000
(1785792575.724148) can0 1CEBFFF1#0200000000000000
(1785792575.725128) can0 1CEBFFF1#03FFE58C75FFFFFF
(1785792575.732724) can0 18FF09D1#01000B00D3F4E8
(1785792575.733191) can0 18FF14D1#
(1785792575.751368) can0 18F015F1#0000463348DD4632
(1785792575.815599) can0 18FEF1F8#FF0000FFFFFFFFFF
(1785792575.816937) can0 18F005F8#7DFFFF7DFFFFFFFF
(1785792575.823132) can0 1CECFFF1#20120003FF19F000
(1785792575.824089) can0 1CEBFFF1#01000B0000000000
(1785792575.825087) can0 1CEBFFF1#0200000000000000
(1785792575.826111) can0 1CEBFFF1#03FFE44CB4FFFFFF
(1785792575.832598) can0 18FF09D1#01000B00D3F4E8
(1785792575.852121) can0 18F015F1#0000463348DD4632
(1785792575.916622) can0 18FEF1F8#FF0000FFFFFFFFFF
(1785792575.917922) can0 18F005F8#7DFFFF7DFFFFFFFF
(1785792575.919091) can0 18ECFFFF#20100003FF13FF00
(1785792575.920236) can0 18EBFFFF#0100330F4871F410
(1785792575.921391) can0 18EBFFFF#024CA96400000000
(1785792575.922685) can0 18EBFFFF#03010BFFFFFFFFFF
(1785792575.923138) can0 1CECFFF1#20120003FF19F000
(1785792575.924116) can0 1CEBFFF1#01000B0000000000
(1785792575.925093) can0 1CEBFFF1#0200000000000000
(1785792575.926118) can0 1CEBFFF1#03FFE44CB4FFFFFF
(1785792575.932605) can0 18FF09D1#01000B00D3F4E8
(1785792575.952136) can0 18F015F1#0000463348DD4632
(1785792576.015592) can0 18FEF1F8#FF0000FFFFFFFFFF
(1785792576.016973) can0 18F005F8#7DFFFF7DFFFFFFFF
(1785792576.023188) can0 1CECFFF1#20120003FF19F000
(1785792576.024124) can0 1CEBFFF1#01000B0000000000
(1785792576.025139) can0 1CEBFFF1#0200000000000000
(1785792576.026125) can0 1CEBFFF1#03FFE58C75FFFFFF
(1785792576.032580) can0 18FF09D1#01000B00D3F4E8
(1785792576.052309) can0 18F015F1#0000463348DD4632
(1785792576.115810) can0 18FEF1F8#FF0000FFFFFFFFFF
(1785792576.117497) can0 18F005F8#7DFFFF7DFFFFFFFF
(1785792576.123321) can0 1CECFFF1#20120003FF19F000
(1785792576.124220) can0 1CEBFFF1#01000B0000000000
(1785792576.125141) can0 1CEBFFF1#0200000000000000
(1785792576.126126) can0 1CEBFFF1#03FFE44CB4FFFFFF
(1785792576.132606) can0 18FF09D1#01000B00D3F4E8
(1785792576.152120) can0 18F015F1#0000463348DD4632
(1785792576.215554) can0 18FEF1F8#FF0000FFFFFFFFFF
(1785792576.216798) can0 18F005F8#7DFFFF7DFFFFFFFF
(1785792576.223086) can0 1CECFFF1#20120003FF19F000
(1785792576.224094) can0 1CEBFFF1#01000B0000000000
(1785792576.225093) can0 1CEBFFF1#0200000000000000
(1785792576.226091) can0 1CEBFFF1#03FFE44CB4FFFFFF
(1785792576.233018) can0 18FF09D1#01000B00D3F4E8
(1785792576.233282) can0 18FF14D1#
(1785792576.252078) can0 18F015F1#0000463348DD4632
(1785792576.315572) can0 18FEF1F8#FF0000FFFFFFFFFF
(1785792576.316808) can0 18F005F8#7DFFFF7DFFFFFFFF
(1785792576.323106) can0 1CECFFF1#20120003FF19F000
(1785792576.324102) can0 1CEBFFF1#01000B0000000000
(1785792576.325096) can0 1CEBFFF1#0200000000000000
(1785792576.326104) can0 1CEBFFF1#03FFE44CB4FFFFFF
(1785792576.332553) can0 18FF09D1#01000B00D3F4E8
(1785792576.352268) can0 18F015F1#0000463348DD4632
(1785792576.416056) can0 18FEF1F8#FF0000FFFFFFFFFF
(1785792576.417311) can0 18F005F8#7DFFFF7DFFFFFFFF
(1785792576.418426) can0 18ECFFFF#20100003FF13FF00
(1785792576.419526) can0 18EBFFFF#0100330F4871F410
(1785792576.420629) can0 18EBFFFF#024CA96400000000
(1785792576.421742) can0 18EBFFFF#03010BFFFFFFFFFF
(1785792576.423084) can0 1CECFFF1#20120003FF19F000
(1785792576.424086) can0 1CEBFFF1#01000B0000000000
(1785792576.425087) can0 1CEBFFF1#0200000000000000
(1785792576.426102) can0 1CEBFFF1#03FFE44CB4FFFFFF
(1785792576.432532) can0 18FF09D1#01000B00D3F4E8
(1785792576.452097) can0 18F015F1#0000463348DD4632
(1785792576.515564) can0 18FEF1F8#FF0000FFFFFFFFFF
(1785792576.516755) can0 18F005F8#7DFFFF7DFFFFFFFF
(1785792576.524088) can0 1CECFFF1#20120003FF19F000
(1785792576.525092) can0 1CEBFFF1#01000B0000000000
(1785792576.526113) can0 1CEBFFF1#0200000000000000
(1785792576.527074) can0 1CEBFFF1#03FFE44CB4FFFFFF
(1785792576.532547) can0 18FF09D1#01000B00D3F4E8
(1785792576.553084) can0 18F015F1#0000463348DC4632
(1785792576.615546) can0 18FEF1F8#FF0000FFFFFFFFFF
(1785792576.616783) can0 18F005F8#7DFFFF7DFFFFFFFF
(1785792576.624096) can0 1CECFFF1#20120003FF19F000
(1785792576.625094) can0 1CEBFFF1#01000B0000000000
(1785792576.626116) can0 1CEBFFF1#0200000000000000
(1785792576.627074) can0 1CEBFFF1#03FFE44CB4FFFFFF
(1785792576.632537) can0 18FF09D1#01000B00D3F4E8
(1785792576.653082) can0 18F015F1#0000463348DC4632
(1785792576.663017) can0 18F017F1#F08F02629982
(1785792576.663457) can0 18F018F1#EBD2FBF993D7
(1785792576.715984) can0 18FEF1F8#FF0000FFFFFFFFFF
(1785792576.717202) can0 18F005F8#7DFFFF7DFFFFFFFF
(1785792576.724091) can0 1CECFFF1#20120003FF19F000
(1785792576.725112) can0 1CEBFFF1#01000B0000000000
(1785792576.726126) can0 1CEBFFF1#0200000000000000
(1785792576.727147) can0 1CEBFFF1#03FFE44CB4FFFFFF
(1785792576.732658) can0 18FF09D1#01000B00D3F4E8
(1785792576.733020) can0 18FF14D1#
(1785792576.753107) can0 18F015F1#0000463348DC4632
(1785792576.815548) can0 18FEF1F8#FF0000FFFFFFFFFF
(1785792576.816790) can0 18F005F8#7DFFFF7DFFFFFFFF
(1785792576.824108) can0 1CECFFF1#20120003FF19F000
(1785792576.825094) can0 1CEBFFF1#01000B0000000000
(1785792576.826131) can0 1CEBFFF1#0200000000000000
(1785792576.827084) can0 1CEBFFF1#03FFE44CB4FFFFFF
(1785792576.832535) can0 18FF09D1#01000B00D3F4E8
(1785792576.853076) can0 18F015F1#0000463348DC4632
(1785792576.916108) can0 18FEF1F8#FF0000FFFFFFFFFF
(1785792576.917369) can0 18F005F8#7DFFFF7DFFFFFFFF
(1785792576.918488) can0 18ECFFFF#20100003FF13FF00
(1785792576.919582) can0 18EBFFFF#0100330F4871F410
(1785792576.920746) can0 18EBFFFF#024CA96400000000
(1785792576.921908) can0 18EBFFFF#03010BFFFFFFFFFF
(1785792576.924100) can0 1CECFFF1#20120003FF19F000
(1785792576.925096) can0 1CEBFFF1#01000B0000000000
(1785792576.926126) can0 1CEBFFF1#0200000000000000
(1785792576.927099) can0 1CEBFFF1#03FFE44CB4FFFFFF
(1785792576.932545) can0 18FF09D1#01000B00D3F4E8
(1785792576.953101) can0 18F015F1#0000463348DD4632
(1785792577.015591) can0 18FEF1F8#FF0000FFFFFFFFFF
(1785792577.016849) can0 18F005F8#7DFFFF7DFFFFFFFF
(1785792577.024249) can0 1CECFFF1#20120003FF19F000
(1785792577.025118) can0 1CEBFFF1#01000B0000000000
(1785792577.026200) can0 1CEBFFF1#0200000000000000
(1785792577.027144) can0 1CEBFFF1#03FFE44CB4FFFFFF
(1785792577.032649) can0 18FF09D1#01000B00D3F4E8
(1785792577.053949) can0 18F015F1#0000463348DC4632
(1785792577.115785) can0 18FEF1F8#FF0000FFFFFFFFFF
(1785792577.117004) can0 18F005F8#7DFFFF7DFFFFFFFF
(1785792577.125102) can0 1CECFFF1#20120003FF19F000
(1785792577.126131) can0 1CEBFFF1#01000B0000000000
(1785792577.127130) can0 1CEBFFF1#0200000000000000
(1785792577.128155) can0 1CEBFFF1#03FFE44CB4FFFFFF
(1785792577.132761) can0 18FF09D1#01000B00D3F4E8
(1785792577.154131) can0 18F015F1#0000463348DC4632
(1785792577.215559) can0 18FEF1F8#FF0000FFFFFFFFFF
(1785792577.216738) can0 18F005F8#7DFFFF7DFFFFFFFF
(1785792577.224093) can0 1CECFFF1#20120003FF19F000
(1785792577.225103) can0 1CEBFFF1#01000B0000000000
(1785792577.226135) can0 1CEBFFF1#0200000000000000
(1785792577.227102) can0 1CEBFFF1#03FFE44CB4FFFFFF
(1785792577.232581) can0 18FF09D1#01000B00D3F4E8
(1785792577.232942) can0 18FF14D1#
(1785792577.253093) can0 18F015F1#0000463348DD4632
(1785792577.315812) can0 18FEF1F8#FF0000FFFFFFFFFF
(1785792577.317184) can0 18F005F8#7DFFFF7DFFFFFFFF
(1785792577.325227) can0 1CECFFF1#20120003FF19F000
(1785792577.326217) can0 1CEBFFF1#01000B0000000000
(1785792577.327154) can0 1CEBFFF1#0200000000000000
(1785792577.328136) can0 1CEBFFF1#03FFE44CB4FFFFFF
(1785792577.332651) can0 18FF09D1#01000B00D3F4E8
(1785792577.354326) can0 18F015F1#0000463348DC4632
(1785792577.419565) can0 18FEF1F8#FF0000FFFFFFFFFF
(1785792577.421286) can0 18F005F8#7DFFFF7DFFFFFFFF
(1785792577.425699) can0 1CECFFF1#20120003FF19F000
(1785792577.426221) can0 1CEBFFF1#01000B0000000000
(1785792577.427322) can0 1CEBFFF1#0200000000000000
(1785792577.427674) can0 18ECFFFF#20100003FF13FF00
(1785792577.428380) can0 1CEBFFF1#03FFE44CB4FFFFFF
(1785792577.428853) can0 18EBFFFF#0100330F4871F410
(1785792577.430250) can0 18EBFFFF#024CA96400000000
(1785792577.431893) can0 18EBFFFF#03010BFFFFFFFFFF
(1785792577.432543) can0 18FF09D1#01000B00D3F4E8
(1785792577.454268) can0 18F015F1#0000463348DC4632
(1785792577.517166) can0 18FEF1F8#FF0000FFFFFFFFFF
(1785792577.519957) can0 18F005F8#7DFFFF7DFFFFFFFF
(1785792577.525253) can0 1CECFFF1#20120003FF19F000
(1785792577.526221) can0 1CEBFFF1#01000B0000000000
(1785792577.527119) can0 1CEBFFF1#0200000000000000
(1785792577.528107) can0 1CEBFFF1#03FFE44CB4FFFFFF
(1785792577.532788) can0 18FF09D1#01000B00D3F4E8
(1785792577.554186) can0 18F015F1#0000463348DD4632
(1785792577.615787) can0 18FEF1F8#FF0000FFFFFFFFFF
(1785792577.617307) can0 18F005F8#7DFFFF7DFFFFFFFF
(1785792577.625182) can0 1CECFFF1#20120003FF19F000
(1785792577.626162) can0 1CEBFFF1#01000B0000000000
(1785792577.627123) can0 1CEBFFF1#0200000000000000
(1785792577.628096) can0 1CEBFFF1#03FFE44CB4FFFFFF
(1785792577.632678) can0 18FF09D1#01000B00D3F4E8
(1785792577.654159) can0 18F015F1#0000463348DC4632
(1785792577.665070) can0 18F017F1#F08F02629982
(1785792577.665565) can0 18F018F1#EBD2FBF993D7
(1785792577.715746) can0 18FEF1F8#FF0000FFFFFFFFFF
(1785792577.717266) can0 18F005F8#7DFFFF7DFFFFFFFF
(1785792577.725136) can0 1CECFFF1#20120003FF19F000
(1785792577.726145) can0 1CEBFFF1#01000B0000000000
(1785792577.727122) can0 1CEBFFF1#0200000000000000
(1785792577.728095) can0 1CEBFFF1#03FFE44CB4FFFFFF
(1785792577.732714) can0 18FF09D1#01000B00D3F4E8
(1785792577.733411) can0 18FF14D1#
(1785792577.754437) can0 18F015F1#0000463348DC4632
(1785792577.816083) can0 18FEF1F8#FF0000FFFFFFFFFF
(1785792577.817372) can0 18F005F8#7DFFFF7DFFFFFFFF
(1785792577.825147) can0 1CECFFF1#20120003FF19F000
(1785792577.826169) can0 1CEBFFF1#01000B0000000000
(1785792577.827105) can0 1CEBFFF1#0200000000000000
(1785792577.828093) can0 1CEBFFF1#03FFE44CB4FFFFFF
(1785792577.832547) can0 18FF09D1#01000B00D3F4E8
(1785792577.854136) can0 18F015F1#0000463348DD4632
(1785792577.916080) can0 18FEF1F8#FF0000FFFFFFFFFF
(1785792577.917639) can0 18F005F8#7DFFFF7DFFFFFFFF
(1785792577.918838) can0 18ECFFFF#20100003FF13FF00
(1785792577.919984) can0 18EBFFFF#0100330F4871F410
(1785792577.921129) can0 18EBFFFF#024CA96400000000
(1785792577.922289) can0 18EBFFFF#03010BFFFFFFFFFF
(1785792577.926149) can0 1CECFFF1#20120003FF19F000
(1785792577.927108) can0 1CEBFFF1#01000B0000000000
(1785792577.928269) can0 1CEBFFF1#0200000000000000
(1785792577.929086) can0 1CEBFFF1#03FFE44CB4FFFFFF
(1785792577.932517) can0 18FF09D1#01000B00D3F4E8
(1785792577.955113) can0 18F015F1#0000463348DC4632
(1785792578.015575) can0 18FEF1F8#FF0000FFFFFFFFFF
(1785792578.016832) can0 18F005F8#7DFFFF7DFFFFFFFF
(1785792578.026210) can0 1CECFFF1#20120003FF19F000
(1785792578.027104) can0 1CEBFFF1#01000B0000000000
(1785792578.028134) can0 1CEBFFF1#0200000000000000
(1785792578.029145) can0 1CEBFFF1#03FFE44CB4FFFFFF
(1785792578.032512) can0 18FF09D1#01000B00D3F4E8
(1785792578.055140) can0 18F015F1#0000463348DC4632
(1785792578.115862) can0 18FEF1F8#FF0000FFFFFFFFFF
(1785792578.117351) can0 18F005F8#7DFFFF7DFFFFFFFF
(1785792578.126231) can0 1CECFFF1#20120003FF19F000
(1785792578.127394) can0 1CEBFFF1#01000B0000000000
(1785792578.129108) can0 1CEBFFF1#0200000000000000
(1785792578.129913) can0 1CEBFFF1#03FFE44CB4FFFFFF
(1785792578.132606) can0 18FF09D1#01000B00D3F4E8
(1785792578.155343) can0 18F015F1#0000463348DD4632
(1785792578.215560) can0 18FEF1F8#FF0000FFFFFFFFFF
(1785792578.216858) can0 18F005F8#7DFFFF7DFFFFFFFF
(1785792578.226145) can0 1CECFFF1#20120003FF19F000
(1785792578.227116) can0 1CEBFFF1#01000B0000000000
(1785792578.228101) can0 1CEBFFF1#0200000000000000
(1785792578.229083) can0 1CEBFFF1#03FFE44CB4FFFFFF
(1785792578.232678) can0 18FF09D1#01000B00D3F4E8
(1785792578.233053) can0 18FF14D1#
(1785792578.233368) can0 18FF16D1#01000B0064
(1785792578.255088) can0 18F015F1#0000463348DC4632
(1785792578.315577) can0 18FEF1F8#FF0000FFFFFFFFFF
(1785792578.316831) can0 18F005F8#7DFFFF7DFFFFFFFF
(1785792578.326135) can0 1CECFFF1#20120003FF19F000
(1785792578.327110) can0 1CEBFFF1#01000B0000000000
(1785792578.328104) can0 1CEBFFF1#0200000000000000
(1785792578.329086) can0 1CEBFFF1#03FFE44CB4FFFFFF
(1785792578.332465) can0 18FF09D1#01000B00D3F4E8
(1785792578.355090) can0 18F015F1#0000463348DC4632
(1785792578.416076) can0 18FEF1F8#FF0000FFFFFFFFFF
(1785792578.417966) can0 18F005F8#7DFFFF7DFFFFFFFF
(1785792578.419173) can0 18ECFFFF#20100003FF13FF00
(1785792578.420372) can0 18EBFFFF#0100330F4871F410
(1785792578.421579) can0 18EBFFFF#024CA96400000000
(1785792578.422736) can0 18EBFFFF#03010BFFFFFFFFFF
(1785792578.426182) can0 1CECFFF1#20120003FF19F000
(1785792578.427133) can0 1CEBFFF1#01000B0000000000
(1785792578.428150) can0 1CEBFFF1#0200000000000000
(1785792578.429120) can0 1CEBFFF1#03FFE44CB4FFFFFF
(1785792578.432531) can0 18FF09D1#01000B00D3F4E8
(1785792578.455096) can0 18F015F1#0000463348DD4632
(1785792578.515597) can0 18FEF1F8#FF0000FFFFFFFFFF
(1785792578.516825) can0 18F005F8#7DFFFF7DFFFFFFFF
(1785792578.526147) can0 1CECFFF1#20120003FF19F000
(1785792578.527118) can0 1CEBFFF1#01000B0000000000
(1785792578.528114) can0 1CEBFFF1#0200000000000000
(1785792578.529100) can0 1CEBFFF1#03FFE44CB4FFFFFF
(1785792578.532473) can0 18FF09D1#01000B00D3F4E8
(1785792578.555114) can0 18F015F1#0000463348DC4632
(1785792578.615538) can0 18FEF1F8#FF0000FFFFFFFFFF
(1785792578.616769) can0 18F005F8#7DFFFF7DFFFFFFFF
(1785792578.626134) can0 1CECFFF1#20120003FF19F000
(1785792578.627117) can0 1CEBFFF1#01000B0000000000
(1785792578.628113) can0 1CEBFFF1#0200000000000000
(1785792578.629110) can0 1CEBFFF1#03FFE44CB4FFFFFF
(1785792578.632494) can0 18FF09D1#01000B00D3F4E8
(1785792578.655112) can0 18F015F1#0000463348DC4632
(1785792578.666079) can0 18F017F1#F02702559948
(1785792578.666491) can0 18F018F1#EBDDFBB9938F
(1785792578.716223) can0 18FEF1F8#FF0000FFFFFFFFFF
(1785792578.717641) can0 18F005F8#7DFFFF7DFFFFFFFF
(1785792578.727300) can0 1CECFFF1#20120003FF19F000
(1785792578.728127) can0 1CEBFFF1#01000B0000000000
(1785792578.729139) can0 1CEBFFF1#0200000000000000
(1785792578.730131) can0 1CEBFFF1#03FFE44CB4FFFFFF
(1785792578.732574) can0 18FF09D1#01000B00D3F4E8
(1785792578.732958) can0 18FF14D1#
(1785792578.756338) can0 18F015F1#0000463348DC4632
(1785792578.815614) can0 18FEF1F8#FF0000FFFFFFFFFF
(1785792578.816844) can0 18F005F8#7DFFFF7DFFFFFFFF
(1785792578.827179) can0 1CECFFF1#20120003FF19F000
(1785792578.828124) can0 1CEBFFF1#01000B0000000000
(1785792578.829104) can0 1CEBFFF1#0200000000000000
(1785792578.830088) can0 1CEBFFF1#03FFE44CB4FFFFFF
(1785792578.832456) can0 18FF09D1#01000B00D3F4E8
(1785792578.856306) can0 18F015F1#0000463348DC4633
(1785792578.915887) can0 18FEF1F8#FF0000FFFFFFFFFF
(1785792578.917249) can0 18F005F8#7DFFFF7DFFFFFFFF
(1785792578.918562) can0 18ECFFFF#20100003FF13FF00
(1785792578.919729) can0 18EBFFFF#0100330F4871F410
(1785792578.920869) can0 18EBFFFF#024CA96400000000
(1785792578.922035) can0 18EBFFFF#03010BFFFFFFFFFF
(1785792578.927133) can0 1CECFFF1#20120003FF19F000
(1785792578.928110) can0 1CEBFFF1#01000B0000000000
(1785792578.929122) can0 1CEBFFF1#0200000000000000
(1785792578.930093) can0 1CEBFFF1#03FFE44CB4FFFFFF
(1785792578.932483) can0 18FF09D1#01000B00D3F4E8
(1785792578.956172) can0 18F015F1#0000463348DC4632
(1785792579.015577) can0 18FEF1F8#FF0000FFFFFFFFFF
(1785792579.016832) can0 18F005F8#7DFFFF7DFFFFFFFF
(1785792579.027138) can0 1CECFFF1#20120003FF19F000
(1785792579.028119) can0 1CEBFFF1#01000B0000000000
(1785792579.029148) can0 1CEBFFF1#0200000000000000
(1785792579.030138) can0 1CEBFFF1#03FFE44CB4FFFFFF
(1785792579.032471) can0 18FF09D1#01000B00D3F4E8
(1785792579.056192) can0 18F015F1#0000463348DD4633
(1785792579.116439) can0 18FEF1F8#FF0000FFFFFFFFFF
(1785792579.118059) can0 18F005F8#7DFFFF7DFFFFFFFF
(1785792579.127262) can0 1CECFFF1#20120003FF19F000
(1785792579.128135) can0 1CEBFFF1#01000B0000000000
(1785792579.129126) can0 1CEBFFF1#0200000000000000
(1785792579.130185) can0 1CEBFFF1#03FFE44CB4FFFFFF
(1785792579.132627) can0 18FF09D1#01000B00D3F4E8
(1785792579.156741) can0 18F015F1#0000463348DC4633
(1785792579.215562) can0 18FEF1F8#FF0000FFFFFFFFFF
(1785792579.216758) can0 18F005F8#7DFFFF7DFFFFFFFF
(1785792579.227112) can0 1CECFFF1#20120003FF19F000
(1785792579.228114) can0 1CEBFFF1#01000B0000000000
(1785792579.229111) can0 1CEBFFF1#0200000000000000
(1785792579.230088) can0 1CEBFFF1#03FFE44CB4FFFFFF
(1785792579.232509) can0 18FF09D1#01000B00D3F4E8
(1785792579.232794) can0 18FF14D1#
(1785792579.256134) can0 18F015F1#0000463348DC4632
(1785792579.315782) can0 18FEF1F8#FF0000FFFFFFFFFF
(1785792579.317077) can0 18F005F8#7DFFFF7DFFFFFFFF
(1785792579.327291) can0 1CECFFF1#20120003FF19F000
(1785792579.328156) can0 1CEBFFF1#01000B0000000000
(1785792579.329169) can0 1CEBFFF1#0200000000000000
(1785792579.330186) can0 1CEBFFF1#03FFE44CB4FFFFFF
(1785792579.332523) can0 18FF09D1#01000B00D3F4E8
(1785792579.356162) can0 18F015F1#0000463348DD4633
(1785792579.416550) can0 18FEF1F8#FF0000FFFFFFFFFF
(1785792579.418903) can0 18F005F8#7DFFFF7DFFFFFFFF
(1785792579.423885) can0 18ECFFFF#20100003FF13FF00
(1785792579.426154) can0 18EBFFFF#0100330F4871F410
(1785792579.427249) can0 1CECFFF1#20120003FF19F000
(1785792579.428032) can0 18EBFFFF#024CA96400000000
(1785792579.428442) can0 1CEBFFF1#01000B0000000000
(1785792579.429431) can0 1CEBFFF1#0200000000000000
(1785792579.429881) can0 18EBFFFF#03010BFFFFFFFFFF
(1785792579.430441) can0 1CEBFFF1#03FFE44CB4FFFFFF
(1785792579.432514) can0 18FF09D1#01000B00D3F4E8
(1785792579.457065) can0 18F015F1#0000463348DC4633
(1785792579.515656) can0 18FEF1F8#FF0000FFFFFFFFFF
(1785792579.516849) can0 18F005F8#7DFFFF7DFFFFFFFF
(1785792579.528122) can0 1CECFFF1#20120003FF19F000
(1785792579.529116) can0 1CEBFFF1#01000B0000000000
(1785792579.530113) can0 1CEBFFF1#0200000000000000
(1785792579.531090) can0 1CEBFFF1#03FFE44CB4FFFFFF
(1785792579.532431) can0 18FF09D1#01000B00D3F4E8
(1785792579.557181) can0 18F015F1#0000463348DC4632
(1785792579.615743) can0 18FEF1F8#FF0000FFFFFFFFFF
(1785792579.617045) can0 18F005F8#7DFFFF7DFFFFFFFF
(1785792579.628140) can0 1CECFFF1#20120003FF19F000
(1785792579.629132) can0 1CEBFFF1#01000B0000000000
(1785792579.630127) can0 1CEBFFF1#0200000000000000
(1785792579.631119) can0 1CEBFFF1#03FFE44CB4FFFFFF
(1785792579.632562) can0 18ECFFD1#200E0002FF09FF00
(1785792579.633088) can0 18EBFFD1#0101000B00D3F4E8
(1785792579.633652) can0 18EBFFD1#0201000A00D580DA
(1785792579.657155) can0 18F015F1#0000463348DD4633
(1785792579.667032) can0 18F017F1#F02702559948
(1785792579.667489) can0 18F018F1#EBDDFBB9938F
(1785792579.715749) can0 18FEF1F8#FF0000FFFFFFFFFF
(1785792579.717065) can0 18F005F8#7DFFFF7DFFFFFFFF
(1785792579.728366) can0 1CECFFF1#20120003FF19F000
(1785792579.729228) can0 1CEBFFF1#01000B0000000000
(1785792579.730215) can0 1CEBFFF1#0200000000000000
(1785792579.731278) can0 1CEBFFF1#03FFE44CB4FFFFFF
(1785792579.732672) can0 18ECFFD1#200E0002FF09FF00
(1785792579.733189) can0 18EBFFD1#0101000B00D3F4E8
(1785792579.733824) can0 18EBFFD1#0201000A00D580DA
(1785792579.734432) can0 18FF14D1#
(1785792579.757384) can0 18F015F1#0000463348DC4633
(1785792579.817057) can0 18FEF1F8#FF0000FFFFFFFFFF
(1785792579.818441) can0 18F005F8#7DFFFF7DFFFFFFFF
(1785792579.828285) can0 1CECFFF1#20120003FF19F000
(1785792579.829181) can0 1CEBFFF1#01000B0000000000
(1785792579.830168) can0 1CEBFFF1#0200000000000000
(1785792579.831170) can0 1CEBFFF1#03FFE44CB4FFFFFF
(1785792579.832620) can0 18ECFFD1#200E0002FF09FF00
(1785792579.833157) can0 18EBFFD1#0101000B00D3F4E8
(1785792579.833727) can0 18EBFFD1#0201000A00D580DA
(1785792579.857125) can0 18F015F1#0000463348DC4632
(1785792579.916162) can0 18FEF1F8#FF0000FFFFFFFFFF
(1785792579.917607) can0 18F005F8#7DFFFF7DFFFFFFFF
(1785792579.918749) can0 18ECFFFF#20100003FF13FF00
(1785792579.919871) can0 18EBFFFF#0100330F4871F410
(1785792579.920986) can0 18EBFFFF#024CA96400000000
(1785792579.922125) can0 18EBFFFF#03010BFFFFFFFFFF
(1785792579.928119) can0 1CECFFF1#20120003FF19F000
(1785792579.929123) can0 1CEBFFF1#01000B0000000000
(1785792579.930111) can0 1CEBFFF1#0200000000000000
(1785792579.931090) can0 1CEBFFF1#03FFE44CB4FFFFFF
(1785792579.932506) can0 18ECFFD1#200E0002FF09FF00
(1785792579.933064) can0 18EBFFD1#0101000B00D3F4E8
(1785792579.933621) can0 18EBFFD1#0201000A00D580DA
(1785792579.957111) can0 18F015F1#0000463348DD4633
(1785792580.015577) can0 18FEF1F8#FF0000FFFFFFFFFF
(1785792580.016792) can0 18F005F8#7DFFFF7DFFFFFFFF
(1785792580.028143) can0 1CECFFF1#20120003FF19F000
(1785792580.029136) can0 1CEBFFF1#01000B0000000000
(1785792580.030140) can0 1CEBFFF1#0200000000000000
(1785792580.031176) can0 1CEBFFF1#03FFE44CB4FFFFFF
(1785792580.032596) can0 18ECFFD1#200E0002FF09FF00
(1785792580.033104) can0 18EBFFD1#0101000B00D3F4E8
(1785792580.033652) can0 18EBFFD1#0201000A00D580DA
(1785792580.057216) can0 18F015F1#0000463348DC4633
(1785792580.115803) can0 18FEF1F8#FF0000FFFFFFFFFF
(1785792580.117212) can0 18F005F8#7DFFFF7DFFFFFFFF
(1785792580.128225) can0 1CECFFF1#20120003FF19F000
(1785792580.129171) can0 1CEBFFF1#01000B0000000000
(1785792580.130186) can0 1CEBFFF1#0200000000000000
(1785792580.131116) can0 1CEBFFF1#03FFE44CB4FFFFFF
(1785792580.132534) can0 18ECFFD1#200E0002FF09FF00
(1785792580.133082) can0 18EBFFD1#0101000B00D3F4E8
(1785792580.133645) can0 18EBFFD1#0201000A00D580DA
(1785792580.157139) can0 18F015F1#0000463348DC4632
(1785792580.215641) can0 18FEF1F8#FF0000FFFFFFFFFF
(1785792580.216833) can0 18F005F8#7DFFFF7DFFFFFFFF
(1785792580.229143) can0 1CECFFF1#20120003FF19F000
(1785792580.230133) can0 1CEBFFF1#01000B0000000000
(1785792580.231149) can0 1CEBFFF1#0200000000000000
(1785792580.232123) can0 1CEBFFF1#03FFE44CB4FFFFFF
(1785792580.232787) can0 18ECFFD1#200E0002FF09FF00
(1785792580.233313) can0 18EBFFD1#0101000B00D3F4E8
(1785792580.233880) can0 18EBFFD1#0201000A00D580DA
(1785792580.234685) can0 18FF14D1#
(1785792580.235185) can0 18FF16D1#01000A0064
(1785792580.257152) can0 18F015F1#0000463348DD4633
(1785792580.315538) can0 18FEF1F8#FF0000FFFFFFFFFF
(1785792580.316766) can0 18F005F8#7DFFFF7DFFFFFFFF
(1785792580.329331) can0 1CECFFF1#20120003FF19F000
(1785792580.330137) can0 1CEBFFF1#01000B0000000000
(1785792580.331141) can0 1CEBFFF1#0200000000000000
(1785792580.332115) can0 1CEBFFF1#03FFE44CB4FFFFFF
(1785792580.332688) can0 18ECFFD1#200E0002FF09FF00
(1785792580.333237) can0 18EBFFD1#0101000B00D3F4E8
(1785792580.333800) can0 18EBFFD1#0201000A00D580DA
(1785792580.358130) can0 18F015F1#0000463348DC4633
(1785792580.416137) can0 18FEF1F8#FF0000FFFFFFFFFF
(1785792580.417761) can0 18F005F8#7DFFFF7DFFFFFFFF
(1785792580.420363) can0 18ECFFFF#20100003FF13FF00
(1785792580.421482) can0 18EBFFFF#0100330F4871F410
(1785792580.422593) can0 18EBFFFF#024CA96400000000
(1785792580.423721) can0 18EBFFFF#03010BFFFFFFFFFF
(1785792580.429402) can0 1CECFFF1#20120003FF19F000
(1785792580.430115) can0 1CEBFFF1#01000B0000000000
(1785792580.431110) can0 1CEBFFF1#0200000000000000
(1785792580.432090) can0 1CEBFFF1#03FFE44CB4FFFFFF
(1785792580.432657) can0 18ECFFD1#200E0002FF09FF00
(1785792580.433212) can0 18EBFFD1#0101000B00D3F4E8
(1785792580.433780) can0 18EBFFD1#0201000A00D580DA
(1785792580.458087) can0 18F015F1#0000463348DC4633
(1785792580.515551) can0 18FEF1F8#FF0000FFFFFFFFFF
(1785792580.516687) can0 18F005F8#7DFFFF7DFFFFFFFF
(1785792580.529139) can0 1CECFFF1#20120003FF19F000
(1785792580.530126) can0 1CEBFFF1#01000B0000000000
(1785792580.531124) can0 1CEBFFF1#0200000000000000
(1785792580.532101) can0 1CEBFFF1#03FFE44CB4FFFFFF
(1785792580.532668) can0 18ECFFD1#200E0002FF09FF00
(1785792580.533222) can0 18EBFFD1#0101000B00D364E7
(1785792580.533787) can0 18EBFFD1#0201000A00D580DA
(1785792580.558152) can0 18F015F1#0000463248DD4633
(1785792580.615553) can0 18FEF1F8#FF0000FFFFFFFFFF
(1785792580.616680) can0 18F005F8#7DFFFF7DFFFFFFFF
(1785792580.629117) can0 1CECFFF1#20120003FF19F000
(1785792580.630128) can0 1CEBFFF1#01000B0000000000
(1785792580.631122) can0 1CEBFFF1#0200000000000000
(1785792580.632109) can0 1CEBFFF1#03FFE38EF5FFFFFF
(1785792580.632674) can0 18ECFFD1#200E0002FF09FF00
(1785792580.633228) can0 18EBFFD1#0101000B00D364E7
(1785792580.633786) can0 18EBFFD1#0201000A00D580DA
(1785792580.658102) can0 18F015F1#0000463248DD4633
(1785792580.669025) can0 18F017F1#F072023D9A12
(1785792580.669498) can0 18F018F1#EBCCFC56932E
(1785792580.715636) can0 18FEF1F8#FF0000FFFFFFFFFF
(1785792580.716844) can0 18F005F8#7DFFFF7DFFFFFFFF
(1785792580.729358) can0 1CECFFF1#20120003FF19F000
(1785792580.730156) can0 1CEBFFF1#01000B0000000000
(1785792580.731139) can0 1CEBFFF1#0200000000000000
(1785792580.732112) can0 1CEBFFF1#03FFE38EF5FFFFFF
(1785792580.732679) can0 18ECFFD1#200E0002FF09FF00
(1785792580.733236) can0 18EBFFD1#0101000B00D364E7
(1785792580.733818) can0 18EBFFD1#0201000A00D580DA
(1785792580.734635) can0 18FF14D1#
(1785792580.758238) can0 18F015F1#0000463248DC4632
(1785792580.815505) can0 18FEF1F8#FF0000FFFFFFFFFF
(1785792580.816620) can0 18F005F8#7DFFFF7DFFFFFFFF
(1785792580.829337) can0 1CECFFF1#20120003FF19F000
(1785792580.830230) can0 1CEBFFF1#01000B0000000000
(1785792580.831189) can0 1CEBFFF1#0200000000000000
(1785792580.832144) can0 1CEBFFF1#03FFE38EF5FFFFFF
(1785792580.832775) can0 18ECFFD1#200E0002FF09FF00
(1785792580.833300) can0 18EBFFD1#0101000B00D364E7
(1785792580.833880) can0 18EBFFD1#0201000A00D580DA
(1785792580.858114) can0 18F015F1#0000463248DD4633
(1785792580.915849) can0 18FEF1F8#FF0000FFFFFFFFFF
(1785792580.917333) can0 18F005F8#7DFFFF7DFFFFFFFF
(1785792580.918648) can0 18ECFFFF#20100003FF13FF00
(1785792580.919752) can0 18EBFFFF#0100330F4871F410
(1785792580.920983) can0 18EBFFFF#024CA96400000000
(1785792580.922149) can0 18EBFFFF#03010BFFFFFFFFFF
(1785792580.929146) can0 1CECFFF1#20120003FF19F000
(1785792580.930121) can0 1CEBFFF1#01000B0000000000
(1785792580.931141) can0 1CEBFFF1#0200000000000000
(1785792580.932112) can0 1CEBFFF1#03FFE38EF5FFFFFF
(1785792580.932670) can0 18ECFFD1#200E0002FF09FF00
(1785792580.933230) can0 18EBFFD1#0101000B00D364E7
(1785792580.933795) can0 18EBFFD1#0201000A00D580DA
(1785792580.958137) can0 18F015F1#0000463248DC4633
(1785792581.015567) can0 18FEF1F8#FF0000FFFFFFFFFF
(1785792581.016694) can0 18F005F8#7DFFFF7DFFFFFFFF
(1785792581.030162) can0 1CECFFF1#20120003FF19F000
(1785792581.031137) can0 1CEBFFF1#01000B0000000000
(1785792581.032125) can0 1CEBFFF1#0200000000000000
(1785792581.032692) can0 18ECFFD1#200E0002FF09FF00
(1785792581.033244) can0 18EBFFD1#0101000B00D364E7
(1785792581.033833) can0 18EBFFD1#0201000A00D580DA
(1785792581.059211) can0 18F015F1#0000463248DC4632
(1785792581.115745) can0 18FEF1F8#FF0000FFFFFFFFFF
(1785792581.117085) can0 18F005F8#7DFFFF7DFFFFFFFF
(1785792581.130139) can0 1CECFFF1#20120003FF19F000
(1785792581.131153) can0 1CEBFFF1#01000B0000000000
(1785792581.132121) can0 1CEBFFF1#0200000000000000
(1785792581.132680) can0 18ECFFD1#200E0002FF09FF00
(1785792581.133241) can0 18EBFFD1#0101000B00D364E7
(1785792581.133819) can0 18EBFFD1#0201000A00D580DA
(1785792581.159200) can0 18F015F1#0000463248DD4633
(1785792581.215557) can0 18FEF1F8#FF0000FFFFFFFFFF
(1785792581.220923) can0 18F005F8#7DFFFF7DFFFFFFFF
(1785792581.230126) can0 1CECFFF1#20120003FF19F000
(1785792581.231136) can0 1CEBFFF1#01000B0000000000
(1785792581.232139) can0 1CEBFFF1#0200000000000000
(1785792581.232702) can0 18ECFFD1#200E0002FF09FF00
(1785792581.233262) can0 18EBFFD1#0101000B00D364E7
(1785792581.233820) can0 18EBFFD1#0201000A00D580DA
(1785792581.234921) can0 18FF14D1#
(1785792581.259110) can0 18F015F1#0000463248DD4633
(1785792581.315832) can0 18FEF1F8#FF0000FFFFFFFFFF
(1785792581.317100) can0 18F005F8#7DFFFF7DFFFFFFFF
(1785792581.330281) can0 1CECFFF1#20120003FF19F000
(1785792581.331194) can0 1CEBFFF1#01000B0000000000
(1785792581.332181) can0 1CEBFFF1#0200000000000000
(1785792581.332723) can0 18ECFFD1#200E0002FF09FF00
(1785792581.333282) can0 18EBFFD1#0101000B00D364E7
(1785792581.333865) can0 18EBFFD1#0201000A00D580DA
(1785792581.359250) can0 18F015F1#0000463248DC4632
(1785792581.416003) can0 18FEF1F8#FF0000FFFFFFFFFF
(1785792581.417968) can0 18F005F8#7DFFFF7DFFFFFFFF
(1785792581.419479) can0 18ECFFFF#20100003FF13FF00
(1785792581.420838) can0 18EBFFFF#0100330F4871F410
(1785792581.422080) can0 18EBFFFF#024CA96400000000
(1785792581.423268) can0 18EBFFFF#03010BFFFFFFFFFF
(1785792581.430219) can0 1CECFFF1#20120003FF19F000
(1785792581.431221) can0 1CEBFFF1#01000B0000000000
(1785792581.432208) can0 1CEBFFF1#0200000000000000
(1785792581.432862) can0 18ECFFD1#200E0002FF09FF00
(1785792581.433300) can0 18EBFFD1#0101000B00D364E7
(1785792581.433933) can0 18EBFFD1#0201000A00D580DA
(1785792581.459559) can0 18F015F1#0000463248DD4633
(1785792581.515778) can0 18FEF1F8#FF0000FFFFFFFFFF
(1785792581.517161) can0 18F005F8#7DFFFF7DFFFFFFFF
(1785792581.530153) can0 1CECFFF1#20120003FF19F000
(1785792581.531140) can0 1CEBFFF1#01000B0000000000
(1785792581.532140) can0 1CEBFFF1#0200000000000000
(1785792581.532715) can0 18ECFFD1#200E0002FF09FF00
(1785792581.533270) can0 18EBFFD1#0101000B00D364E7
(1785792581.533864) can0 18EBFFD1#0201000A00D580DA
(1785792581.559108) can0 18F015F1#0000463248DD4633
(1785792581.615560) can0 18FEF1F8#FF0000FFFFFFFFFF
(1785792581.616741) can0 18F005F8#7DFFFF7DFFFFFFFF
(1785792581.631135) can0 1CECFFF1#20120003FF19F000
(1785792581.632139) can0 1CEBFFF1#01000B0000000000
(1785792581.632724) can0 18ECFFD1#200E0002FF09FF00
(1785792581.633265) can0 18EBFFD1#0101000B00D364E7
(1785792581.633822) can0 18EBFFD1#0201000A00D580DA
(1785792581.634391) can0 1CEBFFF1#03FFE38EF5FFFFFF
(1785792581.660139) can0 18F015F1#0000463248DD4632
(1785792581.670040) can0 18F017F1#F072023D9A12
(1785792581.670493) can0 18F018F1#EBCCFC56932E
(1785792581.715958) can0 18FEF1F8#FF0000FFFFFFFFFF
(1785792581.717242) can0 18F005F8#7DFFFF7DFFFFFFFF
(1785792581.731212) can0 1CECFFF1#20120003FF19F000
(1785792581.732160) can0 1CEBFFF1#01000B0000000000
(1785792581.732703) can0 18ECFFD1#200E0002FF09FF00
(1785792581.733295) can0 18EBFFD1#0101000B00D364E7
(1785792581.733891) can0 18EBFFD1#0201000A00D580DA
(1785792581.734444) can0 1CEBFFF1#03FFE38EF5FFFFFF
(1785792581.734778) can0 18FF14D1#
(1785792581.760509) can0 18F015F1#0000463248DD4632
(1785792581.815855) can0 18FEF1F8#FF0000FFFFFFFFFF
(1785792581.817345) can0 18F005F8#7DFFFF7DFFFFFFFF
(1785792581.831220) can0 1CECFFF1#20120003FF19F000
(1785792581.832267) can0 1CEBFFF1#01000B0000000000
(1785792581.832785) can0 18ECFFD1#200E0002FF09FF00
(1785792581.833304) can0 18EBFFD1#0101000B00D364E7
(1785792581.836043) can0 18EBFFD1#0201000A00D580DA
(1785792581.836506) can0 1CEBFFF1#03FFE38EF5FFFFFF
(1785792581.860159) can0 18F015F1#0000463248DD4632
(1785792581.915676) can0 18FEF1F8#FF0000FFFFFFFFFF
(1785792581.917018) can0 18F005F8#7DFFFF7DFFFFFFFF
(1785792581.918180) can0 18ECFFFF#20100003FF13FF00
(1785792581.919294) can0 18EBFFFF#0100330F4871F410
(1785792581.920405) can0 18EBFFFF#024CA96400000000
(1785792581.921530) can0 18EBFFFF#03010BFFFFFFFFFF
(1785792581.931204) can0 1CECFFF1#20120003FF19F000
(1785792581.932153) can0 1CEBFFF1#01000B0000000000
(1785792581.932710) can0 18ECFFD1#200E0002FF09FF00
(1785792581.933265) can0 18EBFFD1#0101000B00D364E7
(1785792581.933827) can0 18EBFFD1#0201000A00D580DA
(1785792581.934393) can0 1CEBFFF1#03FFE38EF5FFFFFF
(1785792581.960148) can0 18F015F1#0000463248DC4632
(1785792582.015525) can0 18FEF1F8#FF0000FFFFFFFFFF
(1785792582.016895) can0 18F005F8#7DFFFF7DFFFFFFFF
(1785792582.031156) can0 1CECFFF1#20120003FF19F000
(1785792582.032135) can0 1CEBFFF1#01000B0000000000
(1785792582.032693) can0 18ECFFD1#200E0002FF09FF00
(1785792582.033252) can0 18EBFFD1#0101000B00D364E7
(1785792582.033825) can0 18EBFFD1#0201000A00D580DA
(1785792582.034379) can0 1CEBFFF1#03FFE38EF5FFFFFF
(1785792582.060148) can0 18F015F1#0000463248DD4632
(1785792582.116092) can0 18FEF1F8#FF0000FFFFFFFFFF
(1785792582.117406) can0 18F005F8#7DFFFF7DFFFFFFFF
(1785792582.131208) can0 1CECFFF1#20120003FF19F000
(1785792582.132319) can0 1CEBFFF1#01000B0000000000
(1785792582.132742) can0 18FF09D1#01000B00D39CE6
(1785792582.133511) can0 1CEBFFF1#0200000000000000
(1785792582.134140) can0 1CEBFFF1#03FFE38EF5FFFFFF
(1785792582.160123) can0 18F015F1#0000463248DC4632
(1785792582.215537) can0 18FEF1F8#FF0000FFFFFFFFFF
(1785792582.216660) can0 18F005F8#7DFFFF7DFFFFFFFF
(1785792582.231129) can0 1CECFFF1#20120003FF19F000
(1785792582.232139) can0 1CEBFFF1#01000B0000000000
(1785792582.232656) can0 18FF09D1#01000B00D39CE6
(1785792582.232925) can0 18FF14D1#
(1785792582.233393) can0 18FF16D1#01000B0064
(1785792582.234165) can0 1CEBFFF1#03FFE38EF5FFFFFF
(1785792582.260135) can0 18F015F1#0000463248DD4632
(1785792582.315541) can0 18FEF1F8#FF0000FFFFFFFFFF
(1785792582.320844) can0 18F005F8#7DFFFF7DFFFFFFFF
(1785792582.331128) can0 1CECFFF1#20120003FF19F000
(1785792582.332140) can0 1CEBFFF1#01000B0000000000
(1785792582.332655) can0 18FF09D1#01000B00D39CE6
(1785792582.333245) can0 1CEBFFF1#0200000000000000
(1785792582.334123) can0 1CEBFFF1#03FFE38EF5FFFFFF
(1785792582.360169) can0 18F015F1#0000463248DD4632
(1785792582.415962) can0 18FEF1F8#FF0000FFFFFFFFFF
(1785792582.417519) can0 18F005F8#7DFFFF7DFFFFFFFF
(1785792582.420066) can0 18ECFFFF#20100003FF13FF00
(1785792582.421284) can0 18EBFFFF#0100330F4871F410
(1785792582.422386) can0 18EBFFFF#024CA96400000000
(1785792582.423498) can0 18EBFFFF#03010BFFFFFFFFFF
(1785792582.432127) can0 1CECFFF1#20120003FF19F000
(1785792582.432634) can0 18FF09D1#01000B00D39CE6
(1785792582.433244) can0 1CEBFFF1#01000B0000000000
(1785792582.434135) can0 1CEBFFF1#0200000000000000
(1785792582.435105) can0 1CEBFFF1#03FFE38EF5FFFFFF
(1785792582.461105) can0 18F015F1#0000463248DD4632
(1785792582.515592) can0 18FEF1F8#FF0000FFFFFFFFFF
(1785792582.516804) can0 18F005F8#7DFFFF7DFFFFFFFF
(1785792582.532139) can0 1CECFFF1#20120003FF19F000
(1785792582.532641) can0 18FF09D1#01000B00D39CE6
(1785792582.533237) can0 1CEBFFF1#01000B0000000000
(1785792582.534146) can0 1CEBFFF1#0200000000000000
(1785792582.535108) can0 1CEBFFF1#03FFE38EF5FFFFFF
(1785792582.561144) can0 18F015F1#0000463248DC4632
(1785792582.615523) can0 18FEF1F8#FF0000FFFFFFFFFF
(1785792582.616655) can0 18F005F8#7DFFFF7DFFFFFFFF
(1785792582.632137) can0 1CECFFF1#20120003FF19F000
(1785792582.632652) can0 18FF09D1#01000B00D390E8
(1785792582.633242) can0 1CEBFFF1#01000B0000000000
(1785792582.634149) can0 1CEBFFF1#0200000000000000
(1785792582.635119) can0 1CEBFFF1#03FFE38EF5FFFFFF
(1785792582.661151) can0 18F015F1#0000463248DD4632
(1785792582.671041) can0 18F017F1#F06602B299B6
(1785792582.671500) can0 18F018F1#EB63FBCF93D5
(1785792582.715756) can0 18FEF1F8#FF0000FFFFFFFFFF
(1785792582.717008) can0 18F005F8#7DFFFF7DFFFFFFFF
(1785792582.732306) can0 1CECFFF1#20120003FF19F000
(1785792582.732727) can0 18FF09D1#01000B00D390E8
(1785792582.733236) can0 18FF14D1#
(1785792582.734260) can0 1CEBFFF1#0200000000000000
(1785792582.735225) can0 1CEBFFF1#03FFE38EF5FFFFFF
(1785792582.761290) can0 18F015F1#0000463248DC4632
(1785792582.815487) can0 18FEF1F8#FF0000FFFFFFFFFF
(1785792582.816608) can0 18F005F8#7DFFFF7DFFFFFFFF
(1785792582.832176) can0 1CECFFF1#20120003FF19F000
(1785792582.832655) can0 18FF09D1#01000B00D390E8
(1785792582.833285) can0 1CEBFFF1#01000B0000000000
(1785792582.834225) can0 1CEBFFF1#0200000000000000
(1785792582.835231) can0 1CEBFFF1#03FFE38EF5FFFFFF
(1785792582.861141) can0 18F015F1#0000463248DC4632
(1785792582.916212) can0 18FEF1F8#FF0000FFFFFFFFFF
(1785792582.917412) can0 18F005F8#7DFFFF7DFFFFFFFF
(1785792582.918690) can0 18ECFFFF#20100003FF13FF00
(1785792582.919824) can0 18EBFFFF#0100330F4871F410
(1785792582.920927) can0 18EBFFFF#024CA96400000000
(1785792582.922041) can0 18EBFFFF#03010BFFFFFFFFFF
(1785792582.932159) can0 1CECFFF1#20120003FF19F000
(1785792582.932648) can0 18FF09D1#01000B00D390E8
(1785792582.933235) can0 1CEBFFF1#01000B0000000000
(1785792582.934145) can0 1CEBFFF1#0200000000000000
(1785792582.935124) can0 1CEBFFF1#03FFE38EF5FFFFFF
(1785792582.961147) can0 18F015F1#0000463248DC4632
(1785792583.015599) can0 18FEF1F8#FF0000FFFFFFFFFF
(1785792583.016820) can0 18F005F8#7DFFFF7DFFFFFFFF
(1785792583.032193) can0 1CECFFF1#20120003FF19F000
(1785792583.032681) can0 18FF09D1#01000B00D390E8
(1785792583.033277) can0 1CEBFFF1#01000B0000000000
(1785792583.034165) can0 1CEBFFF1#0200000000000000
(1785792583.035151) can0 1CEBFFF1#03FFE38EF5FFFFFF
(1785792583.061274) can0 18F015F1#0000463248DC4632
(1785792583.115759) can0 18FEF1F8#FF0000FFFFFFFFFF
(1785792583.117105) can0 18F005F8#7DFFFF7DFFFFFFFF
(1785792583.132162) can0 1CECFFF1#20120003FF19F000
(1785792583.132653) can0 18FF09D1#01000B00D390E8
(1785792583.133237) can0 1CEBFFF1#01000B0000000000
(1785792583.134138) can0 1CEBFFF1#0200000000000000
(1785792583.135112) can0 1CEBFFF1#03FFE38EF5FFFFFF
(1785792583.161123) can0 18F015F1#0000463248DC4632
(1785792583.215538) can0 18FEF1F8#FF0000FFFFFFFFFF
(1785792583.216698) can0 18F005F8#7DFFFF7DFFFFFFFF
(1785792583.232398) can0 18FF09D1#01000B00D390E8
(1785792583.232752) can0 18FF14D1#
(1785792583.233240) can0 1CECFFF1#20120003FF19F000
(1785792583.234155) can0 1CEBFFF1#01000B0000000000
(1785792583.235155) can0 1CEBFFF1#0200000000000000
(1785792583.236146) can0 1CEBFFF1#03FFE38EF5FFFFFF
(1785792583.262130) can0 18F015F1#0000463248DD4632
(1785792583.317892) can0 18FEF1F8#FF0000FFFFFFFFFF
(1785792583.319100) can0 18F005F8#7DFFFF7DFFFFFFFF
(1785792583.332459) can0 18FF09D1#01000B00D390E8
(1785792583.333158) can0 1CECFFF1#20120003FF19F000
(1785792583.334177) can0 1CEBFFF1#01000B0000000000
(1785792583.335149) can0 1CEBFFF1#0200000000000000
(1785792583.336178) can0 1CEBFFF1#03FFE38EF5FFFFFF
(1785792583.362167) can0 18F015F1#0000463248DC4632
(1785792583.415806) can0 18FEF1F8#FF0000FFFFFFFFFF
(1785792583.417164) can0 18F005F8#7DFFFF7DFFFFFFFF
(1785792583.418520) can0 18ECFFFF#20100003FF13FF00
(1785792583.419772) can0 18EBFFFF#0100330F4871F410
(1785792583.420997) can0 18EBFFFF#024CA96400000000
(1785792583.422257) can0 18EBFFFF#03010BFFFFFFFFFF
(1785792583.432435) can0 18FF09D1#01000B00D390E8
(1785792583.433114) can0 1CECFFF1#20120003FF19F000
(1785792583.434164) can0 1CEBFFF1#01000B0000000000
(1785792583.436114) can0 1CEBFFF1#0200000000000000
(1785792583.436834) can0 1CEBFFF1#03FFE38EF5FFFFFF
(1785792583.462245) can0 18F015F1#0000463248DC4632
(1785792583.515605) can0 18FEF1F8#FF0000FFFFFFFFFF
(1785792583.516783) can0 18F005F8#7DFFFF7DFFFFFFFF
(1785792583.532334) can0 18FF09D1#01000B00D390E8
(1785792583.533143) can0 1CECFFF1#20120003FF19F000
(1785792583.534142) can0 1CEBFFF1#01000B0000000000
(1785792583.535138) can0 1CEBFFF1#0200000000000000
(1785792583.536144) can0 1CEBFFF1#03FFE38EF5FFFFFF
(1785792583.562147) can0 18F015F1#0000463248DD4632
(1785792583.615999) can0 18FEF1F8#FF0000FFFFFFFFFF
(1785792583.617122) can0 18F005F8#7DFFFF7DFFFFFFFF
(1785792583.632312) can0 18FF09D1#01000B00D390E8
(1785792583.633135) can0 1CECFFF1#20120003FF19F000
(1785792583.634136) can0 1CEBFFF1#01000B0000000000
(1785792583.635137) can0 1CEBFFF1#0200000000000000
(1785792583.636138) can0 1CEBFFF1#03FFE38EF5FFFFFF
(1785792583.662124) can0 18F015F1#0000463248DC4632
(1785792583.673047) can0 18F017F1#F06602B299B6
(1785792583.674079) can0 18F018F1#EB63FBCF93D5
(1785792583.715632) can0 18FEF1F8#FF0000FFFFFFFFFF
(1785792583.716947) can0 18F005F8#7DFFFF7DFFFFFFFF
(1785792583.732474) can0 18FF09D1#01000B00D390E8
(1785792583.732968) can0 18FF14D1#
(1785792583.733310) can0 1CECFFF1#20120003FF19F000
(1785792583.734993) can0 1CEBFFF1#01000B0000000000
(1785792583.735326) can0 1CEBFFF1#0200000000000000
(1785792583.736229) can0 1CEBFFF1#03FFE38EF5FFFFFF
(1785792583.762239) can0 18F015F1#0000463248DC4632
(1785792583.815502) can0 18FEF1F8#FF0000FFFFFFFFFF
(1785792583.816822) can0 18F005F8#7DFFFF7DFFFFFFFF
(1785792583.832316) can0 18FF09D1#01000B00D390E8
(1785792583.833140) can0 1CECFFF1#20120003FF19F000
(1785792583.834411) can0 1CEBFFF1#01000B0000000000
(1785792583.835466) can0 1CEBFFF1#0200000000000000
(1785792583.836174) can0 1CEBFFF1#03FFE38EF5FFFFFF
(1785792583.862478) can0 18F015F1#0000463248DD4633
(1785792583.915888) can0 18FEF1F8#FF0000FFFFFFFFFF
(1785792583.917540) can0 18F005F8#7DFFFF7DFFFFFFFF
(1785792583.918709) can0 18ECFFFF#20100003FF13FF00
(1785792583.919803) can0 18EBFFFF#0100330F4871F410
(1785792583.920942) can0 18EBFFFF#024CA96400000000
(1785792583.922110) can0 18EBFFFF#03010BFFFFFFFFFF
(1785792583.932427) can0 18FF09D1#01000B00D390E8
(1785792583.933196) can0 1CECFFF1#20120003FF19F000
(1785792583.934153) can0 1CEBFFF1#01000B0000000000
(1785792583.935143) can0 1CEBFFF1#0200000000000000
(1785792583.936161) can0 1CEBFFF1#03FFE38EF5FFFFFF
(1785792583.962182) can0 18F015F1#0000463248DC4633
(1785792584.015606) can0 18FEF1F8#FF0000FFFFFFFFFF
(1785792584.016844) can0 18F005F8#7DFFFF7DFFFFFFFF
(1785792584.032371) can0 18FF09D1#01000B00D390E8
(1785792584.034203) can0 1CECFFF1#20120003FF19F000
(1785792584.035179) can0 1CEBFFF1#01000B0000000000
(1785792584.036211) can0 1CEBFFF1#0200000000000000
(1785792584.037136) can0 1CEBFFF1#03FFE38EF5FFFFFF
(1785792584.063200) can0 18F015F1#0000463248DC4632
(1785792584.115836) can0 18FEF1F8#FF0000FFFFFFFFFF
(1785792584.117212) can0 18F005F8#7DFFFF7DFFFFFFFF
(1785792584.132401) can0 18FF09D1#01000B00D390E8
(1785792584.134183) can0 1CECFFF1#20120003FF19F000
(1785792584.135250) can0 1CEBFFF1#01000B0000000000
(1785792584.136425) can0 1CEBFFF1#0200000000000000
(1785792584.137176) can0 1CEBFFF1#03FFE38EF5FFFFFF
(1785792584.163444) can0 18F015F1#0000463248DD4632
(1785792584.215600) can0 18FEF1F8#FF0000FFFFFFFFFF
(1785792584.216821) can0 18F005F8#7DFFFF7DFFFFFFFF
(1785792584.232530) can0 18FF09D1#01000B00D390E8
(1785792584.232867) can0 18FF14D1#
(1785792584.233257) can0 18FF16D1#01000A0064
(1785792584.234182) can0 1CECFFF1#20120003FF19F000
(1785792584.235162) can0 1CEBFFF1#01000B0000000000
(1785792584.236202) can0 1CEBFFF1#0200000000000000
(1785792584.237124) can0 1CEBFFF1#03FFE38EF5FFFFFF
(1785792584.263123) can0 18F015F1#0000463248DC4633
(1785792584.315537) can0 18FEF1F8#FF0000FFFFFFFFFF
(1785792584.316770) can0 18F005F8#7DFFFF7DFFFFFFFF
(1785792584.332299) can0 18FF09D1#01000B00D390E8
(1785792584.334155) can0 1CECFFF1#20120003FF19F000
(1785792584.335167) can0 1CEBFFF1#01000B0000000000
(1785792584.336190) can0 1CEBFFF1#0200000000000000
(1785792584.337154) can0 1CEBFFF1#03FFE38EF5FFFFFF
(1785792584.363165) can0 18F015F1#0000463248DC4632
(1785792584.416085) can0 18FEF1F8#FF0000FFFFFFFFFF
(1785792584.417327) can0 18F005F8#7DFFFF7DFFFFFFFF
(1785792584.420031) can0 18ECFFFF#20100003FF13FF00
(1785792584.421234) can0 18EBFFFF#0100330F4871F410
(1785792584.422494) can0 18EBFFFF#024CA96400000000
(1785792584.423658) can0 18EBFFFF#03010BFFFFFFFFFF
(1785792584.432376) can0 18FF09D1#01000B00D390E8
(1785792584.434150) can0 1CECFFF1#20120003FF19F000
(1785792584.435142) can0 1CEBFFF1#01000B0000000000
(1785792584.436184) can0 1CEBFFF1#0200000000000000
(1785792584.437120) can0 1CEBFFF1#03FFE38EF5FFFFFF
(1785792584.463136) can0 18F015F1#0000463148DD4632
(1785792584.515532) can0 18FEF1F8#FF0000FFFFFFFFFF
(1785792584.516668) can0 18F005F8#7DFFFF7DFFFFFFFF
(1785792584.532404) can0 18FF09D1#01000B00D390E8
(1785792584.534216) can0 1CECFFF1#20120003FF19F000
(1785792584.535207) can0 1CEBFFF1#01000B0000000000
(1785792584.536248) can0 1CEBFFF1#0200000000000000
(1785792584.537141) can0 1CEBFFF1#03FFE24E34FFFFFF
(1785792584.563149) can0 18F015F1#0000463148DC4632
(1785792584.615568) can0 18FEF1F8#FF0000FFFFFFFFFF
(1785792584.616812) can0 18F005F8#7DFFFF7DFFFFFFFF
(1785792584.632319) can0 18FF09D1#01000B00D3F4E8
(1785792584.634142) can0 1CECFFF1#20120003FF19F000
(1785792584.635146) can0 1CEBFFF1#01000B0000000000
(1785792584.636158) can0 1CEBFFF1#0200000000000000
(1785792584.637124) can0 1CEBFFF1#03FFE38EF5FFFFFF
(1785792584.663144) can0 18F015F1#0000463248DC4632
(1785792584.674062) can0 18F017F1#F08D02889982
(1785792584.674508) can0 18F018F1#EBBCFC2E9396
(1785792584.715543) can0 18FEF1F8#FF0000FFFFFFFFFF
(1785792584.716769) can0 18F005F8#7DFFFF7DFFFFFFFF
(1785792584.732399) can0 18FF09D1#01000B00D3F4E8
(1785792584.732672) can0 18FF14D1#
(1785792584.735313) can0 1CECFFF1#20120003FF19F000
(1785792584.736229) can0 1CEBFFF1#01000B0000000000
(1785792584.737217) can0 1CEBFFF1#0200000000000000
(1785792584.738189) can0 1CEBFFF1#03FFE38EF5FFFFFF
(1785792584.764333) can0 18F015F1#0000463148DD4632
(1785792584.815533) can0 18FEF1F8#FF0000FFFFFFFFFF
(1785792584.816673) can0 18F005F8#7DFFFF7DFFFFFFFF
(1785792584.832293) can0 18FF09D1#01000B00D3F4E8
(1785792584.835142) can0 1CECFFF1#20120003FF19F000
(1785792584.836175) can0 1CEBFFF1#01000B0000000000
(1785792584.837144) can0 1CEBFFF1#0200000000000000
(1785792584.838123) can0 1CEBFFF1#03FFE38EF5FFFFFF
(1785792584.864255) can0 18F015F1#0000463148DD4632
(1785792584.915829) can0 18FEF1F8#FF0000FFFFFFFFFF
(1785792584.917197) can0 18F005F8#7DFFFF7DFFFFFFFF
(1785792584.918338) can0 18ECFFFF#20100003FF13FF00
(1785792584.919443) can0 18EBFFFF#0100330F4871F410
(1785792584.920546) can0 18EBFFFF#024CA96400000000
(1785792584.921656) can0 18EBFFFF#03010BFFFFFFFFFF
(1785792584.932345) can0 18FF09D1#01000B00D3F4E8
(1785792584.935163) can0 1CECFFF1#20120003FF19F000
(1785792584.936182) can0 1CEBFFF1#01000B0000000000
(1785792584.937149) can0 1CEBFFF1#0200000000000000
(1785792584.938129) can0 1CEBFFF1#03FFE24E34FFFFFF
(1785792584.964163) can0 18F015F1#0000463248DC4632
(1785792585.015535) can0 18FEF1F8#FF0000FFFFFFFFFF
(1785792585.016759) can0 18F005F8#7DFFFF7DFFFFFFFF
(1785792585.032320) can0 18FF09D1#01000B00D3F4E8
(1785792585.035159) can0 1CECFFF1#20120003FF19F000
(1785792585.036210) can0 1CEBFFF1#01000B0000000000
(1785792585.037157) can0 1CEBFFF1#0200000000000000
(1785792585.038134) can0 1CEBFFF1#03FFE24E34FFFFFF
(1785792585.064203) can0 18F015F1#0000463148DD4632
(1785792585.116745) can0 18FEF1F8#FF0000FFFFFFFFFF
(1785792585.118128) can0 18F005F8#7DFFFF7DFFFFFFFF
(1785792585.132637) can0 18FF09D1#01000B00D3F4E8
(1785792585.135340) can0 1CECFFF1#20120003FF19F000
(1785792585.136508) can0 1CEBFFF1#01000B0000000000
(1785792585.137262) can0 1CEBFFF1#0200000000000000
(1785792585.138207) can0 1CEBFFF1#03FFE24E34FFFFFF
(1785792585.164253) can0 18F015F1#0000463148DD4632
(1785792585.215600) can0 18FEF1F8#FF0000FFFFFFFFFF
(1785792585.216792) can0 18F005F8#7DFFFF7DFFFFFFFF
(1785792585.232356) can0 18FF09D1#01000B00D3F4E8
(1785792585.232720) can0 18FF14D1#
(1785792585.235161) can0 1CECFFF1#20120003FF19F000
(1785792585.236245) can0 1CEBFFF1#01000B0000000000
(1785792585.237168) can0 1CEBFFF1#0200000000000000
(1785792585.238137) can0 1CEBFFF1#03FFE24E34FFFFFF
(1785792585.264138) can0 18F015F1#0000463148DC4632
(1785792585.316312) can0 18FEF1F8#FF0000FFFFFFFFFF
(1785792585.317620) can0 18F005F8#7DFFFF7DFFFFFFFF
(1785792585.332418) can0 18FF09D1#01000B00D3F4E8
(1785792585.336255) can0 1CECFFF1#20120003FF19F000
(1785792585.337162) can0 1CEBFFF1#01000B0000000000
(1785792585.338169) can0 1CEBFFF1#0200000000000000
(1785792585.339140) can0 1CEBFFF1#03FFE24E34FFFFFF
(1785792585.364178) can0 18F015F1#0000463148DD4632
(1785792585.415751) can0 18FEF1F8#FF0000FFFFFFFFFF
(1785792585.417044) can0 18F005F8#7DFFFF7DFFFFFFFF
(1785792585.418219) can0 18ECFFFF#20100003FF13FF00
(1785792585.419394) can0 18EBFFFF#0100330F4871F410
(1785792585.420652) can0 18EBFFFF#024CA96400000000
(1785792585.421966) can0 18EBFFFF#03010BFFFFFFFFFF
(1785792585.432355) can0 18FF09D1#01000B00D3F4E8
(1785792585.435216) can0 1CECFFF1#20120003FF19F000
(1785792585.436235) can0 1CEBFFF1#01000B0000000000
