(1785793416.388195) can0 18F015F1#0000455149874645
(1785793416.407327) can0 18FF09D1#01000B00D320EA
(1785793416.459226) can0 1CECFFF1#20120003FF19F000
(1785793416.460148) can0 1CEBFFF1#01000B00010DCC00
(1785793416.461132) can0 1CEBFFF1#0200175EFFFDB26C
(1785793416.462149) can0 1CEBFFF1#03FF025678FFFFFF
(1785793416.488273) can0 18F015F1#0000455149874645
(1785793416.507366) can0 18FF09D1#01000B00D320EA
(1785793416.559180) can0 1CECFFF1#20120003FF19F000
(1785793416.560143) can0 1CEBFFF1#01000B00010DCC00
(1785793416.561130) can0 1CEBFFF1#0200175EFFFDB26C
(1785793416.562141) can0 1CEBFFF1#03FF025678FFFFFF
(1785793416.588202) can0 18F015F1#0000455149874645
(1785793416.607450) can0 18FF09D1#01000B00D320EA
(1785793416.659189) can0 1CECFFF1#20120003FF19F000
(1785793416.660149) can0 1CEBFFF1#01000B00010DCC00
(1785793416.661130) can0 1CEBFFF1#0200175EFFFDB26C
(1785793416.662140) can0 1CEBFFF1#03FF025678FFFFFF
(1785793416.688770) can0 18F015F1#0000455149874645
(1785793416.707346) can0 18FF09D1#01000B00D320EA
(1785793416.707658) can0 18FF14D1#
(1785793416.760204) can0 1CECFFF1#20120003FF19F000
(1785793416.761145) can0 1CEBFFF1#01000B00010DCC00
(1785793416.762132) can0 1CEBFFF1#0200175EFFFDB26C
(1785793416.763141) can0 1CEBFFF1#03FF025678FFFFFF
(1785793416.789185) can0 18F015F1#0000455149874645
(1785793416.799146) can0 18F017F1#EBB8000E9928
(1785793416.799569) can0 18F018F1#E784FDC5942E
(1785793416.807358) can0 18FF09D1#01000B00D320EA
(1785793416.860427) can0 1CECFFF1#20120003FF19F000
(1785793416.861159) can0 1CEBFFF1#01000B00010DCC00
(1785793416.862209) can0 1CEBFFF1#0200175EFFFDB26C
(1785793416.863203) can0 1CEBFFF1#03FF025678FFFFFF
(1785793416.889439) can0 18F015F1#0000455149874645
(1785793416.907329) can0 18FF09D1#01000B00D34CEB
(1785793416.960217) can0 1CECFFF1#20120003FF19F000
(1785793416.961163) can0 1CEBFFF1#01000B00010DCC00
(1785793416.962138) can0 1CEBFFF1#0200175EFFFDB26C
(1785793416.963157) can0 1CEBFFF1#03FF025678FFFFFF
(1785793416.989193) can0 18F015F1#0000455149874645
(1785793417.007301) can0 18FF09D1#01000B00D34CEB
(1785793417.060232) can0 1CECFFF1#20120003FF19F000
(1785793417.061151) can0 1CEBFFF1#01000B00010DCC00
(1785793417.062134) can0 1CEBFFF1#0200175EFFFDB26C
(1785793417.063146) can0 1CEBFFF1#03FF025678FFFFFF
(1785793417.089161) can0 18F015F1#0000455149874645
(1785793417.107280) can0 18FF09D1#01000B00D34CEB
(1785793417.160282) can0 1CECFFF1#20120003FF19F000
(1785793417.161176) can0 1CEBFFF1#01000B00010DCC00
(1785793417.162163) can0 1CEBFFF1#0200175EFFFDB26C
(1785793417.163176) can0 1CEBFFF1#03FF025678FFFFFF
(1785793417.189400) can0 18F015F1#0000455149874645
(1785793417.207371) can0 18FF09D1#01000B00D34CEB
(1785793417.207664) can0 18FF14D1#
(1785793417.260216) can0 1CECFFF1#20120003FF19F000
(1785793417.261146) can0 1CEBFFF1#01000B00010DCC00
(1785793417.262133) can0 1CEBFFF1#0200175EFFFDB26C
(1785793417.263144) can0 1CEBFFF1#03FF025678FFFFFF
(1785793417.289180) can0 18F015F1#0000455149874645
(1785793417.307264) can0 18FF09D1#01000B00D34CEB
(1785793417.360202) can0 1CECFFF1#20120003FF19F000
(1785793417.361165) can0 1CEBFFF1#01000B00010DCC00
(1785793417.362150) can0 1CEBFFF1#0200175EFFFDB26C
(1785793417.363163) can0 1CEBFFF1#03FF025678FFFFFF
(1785793417.389291) can0 18F015F1#0000455149874645
(1785793417.407333) can0 18FF09D1#01000B00D34CEB
(1785793417.460248) can0 1CECFFF1#20120003FF19F000
(1785793417.461170) can0 1CEBFFF1#01000B00010DCC00
(1785793417.462164) can0 1CEBFFF1#0200175EFFFDB26C
(1785793417.463232) can0 1CEBFFF1#03FF025678FFFFFF
(1785793417.489331) can0 18F015F1#0000455149874645
(1785793417.507431) can0 18FF09D1#01000B00D34CEB
(1785793417.561203) can0 1CECFFF1#20120003FF19F000
(1785793417.562148) can0 1CEBFFF1#01000B00010DCC00
(1785793417.563139) can0 1CEBFFF1#0200175EFFFDB26C
(1785793417.564145) can0 1CEBFFF1#03FF025678FFFFFF
(1785793417.590192) can0 18F015F1#0000455149874645
(1785793417.607390) can0 18FF09D1#01000B00D34CEB
(1785793417.661213) can0 1CECFFF1#20120003FF19F000
(1785793417.662163) can0 1CEBFFF1#01000B00010DCC00
(1785793417.663149) can0 1CEBFFF1#0200175EFFFDB26C
(1785793417.664170) can0 1CEBFFF1#03FF015738FFFFFF
(1785793417.690177) can0 18F015F1#0000455049874645
(1785793417.707295) can0 18FF09D1#01000B00D34CEB
(1785793417.707558) can0 18FF14D1#
(1785793417.761190) can0 1CECFFF1#20120003FF19F000
(1785793417.762169) can0 1CEBFFF1#01000B00010DCC00
(1785793417.763154) can0 1CEBFFF1#0200175EFFFDB26C
(1785793417.764171) can0 1CEBFFF1#03FF015738FFFFFF
(1785793417.790215) can0 18F015F1#0000455149874645
(1785793417.801112) can0 18F017F1#EBAD00CF9918
(1785793417.801537) can0 18F018F1#E8B5FE50940C
(1785793417.807288) can0 18FF09D1#01000B00D34CEB
(1785793417.861438) can0 1CECFFF1#20120003FF19F000
(1785793417.862231) can0 1CEBFFF1#01000B00010DCC00
(1785793417.863173) can0 1CEBFFF1#0200175EFFFDB26C
(1785793417.864162) can0 1CEBFFF1#03FF015738FFFFFF
(1785793417.890418) can0 18F015F1#0000455149874645
(1785793417.907424) can0 18FF09D1#01000B00D320EA
(1785793417.961218) can0 1CECFFF1#20120003FF19F000
(1785793417.962161) can0 1CEBFFF1#01000B00010DCC00
(1785793417.963165) can0 1CEBFFF1#0200175EFFFDB26C
(1785793417.964152) can0 1CEBFFF1#03FF025678FFFFFF
(1785793417.990158) can0 18F015F1#0000455149874645
(1785793418.007257) can0 18FF09D1#01000B00D320EA
(1785793418.061234) can0 1CECFFF1#20120003FF19F000
(1785793418.062167) can0 1CEBFFF1#01000B00010DCC00
(1785793418.063152) can0 1CEBFFF1#0200175EFFFDB26C
(1785793418.064164) can0 1CEBFFF1#03FF025678FFFFFF
(1785793418.090157) can0 18F015F1#0000455149874645
(1785793418.107236) can0 18FF09D1#01000B00D320EA
(1785793418.161352) can0 1CECFFF1#20120003FF19F000
(1785793418.162181) can0 1CEBFFF1#01000B00010DCC00
(1785793418.164949) can0 1CEBFFF1#0200175EFFFDB26C
(1785793418.165239) can0 1CEBFFF1#03FF015738FFFFFF
(1785793418.190277) can0 18F015F1#0000455149874645
(1785793418.207401) can0 18FF09D1#01000B00D320EA
(1785793418.207680) can0 18FF14D1#
(1785793418.262222) can0 1CECFFF1#20120003FF19F000
(1785793418.263156) can0 1CEBFFF1#01000B00010DCC00
(1785793418.264140) can0 1CEBFFF1#0200175EFFFDB26C
(1785793418.265154) can0 1CEBFFF1#03FF015738FFFFFF
(1785793418.290183) can0 18F015F1#0000455149874645
(1785793418.307220) can0 18FF09D1#01000B00D320EA
(1785793418.362203) can0 1CECFFF1#20120003FF19F000
(1785793418.363168) can0 1CEBFFF1#01000B00010DCC00
(1785793418.364158) can0 1CEBFFF1#0200175EFFFDB26C
(1785793418.365173) can0 1CEBFFF1#03FF015738FFFFFF
(1785793418.391164) can0 18F015F1#0000455049874645
(1785793418.407200) can0 18FF09D1#01000B00D34CEB
(1785793418.462246) can0 1CECFFF1#20120003FF19F000
(1785793418.463175) can0 1CEBFFF1#01000B00010DCC00
(1785793418.464155) can0 1CEBFFF1#0200175EFFFDB26C
(1785793418.465170) can0 1CEBFFF1#03FF015738FFFFFF
(1785793418.491235) can0 18F015F1#0000455149874645
(1785793418.512702) can0 18FF09D1#01000B00D34CEB
(1785793418.562192) can0 1CECFFF1#20120003FF19F000
(1785793418.563160) can0 1CEBFFF1#01000B00010DCC00
(1785793418.564147) can0 1CEBFFF1#0200175EFFFDB26C
(1785793418.565162) can0 1CEBFFF1#03FF015738FFFFFF
(1785793418.591406) can0 18F015F1#0000455049874645
(1785793418.607412) can0 18FF09D1#01000B00D34CEB
(1785793418.662204) can0 1CECFFF1#20120003FF19F000
(1785793418.663157) can0 1CEBFFF1#01000B00010DCC00
(1785793418.664142) can0 1CEBFFF1#0200175EFFFDB26C
(1785793418.665155) can0 1CEBFFF1#03FF015738FFFFFF
(1785793418.691190) can0 18F015F1#0000455049874645
(1785793418.707256) can0 18FF09D1#01000B00D34CEB
(1785793418.707512) can0 18FF14D1#
(1785793418.762215) can0 1CECFFF1#20120003FF19F000
(1785793418.763173) can0 1CEBFFF1#01000B00010DCC00
(1785793418.764164) can0 1CEBFFF1#0200175EFFFDB26C
(1785793418.765179) can0 1CEBFFF1#03FF015738FFFFFF
(1785793418.791199) can0 18F015F1#0000455149884645
(1785793418.802111) can0 18F017F1#EBAD00CF9918
(1785793418.802561) can0 18F018F1#E8B5FE50940C
(1785793418.807305) can0 18FF09D1#01000B00D34CEB
(1785793418.862539) can0 1CECFFF1#20120003FF19F000
(1785793418.863185) can0 1CEBFFF1#01000B00010DCC00
(1785793418.864217) can0 1CEBFFF1#0200175EFFFDB26C
(1785793418.865197) can0 1CEBFFF1#03FF025678FFFFFF
(1785793418.891326) can0 18F015F1#0000455149874645
(1785793418.907256) can0 18FF09D1#01000B00D34CEB
(1785793418.962279) can0 1CECFFF1#20120003FF19F000
(1785793418.963190) can0 1CEBFFF1#01000B00010DCC00
(1785793418.964163) can0 1CEBFFF1#0200175EFFFDB26C
(1785793418.965179) can0 1CEBFFF1#03FF015738FFFFFF
(1785793418.991203) can0 18F015F1#0000455049874645
(1785793419.007207) can0 18FF09D1#01000B00D34CEB
(1785793419.063234) can0 1CECFFF1#20120003FF19F000
(1785793419.064184) can0 1CEBFFF1#01000B00010DCC00
(1785793419.065163) can0 1CEBFFF1#0200175EFFFDB26C
(1785793419.066183) can0 1CEBFFF1#03FF015738FFFFFF
(1785793419.092166) can0 18F015F1#0000455149884645
(1785793419.107227) can0 18FF09D1#01000B00D34CEB
(1785793419.163400) can0 1CECFFF1#20120003FF19F000
(1785793419.164199) can0 1CEBFFF1#01000B00010DCC00
(1785793419.165197) can0 1CEBFFF1#0200175EFFFDB26C
(1785793419.166269) can0 1CEBFFF1#03FF015738FFFFFF
(1785793419.192508) can0 18F015F1#0000455049874645
(1785793419.207622) can0 18FF09D1#01000B00D34CEB
(1785793419.207937) can0 18FF14D1#
(1785793419.263236) can0 1CECFFF1#20120003FF19F000
(1785793419.264519) can0 1CEBFFF1#01000B00010DCC00
(1785793419.265501) can0 1CEBFFF1#0200175EFFFDB26C
(1785793419.266259) can0 1CEBFFF1#03FF015738FFFFFF
(1785793419.292203) can0 18F015F1#0000455049874645
(1785793419.307215) can0 18FF09D1#01000B00D34CEB
(1785793419.363233) can0 1CECFFF1#20120003FF19F000
(1785793419.364178) can0 1CEBFFF1#01000B00010DCC00
(1785793419.365160) can0 1CEBFFF1#0200175EFFFDB26C
(1785793419.366180) can0 1CEBFFF1#03FF015738FFFFFF
(1785793419.392268) can0 18F015F1#0000455049884645
(1785793419.407252) can0 18FF09D1#01000B00D3BCE9
(1785793419.463244) can0 1CECFFF1#20120003FF19F000
(1785793419.464201) can0 1CEBFFF1#01000B00010DCC00
(1785793419.465154) can0 1CEBFFF1#0200175EFFFDB26C
(1785793419.466185) can0 1CEBFFF1#03FF015738FFFFFF
(1785793419.492203) can0 18F015F1#0000455049874645
(1785793419.507292) can0 18FF09D1#01000B00D3BCE9
(1785793419.563263) can0 1CECFFF1#20120003FF19F000
(1785793419.564163) can0 1CEBFFF1#01000B00010DCC00
(1785793419.565143) can0 1CEBFFF1#0200175EFFFDB26C
(1785793419.566203) can0 1CEBFFF1#03FF015738FFFFFF
(1785793419.592166) can0 18F015F1#0000455049874645
(1785793419.607258) can0 18FF09D1#01000B00D3BCE9
(1785793419.664294) can0 1CECFFF1#20120003FF19F000
(1785793419.665180) can0 1CEBFFF1#01000B00010DCC00
(1785793419.666201) can0 1CEBFFF1#0200175EFFFDB26C
(1785793419.667179) can0 1CEBFFF1#03FF015738FFFFFF
(1785793419.693234) can0 18F015F1#0000455049874645
(1785793419.707269) can0 18FF09D1#01000B00D3BCE9
(1785793419.707596) can0 18FF14D1#
(1785793419.763265) can0 1CECFFF1#20120003FF19F000
(1785793419.764181) can0 1CEBFFF1#01000B00010DCC00
(1785793419.765163) can0 1CEBFFF1#0200175EFFFDB26C
(1785793419.766200) can0 1CEBFFF1#03FF015738FFFFFF
(1785793419.793262) can0 18F015F1#0000455049874645
(1785793419.803148) can0 18F017F1#EB6F00F497C7
(1785793419.803577) can0 18F018F1#E95EFEBA9440
(1785793419.807168) can0 18FF09D1#01000B00D3BCE9
(1785793419.864348) can0 1CECFFF1#20120003FF19F000
(1785793419.865184) can0 1CEBFFF1#01000B00010DCC00
(1785793419.866284) can0 1CEBFFF1#0200175EFFFDB26C
(1785793419.867196) can0 1CEBFFF1#03FF015738FFFFFF
(1785793419.893353) can0 18F015F1#0000455049874645
(1785793419.907364) can0 18FF09D1#01000B00D3BCE9
(1785793419.964375) can0 1CECFFF1#20120003FF19F000
(1785793419.965191) can0 1CEBFFF1#01000B00010DCC00
(1785793419.966228) can0 1CEBFFF1#0200175EFFFDB26C
(1785793419.967249) can0 1CEBFFF1#03FF015738FFFFFF
(1785793419.993180) can0 18F015F1#0000455049874645
(1785793420.007209) can0 18FF09D1#01000B00D3BCE9
(1785793420.064238) can0 1CECFFF1#20120003FF19F000
(1785793420.065173) can0 1CEBFFF1#01000B00010DCC00
(1785793420.066179) can0 1CEBFFF1#0200175EFFFDB26C
(1785793420.067180) can0 1CEBFFF1#03FF015738FFFFFF
(1785793420.093189) can0 18F015F1#0000455049874645
(1785793420.107170) can0 18FF09D1#01000B00D3BCE9
(1785793420.164420) can0 1CECFFF1#20120003FF19F000
(1785793420.165230) can0 1CEBFFF1#01000B00010DCC00
(1785793420.166272) can0 1CEBFFF1#0200175EFFFDB26C
(1785793420.167236) can0 1CEBFFF1#03FF015738FFFFFF
(1785793420.193419) can0 18F015F1#0000455049874645
(1785793420.207575) can0 18FF09D1#01000B00D3BCE9
(1785793420.207883) can0 18FF14D1#
(1785793420.208156) can0 18FF16D1#01000B0064
(1785793420.264210) can0 1CECFFF1#20120003FF19F000
(1785793420.265168) can0 1CEBFFF1#01000B00010DCC00
(1785793420.266170) can0 1CEBFFF1#0200175EFFFDB26C
(1785793420.267171) can0 1CEBFFF1#03FF015738FFFFFF
(1785793420.293227) can0 18F015F1#0000455049874645
(1785793420.307154) can0 18FF09D1#01000B00D3BCE9
(1785793420.364234) can0 1CECFFF1#20120003FF19F000
(1785793420.365180) can0 1CEBFFF1#01000B00010DCC00
(1785793420.366178) can0 1CEBFFF1#0200175EFFFDB26C
(1785793420.367184) can0 1CEBFFF1#03FF015738FFFFFF
(1785793420.393175) can0 18F015F1#0000455049874645
(1785793420.407146) can0 18FF09D1#01000B00D34CEB
(1785793420.465263) can0 1CECFFF1#20120003FF19F000
(1785793420.466204) can0 1CEBFFF1#01000B00010DCC00
(1785793420.467175) can0 1CEBFFF1#0200175EFFFDB26C
(1785793420.468184) can0 1CEBFFF1#03FF015738FFFFFF
(1785793420.494339) can0 18F015F1#0000455049874645
(1785793420.507284) can0 18FF09D1#01000B00D34CEB
(1785793420.565237) can0 1CECFFF1#20120003FF19F000
(1785793420.566182) can0 1CEBFFF1#01000B00010DCC00
(1785793420.567198) can0 1CEBFFF1#0200175EFFFDB26C
(1785793420.568183) can0 1CEBFFF1#03FF015738FFFFFF
(1785793420.594165) can0 18F015F1#0000455049874645
(1785793420.607163) can0 18FF09D1#01000B00D34CEB
(1785793420.665236) can0 1CECFFF1#20120003FF19F000
(1785793420.666182) can0 1CEBFFF1#01000B00010DCC00
(1785793420.667160) can0 1CEBFFF1#0200175EFFFDB26C
(1785793420.668174) can0 1CEBFFF1#03FF015738FFFFFF
(1785793420.694181) can0 18F015F1#0000455049874645
(1785793420.707185) can0 18FF09D1#01000B00D34CEB
(1785793420.707440) can0 18FF14D1#
(1785793420.765219) can0 1CECFFF1#20120003FF19F000
(1785793420.766190) can0 1CEBFFF1#01000B00010DCC00
(1785793420.767204) can0 1CEBFFF1#0200175EFFFDB26C
(1785793420.768205) can0 1CEBFFF1#03FF015738FFFFFF
(1785793420.794176) can0 18F015F1#0000455049874645
(1785793420.804137) can0 18F017F1#EB6F00F497C7
(1785793420.804585) can0 18F018F1#E95EFEBA9440
(1785793420.807134) can0 18FF09D1#01000B00D34CEB
(1785793420.865482) can0 1CECFFF1#20120003FF19F000
(1785793420.866317) can0 1CEBFFF1#01000B00010DCC00
(1785793420.867220) can0 1CEBFFF1#0200175EFFFDB26C
(1785793420.868205) can0 1CEBFFF1#03FF015738FFFFFF
(1785793420.894448) can0 18F015F1#0000455049874645
(1785793420.907224) can0 18FF09D1#01000B00D34CEB
(1785793420.965237) can0 1CECFFF1#20120003FF19F000
(1785793420.966201) can0 1CEBFFF1#01000B00010DCC00
(1785793420.967172) can0 1CEBFFF1#0200175EFFFDB26C
(1785793420.968192) can0 1CEBFFF1#03FF015738FFFFFF
(1785793420.994178) can0 18F015F1#0000454F49874645
(1785793421.007114) can0 18FF09D1#01000B00D34CEB
(1785793421.065228) can0 1CECFFF1#20120003FF19F000
(1785793421.066187) can0 1CEBFFF1#01000B00010DCC00
(1785793421.067173) can0 1CEBFFF1#0200175EFFFDB26C
(1785793421.068185) can0 1CEBFFF1#03FF015738FFFFFF
(1785793421.094305) can0 18F015F1#0000454F49874645
(1785793421.107132) can0 18FF09D1#01000B00D34CEB
(1785793421.165382) can0 1CECFFF1#20120003FF19F000
(1785793421.166237) can0 1CEBFFF1#01000B00010DCC00
(1785793421.167232) can0 1CEBFFF1#0200175EFFFDB26C
(1785793421.168256) can0 1CEBFFF1#03FF0097F9FFFFFF
(1785793421.194422) can0 18F015F1#0000455049874645
(1785793421.207258) can0 18FF09D1#01000B00D34CEB
(1785793421.207536) can0 18FF14D1#
(1785793421.266567) can0 1CECFFF1#20120003FF19F000
(1785793421.267192) can0 1CEBFFF1#01000B00010DCC00
(1785793421.268169) can0 1CEBFFF1#0200175EFFFDB26C
(1785793421.269191) can0 1CEBFFF1#03FF0097F9FFFFFF
(1785793421.295219) can0 18F015F1#0000454F49874645
(1785793421.307156) can0 18FF09D1#01000B00D34CEB
(1785793421.366250) can0 1CECFFF1#20120003FF19F000
(1785793421.367196) can0 1CEBFFF1#01000B00010DCC00
(1785793421.368178) can0 1CEBFFF1#0200175EFFFDB26C
(1785793421.369193) can0 1CEBFFF1#03FF0097F9FFFFFF
(1785793421.395249) can0 18F015F1#0000454F49874645
(1785793421.407205) can0 18FF09D1#01000B00D34CEB
(1785793421.466265) can0 1CECFFF1#20120003FF19F000
(1785793421.467212) can0 1CEBFFF1#01000B00010DCC00
(1785793421.468273) can0 1CEBFFF1#0200175EFFFDB26C
(1785793421.469191) can0 1CEBFFF1#03FF0097F9FFFFFF
(1785793421.495249) can0 18F015F1#0000454F49874645
(1785793421.507203) can0 18FF09D1#01000B00D34CEB
(1785793421.566368) can0 1CECFFF1#20120003FF19F000
(1785793421.567183) can0 1CEBFFF1#01000B00010DCC00
(1785793421.568164) can0 1CEBFFF1#0200175EFFFDB26C
(1785793421.569181) can0 1CEBFFF1#03FF0097F9FFFFFF
(1785793421.595199) can0 18F015F1#0000454F49874645
(1785793421.607134) can0 18FF09D1#01000B00D34CEB
(1785793421.666250) can0 1CECFFF1#20120003FF19F000
(1785793421.667192) can0 1CEBFFF1#01000B00010DCC00
(1785793421.668180) can0 1CEBFFF1#0200175EFFFDB26C
(1785793421.669196) can0 1CEBFFF1#03FF0097F9FFFFFF
(1785793421.695178) can0 18F015F1#0000454F49874645
(1785793421.707182) can0 18FF09D1#01000B00D34CEB
(1785793421.707436) can0 18FF14D1#
(1785793421.766218) can0 1CECFFF1#20120003FF19F000
(1785793421.767225) can0 1CEBFFF1#01000B00010DCC00
(1785793421.768192) can0 1CEBFFF1#0200175EFFFDB26C
(1785793421.769199) can0 1CEBFFF1#03FF0097F9FFFFFF
(1785793421.795174) can0 18F015F1#0000454F49874645
(1785793421.806156) can0 18F017F1#EC3602AC97E6
(1785793421.806606) can0 18F018F1#E93FFF8394FC
(1785793421.807486) can0 18FF09D1#01000B00D34CEB
(1785793421.866460) can0 1CECFFF1#20120003FF19F000
(1785793421.867307) can0 1CEBFFF1#01000B00010DCC00
(1785793421.868294) can0 1CEBFFF1#0200175EFFFDB26C
(1785793421.869274) can0 1CEBFFF1#03FF0097F9FFFFFF
(1785793421.895230) can0 18F015F1#0000454F49864645
(1785793421.907144) can0 18FF09D1#01000B00D320EA
(1785793421.966260) can0 1CECFFF1#20120003FF19F000
(1785793421.967198) can0 1CEBFFF1#01000B00010DCC00
(1785793421.968176) can0 1CEBFFF1#0200175EFFFDB26C
(1785793421.969194) can0 1CEBFFF1#03FF0097F9FFFFFF
(1785793421.995194) can0 18F015F1#0000454F49874645
(1785793422.007109) can0 18FF09D1#01000B00D320EA
(1785793422.067262) can0 1CECFFF1#20120003FF19F000
(1785793422.068185) can0 1CEBFFF1#01000B00010DCC00
(1785793422.069167) can0 1CEBFFF1#0200175EFFFDB26C
(1785793422.070188) can0 1CEBFFF1#03FF0097F9FFFFFF
(1785793422.096187) can0 18F015F1#0000454F49874645
(1785793422.107107) can0 18FF09D1#01000B00D320EA
(1785793422.167327) can0 1CECFFF1#20120003FF19F000
(1785793422.168225) can0 1CEBFFF1#01000B00010DCC00
(1785793422.169206) can0 1CEBFFF1#0200175EFFFDB26C
(1785793422.170235) can0 1CEBFFF1#03FF0097F9FFFFFF
(1785793422.196459) can0 18F015F1#0000454F49864645
(1785793422.207319) can0 18FF09D1#01000B00D320EA
(1785793422.207596) can0 18FF14D1#
(1785793422.267221) can0 1CECFFF1#20120003FF19F000
(1785793422.268184) can0 1CEBFFF1#01000B00010DCC00
(1785793422.269171) can0 1CEBFFF1#0200175EFFFDB26C
(1785793422.270190) can0 1CEBFFF1#03FF0097F9FFFFFF
(1785793422.296388) can0 18F015F1#0000454F49874645
(1785793422.307126) can0 18FF09D1#01000B00D320EA
(1785793422.367237) can0 1CECFFF1#20120003FF19F000
(1785793422.368197) can0 1CEBFFF1#01000B00010DCC00
(1785793422.369183) can0 1CEBFFF1#0200175EFFFDB26C
(1785793422.370200) can0 1CEBFFF1#03FF0097F9FFFFFF
(1785793422.396185) can0 18F015F1#0000454F49874645
(1785793422.407093) can0 18FF09D1#01000B00D320EA
(1785793422.467261) can0 1CECFFF1#20120003FF19F000
(1785793422.468185) can0 1CEBFFF1#01000B00010DCC00
(1785793422.469172) can0 1CEBFFF1#0200175EFFFDB26C
(1785793422.470192) can0 1CEBFFF1#03FF0097F9FFFFFF
(1785793422.496355) can0 18F015F1#0000454F49864645
(1785793422.507443) can0 18FF09D1#01000B00D320EA
(1785793422.567241) can0 1CECFFF1#20120003FF19F000
(1785793422.568190) can0 1CEBFFF1#01000B00010DCC00
(1785793422.569175) can0 1CEBFFF1#0200175EFFFDB26C
(1785793422.570193) can0 1CEBFFF1#03FF0097F9FFFFFF
(1785793422.597182) can0 18F015F1#0000454F49874645
(1785793422.607096) can0 18FF09D1#01000B00D320EA
(1785793422.667255) can0 1CECFFF1#20120003FF19F000
(1785793422.668185) can0 1CEBFFF1#01000B00010DCC00
(1785793422.669172) can0 1CEBFFF1#0200175EFFFDB26C
(1785793422.670193) can0 1CEBFFF1#03FF0097F9FFFFFF
(1785793422.696182) can0 18F015F1#0000454F49874645
(1785793422.707141) can0 18FF09D1#01000B00D320EA
(1785793422.707432) can0 18FF14D1#
(1785793422.768249) can0 1CECFFF1#20120003FF19F000
(1785793422.769187) can0 1CEBFFF1#01000B00010DCC00
(1785793422.770178) can0 1CEBFFF1#0200175EFFFDB26C
(1785793422.771191) can0 1CEBFFF1#03FF0097F9FFFFFF
(1785793422.797184) can0 18F015F1#0000454F49864645
(1785793422.807079) can0 18FF09D1#01000B00D320EA
(1785793422.807543) can0 18F017F1#EC3602AC97E6
(1785793422.808018) can0 18F018F1#E93FFF8394FC
(1785793422.868307) can0 1CECFFF1#20120003FF19F000
(1785793422.869195) can0 1CEBFFF1#01000B00010DCC00
(1785793422.870299) can0 1CEBFFF1#0200175EFFFDB26C
(1785793422.871319) can0 1CEBFFF1#03FF0097F9FFFFFF
(1785793422.897346) can0 18F015F1#0000454F49874645
(1785793422.907128) can0 18FF09D1#01000B00D3B0EB
(1785793422.968262) can0 1CECFFF1#20120003FF19F000
(1785793422.969195) can0 1CEBFFF1#01000B00010DCC00
(1785793422.970179) can0 1CEBFFF1#0200175EFFFDB26C
(1785793422.971213) can0 1CEBFFF1#03FF0097F9FFFFFF
(1785793422.997201) can0 18F015F1#0000454F49874645
(1785793423.007057) can0 18FF09D1#01000B00D3B0EB
(1785793423.068235) can0 1CECFFF1#20120003FF19F000
(1785793423.069199) can0 1CEBFFF1#01000B00010DCC00
(1785793423.070183) can0 1CEBFFF1#0200175EFFFDB26C
(1785793423.071203) can0 1CEBFFF1#03FF0097F9FFFFFF
(1785793423.097190) can0 18F015F1#0000454F49864645
(1785793423.107065) can0 18FF09D1#01000B00D3B0EB
(1785793423.168373) can0 1CECFFF1#20120003FF19F000
(1785793423.169227) can0 1CEBFFF1#01000B00010DCC00
(1785793423.170228) can0 1CEBFFF1#0200175EFFFDB26C
(1785793423.171237) can0 1CEBFFF1#03FF0097F9FFFFFF
(1785793423.197394) can0 18F015F1#0000454F49874645
(1785793423.207392) can0 18FF09D1#01000B00D3B0EB
(1785793423.207868) can0 18FF14D1#
(1785793423.268241) can0 1CECFFF1#20120003FF19F000
(1785793423.269186) can0 1CEBFFF1#01000B00010DCC00
(1785793423.270171) can0 1CEBFFF1#0200175EFFFDB26C
(1785793423.271189) can0 1CEBFFF1#03FF0097F9FFFFFF
(1785793423.297369) can0 18F015F1#0000454F49874645
(1785793423.307087) can0 18FF09D1#01000B00D3B0EB
(1785793423.369248) can0 1CECFFF1#20120003FF19F000
(1785793423.370204) can0 1CEBFFF1#01000B00010DCC00
(1785793423.371193) can0 1CEBFFF1#0200175EFFFDB26C
(1785793423.372232) can0 1CEBFFF1#03FF0097F9FFFFFF
(1785793423.398285) can0 18F015F1#0000454F49864645
(1785793423.407118) can0 18FF09D1#01000B00D320EA
(1785793423.469280) can0 1CECFFF1#20120003FF19F000
(1785793423.470260) can0 1CEBFFF1#01000B00010DCC00
(1785793423.471183) can0 1CEBFFF1#0200175EFFFDB26C
(1785793423.472228) can0 1CEBFFF1#03FF0097F9FFFFFF
(1785793423.498236) can0 18F015F1#0000454F49874645
(1785793423.507153) can0 18FF09D1#01000B00D320EA
(1785793423.569364) can0 1CECFFF1#20120003FF19F000
(1785793423.570211) can0 1CEBFFF1#01000B00010DCC00
(1785793423.571189) can0 1CEBFFF1#0200175EFFFDB26C
(1785793423.572193) can0 1CEBFFF1#03FF0097F9FFFFFF
(1785793423.598212) can0 18F015F1#0000454F49874645
(1785793423.607167) can0 18FF09D1#01000B00D320EA
(1785793423.669414) can0 1CECFFF1#20120003FF19F000
(1785793423.670202) can0 1CEBFFF1#01000B00010DCC00
(1785793423.671201) can0 1CEBFFF1#0200175EFFFDB26C
(1785793423.672242) can0 1CEBFFF1#03FF0097F9FFFFFF
(1785793423.698217) can0 18F015F1#0000454E49864645
(1785793423.707134) can0 18FF09D1#01000B00D320EA
(1785793423.707387) can0 18FF14D1#
(1785793423.769278) can0 1CECFFF1#20120003FF19F000
(1785793423.770192) can0 1CEBFFF1#01000B00010DCC00
(1785793423.771178) can0 1CEBFFF1#0200175EFFFDB26C
(1785793423.772184) can0 1CEBFFF1#03FEFF47B8FFFFFF
(1785793423.798193) can0 18F015F1#0000454E49864645
(1785793423.807047) can0 18FF09D1#01000B00D320EA
(1785793423.809109) can0 18F017F1#EBDA025F983F
(1785793423.809590) can0 18F018F1#E95AFFBD947E
(1785793423.869375) can0 1CECFFF1#20120003FF19F000
(1785793423.870252) can0 1CEBFFF1#01000B00010DCC00
(1785793423.871366) can0 1CEBFFF1#0200175EFFFDB26C
(1785793423.872252) can0 1CEBFFF1#03FEFF47B8FFFFFF
(1785793423.898532) can0 18F015F1#0000454E49864645
(1785793423.907303) can0 18FF09D1#01000B00D320EA
(1785793423.969344) can0 1CECFFF1#20120003FF19F000
(1785793423.970254) can0 1CEBFFF1#01000B00010DCC00
(1785793423.972377) can0 1CEBFFF1#0200175EFFFDB26C
(1785793423.972800) can0 1CEBFFF1#03FEFF47B8FFFFFF
(1785793423.998225) can0 18F015F1#0000454E49864645
(1785793424.007070) can0 18FF09D1#01000B00D320EA
(1785793424.069268) can0 1CECFFF1#20120003FF19F000
(1785793424.070208) can0 1CEBFFF1#01000B00010DCC00
(1785793424.071182) can0 1CEBFFF1#0200175EFFFDB26C
(1785793424.072188) can0 1CEBFFF1#03FEFF47B8FFFFFF
(1785793424.098234) can0 18F015F1#0000454E49864645
(1785793424.107012) can0 18FF09D1#01000B00D320EA
(1785793424.170274) can0 1CECFFF1#20120003FF19F000
(1785793424.171222) can0 1CEBFFF1#01000B00010DCC00
(1785793424.172202) can0 1CEBFFF1#0200175EFFFDB26C
(1785793424.173211) can0 1CEBFFF1#03FEFF47B8FFFFFF
(1785793424.199342) can0 18F015F1#0000454E49864645
(1785793424.207313) can0 18FF09D1#01000B00D320EA
(1785793424.207667) can0 18FF14D1#
(1785793424.207965) can0 18FF16D1#01000B0064
(1785793424.270252) can0 1CECFFF1#20120003FF19F000
(1785793424.271192) can0 1CEBFFF1#01000B00010DCC00
(1785793424.272177) can0 1CEBFFF1#0200175EFFFDB26C
(1785793424.273196) can0 1CEBFFF1#03FEFF47B8FFFFFF
(1785793424.299192) can0 18F015F1#0000454E49864645
(1785793424.307030) can0 18FF09D1#01000B00D320EA
(1785793424.370268) can0 1CECFFF1#20120003FF19F000
(1785793424.371196) can0 1CEBFFF1#01000B00010DCC00
(1785793424.372179) can0 1CEBFFF1#0200175EFFFDB26C
(1785793424.373186) can0 1CEBFFF1#03FEFF47B8FFFFFF
(1785793424.399197) can0 18F015F1#0000454E49864645
(1785793424.407027) can0 18FF09D1#01000B00D320EA
(1785793424.470255) can0 1CECFFF1#20120003FF19F000
(1785793424.471200) can0 1CEBFFF1#01000B00010DCC00
(1785793424.472181) can0 1CEBFFF1#0200175EFFFDB26C
(1785793424.473187) can0 1CEBFFF1#03FEFF47B8FFFFFF
(1785793424.499205) can0 18F015F1#0000454E49874645
(1785793424.507018) can0 18FF09D1#01000B00D34CEB
(1785793424.570358) can0 1CECFFF1#20120003FF19F000
(1785793424.571202) can0 1CEBFFF1#01000B00010DCC00
(1785793424.572182) can0 1CEBFFF1#0200175EFFFDB26C
(1785793424.573198) can0 1CEBFFF1#03FEFF47B8FFFFFF
(1785793424.599193) can0 18F015F1#0000454E49864645
(1785793424.606986) can0 18FF09D1#01000B00D34CEB
(1785793424.670304) can0 1CECFFF1#20120003FF19F000
(1785793424.671200) can0 1CEBFFF1#01000B00010DCC00
(1785793424.672211) can0 1CEBFFF1#0200175EFFFDB26C
(1785793424.673200) can0 1CEBFFF1#03FEFF47B8FFFFFF
(1785793424.699210) can0 18F015F1#0000454E49874645
(1785793424.707060) can0 18FF09D1#01000B00D34CEB
(1785793424.707308) can0 18FF14D1#
(1785793424.770260) can0 1CECFFF1#20120003FF19F000
(1785793424.771206) can0 1CEBFFF1#01000B00010DCC00
(1785793424.772186) can0 1CEBFFF1#0200175EFFFDB26C
(1785793424.773191) can0 1CEBFFF1#03FEFF47B8FFFFFF
(1785793424.799194) can0 18F015F1#0000454E49874645
(1785793424.807006) can0 18FF09D1#01000B00D34CEB
(1785793424.810114) can0 18F017F1#EBDA025F983F
(1785793424.810586) can0 18F018F1#E95AFFBD947E
(1785793424.870342) can0 1CECFFF1#20120003FF19F000
(1785793424.871235) can0 1CEBFFF1#01000B00010DCC00
(1785793424.872218) can0 1CEBFFF1#0200175EFFFDB26C
(1785793424.873218) can0 1CEBFFF1#03FEFF47B8FFFFFF
(1785793424.899387) can0 18F015F1#0000454E49864645
(1785793424.907147) can0 18FF09D1#01000B00D34CEB
(1785793424.971248) can0 1CECFFF1#20120003FF19F000
(1785793424.972200) can0 1CEBFFF1#01000B00010DCC00
(1785793424.973184) can0 1CEBFFF1#0200175EFFFDB26C
(1785793424.974195) can0 1CEBFFF1#03FEFF47B8FFFFFF
(1785793425.000239) can0 18F015F1#0000454E49874645
(1785793425.006989) can0 18FF09D1#01000B00D34CEB
(1785793425.071266) can0 1CECFFF1#20120003FF19F000
(1785793425.072207) can0 1CEBFFF1#01000B00010DCC00
(1785793425.073187) can0 1CEBFFF1#0200175EFFFDB26C
(1785793425.074195) can0 1CEBFFF1#03FEFF47B8FFFFFF
(1785793425.100209) can0 18F015F1#0000454E49874645
(1785793425.106987) can0 18FF09D1#01000B00D34CEB
(1785793425.171266) can0 1CECFFF1#20120003FF19F000
(1785793425.172213) can0 1CEBFFF1#01000B00010DCC00
(1785793425.173204) can0 1CEBFFF1#0200175EFFFDB26C
(1785793425.174203) can0 1CEBFFF1#03FEFF47B8FFFFFF
(1785793425.200324) can0 18F015F1#0000454E49874645
(1785793425.207137) can0 18FF09D1#01000B00D34CEB
(1785793425.207404) can0 18FF14D1#
(1785793425.271354) can0 1CECFFF1#20120003FF19F000
(1785793425.272206) can0 1CEBFFF1#01000B00010DCC00
(1785793425.273185) can0 1CEBFFF1#0200175EFFFDB26C
(1785793425.274194) can0 1CEBFFF1#03FEFF47B8FFFFFF
(1785793425.300194) can0 18F015F1#0000454E49874645
(1785793425.306973) can0 18FF09D1#01000B00D34CEB
(1785793425.371276) can0 1CECFFF1#20120003FF19F000
(1785793425.372204) can0 1CEBFFF1#01000B00010DCC00
(1785793425.373202) can0 1CEBFFF1#0200175EFFFDB26C
(1785793425.374203) can0 1CEBFFF1#03FEFF47B8FFFFFF
(1785793425.400305) can0 18F015F1#0000454E49874645
(1785793425.407047) can0 18FF09D1#01000B00D34CEB
(1785793425.471267) can0 1CECFFF1#20120003FF19F000
(1785793425.472205) can0 1CEBFFF1#01000B00010DCC00
(1785793425.473200) can0 1CEBFFF1#0200175EFFFDB26C
(1785793425.474201) can0 1CEBFFF1#03FEFF47B8FFFFFF
(1785793425.500213) can0 18F015F1#0000454D49874645
(1785793425.507027) can0 18FF09D1#01000B00D320EA
(1785793425.571327) can0 1CECFFF1#20120003FF19F000
(1785793425.572213) can0 1CEBFFF1#01000B00010DCC00
(1785793425.573189) can0 1CEBFFF1#0200175EFFFDB26C
(1785793425.574200) can0 1CEBFFF1#03FEFE8779FFFFFF
(1785793425.600257) can0 18F015F1#0000454D49874645
(1785793425.607011) can0 18FF09D1#01000B00D320EA
(1785793425.672340) can0 1CECFFF1#20120003FF19F000
(1785793425.673208) can0 1CEBFFF1#01000B00010DCC00
(1785793425.674201) can0 1CEBFFF1#0200175EFFFDB26C
(1785793425.675203) can0 1CEBFFF1#03FEFE8779FFFFFF
(1785793425.701225) can0 18F015F1#0000454D49874645
(1785793425.707019) can0 18FF09D1#01000B00D320EA
(1785793425.707267) can0 18FF14D1#
(1785793425.772297) can0 1CECFFF1#20120003FF19F000
(1785793425.773206) can0 1CEBFFF1#01000B00010DCC00
(1785793425.774191) can0 1CEBFFF1#0200175EFFFDB26C
(1785793425.775203) can0 1CEBFFF1#03FEFE8779FFFFFF
(1785793425.801239) can0 18F015F1#0000454D49874645
(1785793425.807013) can0 18FF09D1#01000B00D320EA
(1785793425.811136) can0 18F017F1#EBE202CC98E7
(1785793425.811580) can0 18F018F1#E951FF4494E1
(1785793425.872385) can0 1CECFFF1#20120003FF19F000
(1785793425.873252) can0 1CEBFFF1#01000B00010DCC00
(1785793425.874245) can0 1CEBFFF1#0200175EFFFDB26C
(1785793425.875266) can0 1CEBFFF1#03FEFE8779FFFFFF
(1785793425.901718) can0 18F015F1#0000454D49874645
(1785793425.907157) can0 18FF09D1#01000B00D320EA
(1785793425.972390) can0 1CECFFF1#20120003FF19F000
(1785793425.973210) can0 1CEBFFF1#01000B00010DCC00
(1785793425.974193) can0 1CEBFFF1#0200175EFFFDB26C
(1785793425.975200) can0 1CEBFFF1#03FEFE8779FFFFFF
(1785793426.001303) can0 18F015F1#0000454D49874645
(1785793426.007039) can0 18FF09D1#01000B00D320EA
(1785793426.072280) can0 1CECFFF1#20120003FF19F000
(1785793426.073211) can0 1CEBFFF1#01000B00010DCC00
(1785793426.074196) can0 1CEBFFF1#0200175EFFFDB26C
(1785793426.075212) can0 1CEBFFF1#03FEFE8779FFFFFF
(1785793426.101208) can0 18F015F1#0000454D49874645
(1785793426.106955) can0 18FF09D1#01000B00D320EA
(1785793426.172243) can0 1CECFFF1#20120003FF19F000
(1785793426.173208) can0 1CEBFFF1#01000B00010DCC00
(1785793426.174195) can0 1CEBFFF1#0200175EFFFDB26C
(1785793426.175210) can0 1CEBFFF1#03FEFE8779FFFFFF
(1785793426.201240) can0 18F015F1#0000454D49874645
(1785793426.207219) can0 18FF09D1#01000B00D320EA
(1785793426.207492) can0 18FF14D1#
(1785793426.207882) can0 18FF16D1#01000B0064
(1785793426.273371) can0 1CECFFF1#20120003FF19F000
(1785793426.274210) can0 1CEBFFF1#01000B00010DCC00
(1785793426.275195) can0 1CEBFFF1#0200175EFFFDB26C
(1785793426.276212) can0 1CEBFFF1#03FEFE8779FFFFFF
(1785793426.301203) can0 18F015F1#0000454D49874645
(1785793426.306965) can0 18FF09D1#01000B00D320EA
(1785793426.372277) can0 1CECFFF1#20120003FF19F000
(1785793426.373218) can0 1CEBFFF1#01000B00010DCC00
(1785793426.374200) can0 1CEBFFF1#0200175EFFFDB26C
(1785793426.375209) can0 1CEBFFF1#03FEFE8779FFFFFF
(1785793426.401224) can0 18F015F1#0000454D49864645
(1785793426.406965) can0 18FF09D1#01000B00D320EA
(1785793426.473280) can0 1CECFFF1#20120003FF19F000
(1785793426.474211) can0 1CEBFFF1#01000B00010DCC00
(1785793426.475199) can0 1CEBFFF1#0200175EFFFDB26C
(1785793426.476214) can0 1CEBFFF1#03FEFE8779FFFFFF
(1785793426.502203) can0 18F015F1#0000454D49874645
(1785793426.506940) can0 18FF09D1#01000B00D320EA
(1785793426.573364) can0 1CECFFF1#20120003FF19F000
(1785793426.574211) can0 1CEBFFF1#01000B00010DCC00
(1785793426.575198) can0 1CEBFFF1#0200175EFFFDB26C
(1785793426.576212) can0 1CEBFFF1#03FEFE8779FFFFFF
(1785793426.602292) can0 18F015F1#0000454D49874645
(1785793426.606938) can0 18FF09D1#01000B00D320EA
(1785793426.673414) can0 1CECFFF1#20120003FF19F000
(1785793426.674283) can0 1CEBFFF1#01000B00010DCC00
(1785793426.675232) can0 1CEBFFF1#0200175EFFFDB26C
(1785793426.676273) can0 1CEBFFF1#03FEFE8779FFFFFF
(1785793426.702241) can0 18F015F1#0000454D49874645
(1785793426.707019) can0 18FF09D1#01000B00D320EA
(1785793426.707276) can0 18FF14D1#
(1785793426.773264) can0 1CECFFF1#20120003FF19F000
(1785793426.774222) can0 1CEBFFF1#01000B00010DCC00
(1785793426.775209) can0 1CEBFFF1#0200175EFFFDB26C
(1785793426.776219) can0 1CEBFFF1#03FEFE8779FFFFFF
(1785793426.802209) can0 18F015F1#0000454D49874645
(1785793426.806957) can0 18FF09D1#01000B00D320EA
(1785793426.813138) can0 18F017F1#EBE202CC98E7
(1785793426.813589) can0 18F018F1#E951FF4494E1
(1785793426.873363) can0 1CECFFF1#20120003FF19F000
(1785793426.874230) can0 1CEBFFF1#01000B00010DCC00
(1785793426.875220) can0 1CEBFFF1#0200175EFFFDB26C
(1785793426.876248) can0 1CEBFFF1#03FEFE8779FFFFFF
(1785793426.902650) can0 18F015F1#0000454D49874645
(1785793426.907127) can0 18FF09D1#01000B00D320EA
(1785793426.973259) can0 1CECFFF1#20120003FF19F000
(1785793426.974210) can0 1CEBFFF1#01000B00010DCC00
(1785793426.975195) can0 1CEBFFF1#0200175EFFFDB26C
(1785793426.976224) can0 1CEBFFF1#03FEFE8779FFFFFF
(1785793427.002241) can0 18F015F1#0000454D49874645
(1785793427.007094) can0 18FF09D1#01000B00D34CEB
(1785793427.074289) can0 1CECFFF1#20120003FF19F000
(1785793427.075228) can0 1CEBFFF1#01000B00010DCC00
(1785793427.076216) can0 1CEBFFF1#0200175EFFFDB26C
(1785793427.077228) can0 1CEBFFF1#03FEFE8779FFFFFF
(1785793427.103244) can0 18F015F1#0000454D49874645
(1785793427.106936) can0 18FF09D1#01000B00D34CEB
(1785793427.174255) can0 1CECFFF1#20120003FF19F000
(1785793427.175228) can0 1CEBFFF1#01000B00010DCC00
(1785793427.176216) can0 1CEBFFF1#0200175EFFFDB26C
(1785793427.177232) can0 1CEBFFF1#03FEFE8779FFFFFF
(1785793427.203240) can0 18F015F1#0000454D49874645
(1785793427.207007) can0 18FF09D1#01000B00D34CEB
(1785793427.207267) can0 18FF14D1#
(1785793427.274354) can0 1CECFFF1#20120003FF19F000
(1785793427.275223) can0 1CEBFFF1#01000B00010DCC00
(1785793427.276226) can0 1CEBFFF1#0200175EFFFDB26C
(1785793427.277215) can0 1CEBFFF1#03FEFE8779FFFFFF
(1785793427.303238) can0 18F015F1#0000454D49864645
(1785793427.306904) can0 18FF09D1#01000B00D34CEB
(1785793427.374302) can0 1CECFFF1#20120003FF19F000
(1785793427.375219) can0 1CEBFFF1#01000B00010DCC00
(1785793427.376209) can0 1CEBFFF1#0200175EFFFDB26C
(1785793427.377216) can0 1CEBFFF1#03FEFE8779FFFFFF
(1785793427.403540) can0 18F015F1#0000454D49874645
(1785793427.406956) can0 18FF09D1#01000B00D34CEB
(1785793427.474289) can0 1CECFFF1#20120003FF19F000
(1785793427.475231) can0 1CEBFFF1#01000B00010DCC00
(1785793427.476208) can0 1CEBFFF1#0200175EFFFDB26C
(1785793427.477216) can0 1CEBFFF1#03FEFE8779FFFFFF
(1785793427.503223) can0 18F015F1#0000454D49874645
(1785793427.506934) can0 18FF09D1#01000B00D34CEB
(1785793427.574331) can0 1CECFFF1#20120003FF19F000
(1785793427.575256) can0 1CEBFFF1#01000B00010DCC00
(1785793427.576253) can0 1CEBFFF1#0200175EFFFDB26C
(1785793427.577241) can0 1CEBFFF1#03FEFE8779FFFFFF
(1785793427.603385) can0 18F015F1#0000454D49874645
(1785793427.606995) can0 18FF09D1#01000B00D34CEB
(1785793427.674442) can0 1CECFFF1#20120003FF19F000
(1785793427.675442) can0 1CEBFFF1#01000B00010DCC00
(1785793427.676273) can0 1CEBFFF1#0200175EFFFDB26C
(1785793427.677238) can0 1CEBFFF1#03FEFD8639FFFFFF
(1785793427.703258) can0 18F015F1#0000454C49874645
(1785793427.706955) can0 18FF09D1#01000B00D34CEB
(1785793427.707204) can0 18FF14D1#
(1785793427.774279) can0 1CECFFF1#20120003FF19F000
(1785793427.775219) can0 1CEBFFF1#01000B00010DCC00
(1785793427.776213) can0 1CEBFFF1#0200175EFFFDB26C
(1785793427.777214) can0 1CEBFFF1#03FEFD8639FFFFFF
(1785793427.803214) can0 18F015F1#0000454C49874645
(1785793427.806905) can0 18FF09D1#01000B00D34CEB
(1785793427.814137) can0 18F017F1#EBE801C29748
(1785793427.814600) can0 18F018F1#E939FF0994A5
(1785793427.875376) can0 1CECFFF1#20120003FF19F000
(1785793427.876293) can0 1CEBFFF1#01000B00010DCC00
(1785793427.877238) can0 1CEBFFF1#0200175EFFFDB26C
(1785793427.878246) can0 1CEBFFF1#03FEFD8639FFFFFF
(1785793427.904367) can0 18F015F1#0000454C49874645
(1785793427.907136) can0 18FF09D1#01000B00D34CEB
(1785793427.975277) can0 1CECFFF1#20120003FF19F000
(1785793427.976223) can0 1CEBFFF1#01000B00010DCC00
(1785793427.977213) can0 1CEBFFF1#0200175EFFFDB26C
(1785793427.978214) can0 1CEBFFF1#03FEFD8639FFFFFF
(1785793428.004258) can0 18F015F1#0000454C49874645
(1785793428.007192) can0 18FF09D1#01000B00D34CEB
(1785793428.041281) can0 18FF09D1#01000A00CFD4E6
(1785793428.075311) can0 1CECFFF1#20120003FF19F000
(1785793428.076303) can0 1CEBFFF1#01000B00010DCC00
(1785793428.077219) can0 1CEBFFF1#0200175EFFFDB26C
(1785793428.078229) can0 1CEBFFF1#03FEFD8639FFFFFF
(1785793428.104274) can0 18F015F1#0000454C49874645
(1785793428.106887) can0 18FF09D1#01000B00D34CEB
(1785793428.175296) can0 1CECFFF1#20120003FF19F000
(1785793428.176227) can0 1CEBFFF1#01000B00010DCC00
(1785793428.177207) can0 1CEBFFF1#0200175EFFFDB26C
(1785793428.178215) can0 1CEBFFF1#03FEFD8639FFFFFF
(1785793428.204232) can0 18F015F1#0000454C49874645
(1785793428.207080) can0 18FF09D1#01000B00D34CEB
(1785793428.207337) can0 18FF14D1#
(1785793428.207795) can0 18FF16D1#01000B0064
(1785793428.275348) can0 1CECFFF1#20120003FF19F000
(1785793428.276268) can0 1CEBFFF1#01000B00010DCC00
(1785793428.277207) can0 1CEBFFF1#0200175EFFFDB26C
(1785793428.278212) can0 1CEBFFF1#03FEFD8639FFFFFF
(1785793428.304291) can0 18F015F1#0000454C49874644
(1785793428.306887) can0 18FF09D1#01000B00D34CEB
(1785793428.375284) can0 1CECFFF1#20120003FF19F000
(1785793428.376240) can0 1CEBFFF1#01000B00010DCC00
(1785793428.377211) can0 1CEBFFF1#0200175EFFFDB26C
(1785793428.378217) can0 1CEBFFF1#03FEFD8639FFFFFF
(1785793428.404223) can0 18F015F1#0000454C49874644
(1785793428.406899) can0 18FF09D1#01000B00D34CEB
(1785793428.475297) can0 1CECFFF1#20120003FF19F000
(1785793428.476233) can0 1CEBFFF1#01000B00010DCC00
(1785793428.477215) can0 1CEBFFF1#0200175EFFFDB26C
(1785793428.478220) can0 1CEBFFF1#03FEFD8639FFFFFF
(1785793428.504211) can0 18F015F1#0000454C49874644
(1785793428.506867) can0 18FF09D1#01000B00D34CEB
(1785793428.575398) can0 1CECFFF1#20120003FF19F000
(1785793428.576232) can0 1CEBFFF1#01000B00010DCC00
(1785793428.577222) can0 1CEBFFF1#0200175EFFFDB26C
(1785793428.578217) can0 1CEBFFF1#03FEFD8639FFFFFF
(1785793428.604230) can0 18F015F1#0000454C49874644
(1785793428.606882) can0 18FF09D1#01000B00D34CEB
(1785793428.676290) can0 1CECFFF1#20120003FF19F000
(1785793428.677346) can0 1CEBFFF1#01000B00010DCC00
(1785793428.678292) can0 1CEBFFF1#0200175EFFFDB26C
(1785793428.679357) can0 1CEBFFF1#03FEFD8639FFFFFF
(1785793428.705256) can0 18F015F1#0000454C49874644
(1785793428.706943) can0 18FF09D1#01000B00D34CEB
(1785793428.707246) can0 18FF14D1#
(1785793428.776284) can0 1CECFFF1#20120003FF19F000
(1785793428.777228) can0 1CEBFFF1#01000B00010DCC00
(1785793428.778218) can0 1CEBFFF1#0200175EFFFDB26C
(1785793428.779221) can0 1CEBFFF1#03FEFD8639FFFFFF
(1785793428.805228) can0 18F015F1#0000454C49874644
(1785793428.806886) can0 18FF09D1#01000B00D34CEB
(1785793428.816161) can0 18F017F1#EBE801C29748
(1785793428.816604) can0 18F018F1#E939FF0994A5
(1785793428.876309) can0 1CECFFF1#20120003FF19F000
(1785793428.877256) can0 1CEBFFF1#01000B00010DCC00
(1785793428.878229) can0 1CEBFFF1#0200175EFFFDB26C
(1785793428.879237) can0 1CEBFFF1#03FEFC46F8FFFFFF
(1785793428.905432) can0 18F015F1#0000454C49874644
(1785793428.906891) can0 18FF09D1#01000B00D34CEB
(1785793428.942598) can0 18FF09D1#01000B00CFD4E6
(1785793428.976286) can0 1CECFFF1#20120003FF19F000
(1785793428.977231) can0 1CEBFFF1#01000B00010DCC00
(1785793428.978211) can0 1CEBFFF1#0200175EFFFDB26C
(1785793428.979324) can0 1CEBFFF1#03FEFC46F8FFFFFF
(1785793429.005252) can0 18F015F1#0000454C49874644
(1785793429.006874) can0 18FF09D1#01000B00D320EA
(1785793429.076312) can0 1CECFFF1#20120003FF19F000
(1785793429.077234) can0 1CEBFFF1#01000B00010DCC00
(1785793429.078225) can0 1CEBFFF1#0200175EFFFDB26C
(1785793429.079232) can0 1CEBFFF1#03FEFC46F8FFFFFF
(1785793429.105242) can0 18F015F1#0000454B49874644
(1785793429.106878) can0 18FF09D1#01000B00D320EA
(1785793429.176285) can0 1CECFFF1#20120003FF19F000
(1785793429.177247) can0 1CEBFFF1#01000B00010DCC00
(1785793429.178225) can0 1CEBFFF1#0200175EFFFDB26C
(1785793429.179233) can0 1CEBFFF1#03FEFC46F8FFFFFF
(1785793429.205257) can0 18F015F1#0000454B49874644
(1785793429.206959) can0 18FF09D1#01000B00D320EA
(1785793429.207252) can0 18FF14D1#
(1785793429.276331) can0 1CECFFF1#20120003FF19F000
(1785793429.277241) can0 1CEBFFF1#01000B00010DCC00
(1785793429.278243) can0 1CEBFFF1#0200175EFFFDB26C
(1785793429.279223) can0 1CEBFFF1#03FEFC46F8FFFFFF
(1785793429.305288) can0 18F015F1#0000454B49874645
(1785793429.306865) can0 18FF09D1#01000B00D320EA
(1785793429.377312) can0 1CECFFF1#20120003FF19F000
(1785793429.378234) can0 1CEBFFF1#01000B00010DCC00
(1785793429.379216) can0 1CEBFFF1#0200175EFFFDB26C
(1785793429.380232) can0 1CEBFFF1#03FEFC46F8FFFFFF
(1785793429.406343) can0 18F015F1#0000454B49874644
(1785793429.406865) can0 18FF09D1#01000B00D320EA
(1785793429.477296) can0 1CECFFF1#20120003FF19F000
(1785793429.478244) can0 1CEBFFF1#01000B00010DCC00
(1785793429.479218) can0 1CEBFFF1#0200175EFFFDB26C
(1785793429.480226) can0 1CEBFFF1#03FEFC46F8FFFFFF
(1785793429.506242) can0 18F015F1#0000454B49874644
(1785793429.506868) can0 18FF09D1#01000B00D34CEB
(1785793429.577368) can0 1CECFFF1#20120003FF19F000
(1785793429.578268) can0 1CEBFFF1#01000B00010DCC00
(1785793429.579253) can0 1CEBFFF1#0200175EFFFDB26C
(1785793429.580363) can0 1CEBFFF1#03FEFC46F8FFFFFF
(1785793429.606342) can0 18F015F1#0000454B49874645
(1785793429.606849) can0 18FF09D1#01000B00D34CEB
(1785793429.677288) can0 1CECFFF1#20120003FF19F000
(1785793429.678231) can0 1CEBFFF1#01000B00010DCC00
(1785793429.679216) can0 1CEBFFF1#0200175EFFFDB26C
(1785793429.680228) can0 1CEBFFF1#03FEFC46F8FFFFFF
(1785793429.706273) can0 18F015F1#0000454B49874644
(1785793429.706859) can0 18FF09D1#01000B00D34CEB
(1785793429.707118) can0 18FF14D1#
(1785793429.777296) can0 1CECFFF1#20120003FF19F000
(1785793429.778239) can0 1CEBFFF1#01000B00010DCC00
(1785793429.779229) can0 1CEBFFF1#0200175EFFFDB26C
(1785793429.780230) can0 1CEBFFF1#03FEFC46F8FFFFFF
(1785793429.806233) can0 18F015F1#0000454B49874644
(1785793429.806860) can0 18FF09D1#01000B00D34CEB
(1785793429.817154) can0 18F017F1#EBDE020097B8
(1785793429.817607) can0 18F018F1#E90CFF439448
(1785793429.877307) can0 1CECFFF1#20120003FF19F000
(1785793429.878252) can0 1CEBFFF1#01000B00010DCC00
(1785793429.879232) can0 1CEBFFF1#0200175EFFFDB26C
(1785793429.880239) can0 1CEBFFF1#03FEFC46F8FFFFFF
(1785793429.906386) can0 18F015F1#0000454B49874644
(1785793429.906847) can0 18FF09D1#01000B00D34CEB
(1785793429.977282) can0 1CECFFF1#20120003FF19F000
(1785793429.978233) can0 1CEBFFF1#01000B00010DCC00
(1785793429.979218) can0 1CEBFFF1#0200175EFFFDB26C
(1785793429.980247) can0 1CEBFFF1#03FEFC46F8FFFFFF
(1785793430.006271) can0 18F015F1#0000454B49874644
(1785793430.006849) can0 18FF09D1#01000B00D34CEB
(1785793430.077341) can0 1CECFFF1#20120003FF19F000
(1785793430.078239) can0 1CEBFFF1#01000B00010DCC00
(1785793430.079220) can0 1CEBFFF1#0200175EFFFDB26C
(1785793430.080230) can0 1CEBFFF1#03FEFC46F8FFFFFF
(1785793430.106853) can0 18FF09D1#01000B00D34CEB
(1785793430.107364) can0 18F015F1#0000454B49874644
(1785793430.178307) can0 1CECFFF1#20120003FF19F000
(1785793430.179251) can0 1CEBFFF1#01000B00010DCC00
(1785793430.180237) can0 1CEBFFF1#0200175EFFFDB26C
(1785793430.181244) can0 1CEBFFF1#03FEFC46F8FFFFFF
(1785793430.207024) can0 18FF09D1#01000B00D34CEB
(1785793430.207504) can0 18F015F1#0000454B49874644
(1785793430.207813) can0 18FF14D1#
(1785793430.278417) can0 1CECFFF1#20120003FF19F000
(1785793430.279243) can0 1CEBFFF1#01000B00010DCC00
(1785793430.280228) can0 1CEBFFF1#0200175EFFFDB26C
(1785793430.281234) can0 1CEBFFF1#03FEFC46F8FFFFFF
(1785793430.306930) can0 18FF09D1#01000B00D34CEB
(1785793430.307374) can0 18F015F1#0000454B49874644
(1785793430.378321) can0 1CECFFF1#20120003FF19F000
(1785793430.379245) can0 1CEBFFF1#01000B00010DCC00
(1785793430.380224) can0 1CEBFFF1#0200175EFFFDB26C
(1785793430.381249) can0 1CEBFFF1#03FEFC46F8FFFFFF
(1785793430.406854) can0 18FF09D1#01000B00D34CEB
(1785793430.407375) can0 18F015F1#0000454B49874645
(1785793430.478301) can0 1CECFFF1#20120003FF19F000
(1785793430.479241) can0 1CEBFFF1#01000B00010DCC00
(1785793430.480223) can0 1CEBFFF1#0200175EFFFDB26C
(1785793430.481232) can0 1CEBFFF1#03FEFC46F8FFFFFF
(1785793430.506845) can0 18FF09D1#01000B00D34CEB
(1785793430.507347) can0 18F015F1#0000454B49874645
(1785793430.578379) can0 1CECFFF1#20120003FF19F000
(1785793430.579261) can0 1CEBFFF1#01000B00010DCC00
(1785793430.580271) can0 1CEBFFF1#0200175EFFFDB26C
(1785793430.581270) can0 1CEBFFF1#03FEFC46F8FFFFFF
(1785793430.606933) can0 18FF09D1#01000B00D34CEB
(1785793430.607359) can0 18F015F1#0000454B49874644
(1785793430.678305) can0 1CECFFF1#20120003FF19F000
(1785793430.679239) can0 1CEBFFF1#01000B00010DCC00
(1785793430.680253) can0 1CEBFFF1#0200175EFFFDB26C
(1785793430.681232) can0 1CEBFFF1#03FEFC46F8FFFFFF
(1785793430.706933) can0 18FF09D1#01000B00D34CEB
(1785793430.707423) can0 18F015F1#0000454B49874645
(1785793430.707669) can0 18FF14D1#
(1785793430.779320) can0 1CECFFF1#20120003FF19F000
(1785793430.780242) can0 1CEBFFF1#01000B00010DCC00
(1785793430.781229) can0 1CEBFFF1#0200175EFFFDB26C
(1785793430.782262) can0 1CEBFFF1#03FEFC46F8FFFFFF
(1785793430.806822) can0 18FF09D1#01000B00D34CEB
(1785793430.808219) can0 18F015F1#0000454B49874645
(1785793430.818152) can0 18F017F1#EBDE020097B8
(1785793430.818608) can0 18F018F1#E90CFF439448
(1785793430.879290) can0 1CECFFF1#20120003FF19F000
(1785793430.880250) can0 1CEBFFF1#01000B00010DCC00
(1785793430.881255) can0 1CEBFFF1#0200175EFFFDB26C
(1785793430.882243) can0 1CEBFFF1#03FEFC46F8FFFFFF
(1785793430.906948) can0 18FF09D1#01000B00D34CEB
(1785793430.908313) can0 18F015F1#0000454B49874645
(1785793430.979296) can0 1CECFFF1#20120003FF19F000
(1785793430.980242) can0 1CEBFFF1#01000B00010DCC00
(1785793430.981230) can0 1CEBFFF1#0200175EFFFDB26C
(1785793430.982236) can0 1CEBFFF1#03FEFC46F8FFFFFF
(1785793431.006842) can0 18FF09D1#01000B00D34CEB
(1785793431.008221) can0 18F015F1#0000454B49874645
(1785793431.079312) can0 1CECFFF1#20120003FF19F000
(1785793431.080247) can0 1CEBFFF1#01000B00010DCC00
(1785793431.081231) can0 1CEBFFF1#0200175EFFFDB26C
(1785793431.082238) can0 1CEBFFF1#03FEFC46F8FFFFFF
(1785793431.106843) can0 18FF09D1#01000B00D34CEB
(1785793431.108224) can0 18F015F1#0000454B49884645
(1785793431.179286) can0 1CECFFF1#20120003FF19F000
(1785793431.180244) can0 1CEBFFF1#01000B00010DCC00
(1785793431.181231) can0 1CEBFFF1#0200175EFFFDB26C
(1785793431.182237) can0 1CEBFFF1#03FEFC46F8FFFFFF
(1785793431.206871) can0 18FF09D1#01000B00D34CEB
(1785793431.207118) can0 18FF14D1#
(1785793431.208238) can0 18F015F1#0000454B49874645
(1785793431.279485) can0 1CECFFF1#20120003FF19F000
(1785793431.280277) can0 1CEBFFF1#01000B00010DCC00
(1785793431.281236) can0 1CEBFFF1#0200175EFFFDB26C
(1785793431.282246) can0 1CEBFFF1#03FEFC46F8FFFFFF
(1785793431.306882) can0 18FF09D1#01000B00D34CEB
(1785793431.308225) can0 18F015F1#0000454B49874645
(1785793431.379334) can0 1CECFFF1#20120003FF19F000
(1785793431.380244) can0 1CEBFFF1#01000B00010DCC00
(1785793431.381229) can0 1CEBFFF1#0200175EFFFDB26C
(1785793431.382244) can0 1CEBFFF1#03FEFC46F8FFFFFF
(1785793431.406912) can0 18FF09D1#01000B00D34CEB
(1785793431.408283) can0 18F015F1#0000454B49874645
(1785793431.479360) can0 1CECFFF1#20120003FF19F000
(1785793431.480266) can0 1CEBFFF1#01000B00010DCC00
(1785793431.481257) can0 1CEBFFF1#0200175EFFFDB26C
(1785793431.482259) can0 1CEBFFF1#03FEFC46F8FFFFFF
(1785793431.506861) can0 18FF09D1#01000B00D34CEB
(1785793431.508270) can0 18F015F1#0000454B49874645
(1785793431.580339) can0 1CECFFF1#20120003FF19F000
(1785793431.581267) can0 1CEBFFF1#01000B00010DCC00
(1785793431.582252) can0 1CEBFFF1#0200175EFFFDB26C
(1785793431.583255) can0 1CEBFFF1#03FEFC46F8FFFFFF
(1785793431.606921) can0 18FF09D1#01000B00D34CEB
(1785793431.609242) can0 18F015F1#0000454B49874645
(1785793431.680401) can0 1CECFFF1#20120003FF19F000
(1785793431.681258) can0 1CEBFFF1#01000B00010DCC00
(1785793431.682235) can0 1CEBFFF1#0200175EFFFDB26C
(1785793431.683283) can0 1CEBFFF1#03FEFC46F8FFFFFF
(1785793431.707035) can0 18FF09D1#01000B00D34CEB
(1785793431.707440) can0 18FF14D1#
(1785793431.709234) can0 18F015F1#0000454B49874645
(1785793431.780315) can0 1CECFFF1#20120003FF19F000
(1785793431.781258) can0 1CEBFFF1#01000B00010DCC00
(1785793431.782240) can0 1CEBFFF1#0200175EFFFDB26C
(1785793431.783246) can0 1CEBFFF1#03FEFC46F8FFFFFF
(1785793431.806786) can0 18FF09D1#01000B00D34CEB
(1785793431.809239) can0 18F015F1#0000454B49874645
(1785793431.819175) can0 18F017F1#EB0801439771
(1785793431.819636) can0 18F018F1#E93FFF1D93BA
(1785793431.880339) can0 1CECFFF1#20120003FF19F000
(1785793431.881276) can0 1CEBFFF1#01000B00010DCC00
(1785793431.882260) can0 1CEBFFF1#0200175EFFFDB26C
(1785793431.883267) can0 1CEBFFF1#03FEFC46F8FFFFFF
(1785793431.906892) can0 18FF09D1#01000B00D34CEB
(1785793431.909344) can0 18F015F1#0000454B49874645
(1785793431.980359) can0 1CECFFF1#20120003FF19F000
(1785793431.981250) can0 1CEBFFF1#01000B00010DCC00
(1785793431.982240) can0 1CEBFFF1#0200175EFFFDB26C
(1785793431.983242) can0 1CEBFFF1#03FEFC46F8FFFFFF
(1785793432.006818) can0 18FF09D1#01000B00D34CEB
(1785793432.009240) can0 18F015F1#0000454B49884645
(1785793432.080320) can0 1CECFFF1#20120003FF19F000
(1785793432.081259) can0 1CEBFFF1#01000B00010DCC00
(1785793432.082242) can0 1CEBFFF1#0200175EFFFDB26C
(1785793432.083246) can0 1CEBFFF1#03FEFC46F8FFFFFF
(1785793432.106782) can0 18FF09D1#01000B00D34CEB
(1785793432.109244) can0 18F015F1#0000454B49874645
(1785793432.180311) can0 1CECFFF1#20120003FF19F000
(1785793432.181269) can0 1CEBFFF1#01000B00010DCC00
(1785793432.182253) can0 1CEBFFF1#0200175EFFFDB26C
(1785793432.183267) can0 1CEBFFF1#03FEFC46F8FFFFFF
(1785793432.206904) can0 18FF09D1#01000B00D34CEB
(1785793432.207199) can0 18FF14D1#
(1785793432.209239) can0 18F015F1#0000454B49874645
(1785793432.281413) can0 1CECFFF1#20120003FF19F000
(1785793432.282251) can0 1CEBFFF1#01000B00010DCC00
(1785793432.283236) can0 1CEBFFF1#0200175EFFFDB26C
(1785793432.284242) can0 1CEBFFF1#03FEFC46F8FFFFFF
(1785793432.306797) can0 18FF09D1#01000B00D34CEB
(1785793432.310247) can0 18F015F1#0000454B49884645
(1785793432.381332) can0 1CECFFF1#20120003FF19F000
(1785793432.382256) can0 1CEBFFF1#01000B00010DCC00
(1785793432.383240) can0 1CEBFFF1#0200175EFFFDB26C
(1785793432.384255) can0 1CEBFFF1#03FEFC46F8FFFFFF
(1785793432.406816) can0 18FF09D1#01000B00D34CEB
(1785793432.410240) can0 18F015F1#0000454B49874645
(1785793432.481365) can0 1CECFFF1#20120003FF19F000
(1785793432.482275) can0 1CEBFFF1#01000B00010DCC00
(1785793432.483252) can0 1CEBFFF1#0200175EFFFDB26C
(1785793432.484258) can0 1CEBFFF1#03FEFC46F8FFFFFF
(1785793432.506791) can0 18FF09D1#01000B00D34CEB
(1785793432.510242) can0 18F015F1#0000454B49874645
(1785793432.581423) can0 1CECFFF1#20120003FF19F000
(1785793432.582288) can0 1CEBFFF1#01000B00010DCC00
(1785793432.583272) can0 1CEBFFF1#0200175EFFFDB26C
(1785793432.584287) can0 1CEBFFF1#03FEFC46F8FFFFFF
(1785793432.607195) can0 18FF09D1#01000B00D34CEB
(1785793432.610305) can0 18F015F1#0000454B49884645
(1785793432.681360) can0 1CECFFF1#20120003FF19F000
(1785793432.682254) can0 1CEBFFF1#01000B00010DCC00
(1785793432.683236) can0 1CEBFFF1#0200175EFFFDB26C
(1785793432.684250) can0 1CEBFFF1#03FEFC46F8FFFFFF
(1785793432.706891) can0 18FF09D1#01000B00D34CEB
(1785793432.707259) can0 18FF14D1#
(1785793432.710265) can0 18F015F1#0000454B49874645
(1785793432.781316) can0 1CECFFF1#20120003FF19F000
(1785793432.782255) can0 1CEBFFF1#01000B00010DCC00
(1785793432.783241) can0 1CEBFFF1#0200175EFFFDB26C
(1785793432.784251) can0 1CEBFFF1#03FEFC46F8FFFFFF
(1785793432.806824) can0 18FF09D1#01000B00D34CEB
(1785793432.810252) can0 18F015F1#0000454B49874645
(1785793432.821198) can0 18F017F1#EB0801439771
(1785793432.821645) can0 18F018F1#E93FFF1D93BA
(1785793432.881300) can0 1CECFFF1#20120003FF19F000
(1785793432.882278) can0 1CEBFFF1#01000B00010DCC00
(1785793432.883259) can0 1CEBFFF1#0200175EFFFDB26C
(1785793432.884264) can0 1CEBFFF1#03FEFB84B9FFFFFF
(1785793432.906888) can0 18FF09D1#01000B00D34CEB
(1785793432.910368) can0 18F015F1#0000454B49884645
(1785793432.981416) can0 1CECFFF1#20120003FF19F000
(1785793432.982260) can0 1CEBFFF1#01000B00010DCC00
(1785793432.983242) can0 1CEBFFF1#0200175EFFFDB26C
(1785793432.984253) can0 1CEBFFF1#03FEFC46F8FFFFFF
(1785793433.006748) can0 18FF09D1#01000B00D34CEB
(1785793433.010234) can0 18F015F1#0000454B49874645
(1785793433.082332) can0 1CECFFF1#20120003FF19F000
(1785793433.083270) can0 1CEBFFF1#01000B00010DCC00
(1785793433.084250) can0 1CEBFFF1#0200175EFFFDB26C
(1785793433.085256) can0 1CEBFFF1#03FEFC46F8FFFFFF
(1785793433.106769) can0 18FF09D1#01000B00D34CEB
(1785793433.111248) can0 18F015F1#0000454B49874645
(1785793433.182317) can0 1CECFFF1#20120003FF19F000
(1785793433.183272) can0 1CEBFFF1#01000B00010DCC00
(1785793433.184262) can0 1CEBFFF1#0200175EFFFDB26C
(1785793433.185266) can0 1CEBFFF1#03FEFB84B9FFFFFF
(1785793433.207343) can0 18FF09D1#01000B00D34CEB
(1785793433.207613) can0 18FF14D1#
(1785793433.211242) can0 18F015F1#0000454B49884645
(1785793433.282712) can0 1CECFFF1#20120003FF19F000
(1785793433.283283) can0 1CEBFFF1#01000B00010DCC00
(1785793433.284274) can0 1CEBFFF1#0200175EFFFDB26C
(1785793433.285281) can0 1CEBFFF1#03FEFB84B9FFFFFF
(1785793433.306828) can0 18FF09D1#01000B00D34CEB
(1785793433.311252) can0 18F015F1#0000454B49874645
(1785793433.382325) can0 1CECFFF1#20120003FF19F000
(1785793433.383262) can0 1CEBFFF1#01000B00010DCC00
(1785793433.384248) can0 1CEBFFF1#0200175EFFFDB26C
(1785793433.385264) can0 1CEBFFF1#03FEFB84B9FFFFFF
(1785793433.406836) can0 18FF09D1#01000B00D34CEB
(1785793433.411296) can0 18F015F1#0000454B49874645
(1785793433.482350) can0 1CECFFF1#20120003FF19F000
(1785793433.483275) can0 1CEBFFF1#01000B00010DCC00
(1785793433.484263) can0 1CEBFFF1#0200175EFFFDB26C
(1785793433.485292) can0 1CEBFFF1#03FEFB84B9FFFFFF
(1785793433.506793) can0 18FF09D1#01000B00D320EA
(1785793433.511260) can0 18F015F1#0000454B49884645
(1785793433.582349) can0 1CECFFF1#20120003FF19F000
(1785793433.583303) can0 1CEBFFF1#01000B00010DCC00
(1785793433.584278) can0 1CEBFFF1#0200175EFFFDB26C
(1785793433.585292) can0 1CEBFFF1#03FEFB84B9FFFFFF
(1785793433.606917) can0 18FF09D1#01000B00D320EA
(1785793433.611343) can0 18F015F1#0000454B49874645
(1785793433.682320) can0 1CECFFF1#20120003FF19F000
(1785793433.683260) can0 1CEBFFF1#01000B00010DCC00
(1785793433.684366) can0 1CEBFFF1#0200175EFFFDB26C
(1785793433.685424) can0 1CEBFFF1#03FEFB84B9FFFFFF
(1785793433.706971) can0 18FF09D1#01000B00D320EA
(1785793433.707317) can0 18FF14D1#
(1785793433.712281) can0 18F015F1#0000454A49874645
(1785793433.783343) can0 1CECFFF1#20120003FF19F000
(1785793433.784266) can0 1CEBFFF1#01000B00010DCC00
(1785793433.785248) can0 1CEBFFF1#0200175EFFFDB26C
(1785793433.786264) can0 1CEBFFF1#03FEFB84B9FFFFFF
(1785793433.806739) can0 18FF09D1#01000B00D320EA
(1785793433.812242) can0 18F015F1#0000454B49884645
(1785793433.822186) can0 18F017F1#EA910134985E
(1785793433.822652) can0 18F018F1#E919FD0093B0
(1785793433.883308) can0 1CECFFF1#20120003FF19F000
(1785793433.884277) can0 1CEBFFF1#01000B00010DCC00
(1785793433.885263) can0 1CEBFFF1#0200175EFFFDB26C
(1785793433.886276) can0 1CEBFFF1#03FEFB84B9FFFFFF
(1785793433.906773) can0 18FF09D1#01000B00D320EA
(1785793433.912430) can0 18F015F1#0000454A49874645
(1785793433.983322) can0 1CECFFF1#20120003FF19F000
(1785793433.984261) can0 1CEBFFF1#01000B00010DCC00
(1785793433.985244) can0 1CEBFFF1#0200175EFFFDB26C
(1785793433.986261) can0 1CEBFFF1#03FEFB84B9FFFFFF
(1785793434.006793) can0 18FF09D1#01000B00D320EA
(1785793434.012256) can0 18F015F1#0000454A49874645
(1785793434.083339) can0 1CECFFF1#20120003FF19F000
(1785793434.084272) can0 1CEBFFF1#01000B00010DCC00
(1785793434.085251) can0 1CEBFFF1#0200175EFFFDB26C
(1785793434.086295) can0 1CEBFFF1#03FEFB84B9FFFFFF
(1785793434.106740) can0 18FF09D1#01000B00D320EA
(1785793434.112246) can0 18F015F1#0000454A49884645
(1785793434.183305) can0 1CECFFF1#20120003FF19F000
(1785793434.184280) can0 1CEBFFF1#01000B00010DCC00
(1785793434.185260) can0 1CEBFFF1#0200175EFFFDB26C
(1785793434.186272) can0 1CEBFFF1#03FEFB84B9FFFFFF
(1785793434.206908) can0 18FF09D1#01000B00D320EA
(1785793434.207274) can0 18FF14D1#
(1785793434.207676) can0 18FF16D1#01000B0064
(1785793434.212248) can0 18F015F1#0000454A49884645
(1785793434.283502) can0 1CECFFF1#20120003FF19F000
(1785793434.284300) can0 1CEBFFF1#01000B00010DCC00
(1785793434.285285) can0 1CEBFFF1#0200175EFFFDB26C
(1785793434.286274) can0 1CEBFFF1#03FEFB84B9FFFFFF
(1785793434.306803) can0 18FF09D1#01000B00D320EA
(1785793434.312254) can0 18F015F1#0000454A49874645
(1785793434.383339) can0 1CECFFF1#20120003FF19F000
(1785793434.384281) can0 1CEBFFF1#01000B00010DCC00
(1785793434.385257) can0 1CEBFFF1#0200175EFFFDB26C
(1785793434.386271) can0 1CEBFFF1#03FEFB84B9FFFFFF
(1785793434.406745) can0 18FF09D1#01000B00D320EA
(1785793434.412255) can0 18F015F1#0000454A49884645
(1785793434.484321) can0 1CECFFF1#20120003FF19F000
(1785793434.485275) can0 1CEBFFF1#01000B00010DCC00
(1785793434.486262) can0 1CEBFFF1#0200175EFFFDB26C
(1785793434.487268) can0 1CEBFFF1#03FEFB84B9FFFFFF
(1785793434.506710) can0 18FF09D1#01000B00D320EA
(1785793434.513256) can0 18F015F1#0000454A49874645
(1785793434.584514) can0 1CECFFF1#20120003FF19F000
(1785793434.585319) can0 1CEBFFF1#01000B00010DCC00
(1785793434.586332) can0 1CEBFFF1#0200175EFFFDB26C
(1785793434.587347) can0 1CEBFFF1#03FEFB84B9FFFFFF
(1785793434.606893) can0 18FF09D1#01000B00D320EA
(1785793434.613271) can0 18F015F1#0000454A49874645
(1785793434.684369) can0 1CECFFF1#20120003FF19F000
(1785793434.685288) can0 1CEBFFF1#01000B00010DCC00
(1785793434.686271) can0 1CEBFFF1#0200175EFFFDB26C
(1785793434.687277) can0 1CEBFFF1#03FEFB84B9FFFFFF
(1785793434.706914) can0 18FF09D1#01000B00D320EA
(1785793434.707324) can0 18FF14D1#
(1785793434.713360) can0 18F015F1#0000454A49884645
(1785793434.784354) can0 1CECFFF1#20120003FF19F000
(1785793434.785279) can0 1CEBFFF1#01000B00010DCC00
(1785793434.786264) can0 1CEBFFF1#0200175EFFFDB26C
(1785793434.787264) can0 1CEBFFF1#03FEFB84B9FFFFFF
(1785793434.806722) can0 18FF09D1#01000B00D320EA
(1785793434.813258) can0 18F015F1#0000454A49874645
(1785793434.824188) can0 18F017F1#EA910134985E
(1785793434.824649) can0 18F018F1#E919FD0093B0
(1785793434.884321) can0 1CECFFF1#20120003FF19F000
(1785793434.885276) can0 1CEBFFF1#01000B00010DCC00
(1785793434.886262) can0 1CEBFFF1#0200175EFFFDB26C
(1785793434.887266) can0 1CEBFFF1#03FEFB84B9FFFFFF
(1785793434.906731) can0 18FF09D1#01000B00D320EA
(1785793434.913390) can0 18F015F1#0000454A49874645
(1785793434.984435) can0 1CECFFF1#20120003FF19F000
(1785793434.985267) can0 1CEBFFF1#01000B00010DCC00
(1785793434.986264) can0 1CEBFFF1#0200175EFFFDB26C
(1785793434.987262) can0 1CEBFFF1#03FEFB84B9FFFFFF
(1785793435.006837) can0 18FF09D1#01000B00D320EA
(1785793435.013245) can0 18F015F1#0000454A49884645
(1785793435.084335) can0 1CECFFF1#20120003FF19F000
(1785793435.085276) can0 1CEBFFF1#01000B00010DCC00
(1785793435.086269) can0 1CEBFFF1#0200175EFFFDB26C
(1785793435.087271) can0 1CEBFFF1#03FEFB84B9FFFFFF
(1785793435.107114) can0 18FF09D1#01000B00D320EA
(1785793435.113282) can0 18F015F1#0000454A49874645
(1785793435.184337) can0 1CECFFF1#20120003FF19F000
(1785793435.185294) can0 1CEBFFF1#01000B00010DCC00
(1785793435.186277) can0 1CEBFFF1#0200175EFFFDB26C
(1785793435.187279) can0 1CEBFFF1#03FEFB84B9FFFFFF
(1785793435.206780) can0 18FF09D1#01000B00D320EA
(1785793435.207039) can0 18FF14D1#
(1785793435.213258) can0 18F015F1#0000454A49874645
(1785793435.286070) can0 1CECFFF1#20120003FF19F000
(1785793435.286434) can0 1CEBFFF1#01000B00010DCC00
(1785793435.287354) can0 1CEBFFF1#0200175EFFFDB26C
(1785793435.288354) can0 1CEBFFF1#03FEFB84B9FFFFFF
(1785793435.306788) can0 18FF09D1#01000B00D320EA
(1785793435.314285) can0 18F015F1#0000454A49884645
(1785793435.385354) can0 1CECFFF1#20120003FF19F000
(1785793435.386290) can0 1CEBFFF1#01000B00010DCC00
(1785793435.387264) can0 1CEBFFF1#0200175EFFFDB26C
(1785793435.388280) can0 1CEBFFF1#03FEFB84B9FFFFFF
(1785793435.406750) can0 18FF09D1#01000B00D320EA
(1785793435.414507) can0 18F015F1#0000454A49874645
(1785793435.485356) can0 1CECFFF1#20120003FF19F000
(1785793435.486298) can0 1CEBFFF1#01000B00010DCC00
(1785793435.487282) can0 1CEBFFF1#0200175EFFFDB26C
(1785793435.488299) can0 1CEBFFF1#03FEFB84B9FFFFFF
(1785793435.506712) can0 18FF09D1#01000B00D320EA
(1785793435.514268) can0 18F015F1#0000454A49874645
(1785793435.585417) can0 1CECFFF1#20120003FF19F000
(1785793435.586425) can0 1CEBFFF1#01000B00010DCC00
(1785793435.587284) can0 1CEBFFF1#0200175EFFFDB26C
(1785793435.588287) can0 1CEBFFF1#03FEFA4478FFFFFF
(1785793435.607699) can0 18FF09D1#01000B00D320EA
(1785793435.614383) can0 18F015F1#0000454A49884645
(1785793435.685327) can0 1CECFFF1#20120003FF19F000
(1785793435.686288) can0 1CEBFFF1#01000B00010DCC00
(1785793435.687259) can0 1CEBFFF1#0200175EFFFDB26C
(1785793435.688264) can0 1CEBFFF1#03FEFA4478FFFFFF
(1785793435.707016) can0 18FF09D1#01000B00D320EA
(1785793435.707407) can0 18FF14D1#
(1785793435.714379) can0 18F015F1#0000454A49884645
(1785793435.785364) can0 1CECFFF1#20120003FF19F000
(1785793435.786284) can0 1CEBFFF1#01000B00010DCC00
(1785793435.787261) can0 1CEBFFF1#0200175EFFFDB26C
(1785793435.788270) can0 1CEBFFF1#03FEFB84B9FFFFFF
(1785793435.806675) can0 18FF09D1#01000B00D320EA
(1785793435.814263) can0 18F015F1#0000454A49874645
(1785793435.825191) can0 18F017F1#EB39008C98C3
(1785793435.825664) can0 18F018F1#E932FD6393FE
(1785793435.885311) can0 1CECFFF1#20120003FF19F000
(1785793435.886279) can0 1CEBFFF1#01000B00010DCC00
(1785793435.887281) can0 1CEBFFF1#0200175EFFFDB26C
(1785793435.888281) can0 1CEBFFF1#03FEFA4478FFFFFF
(1785793435.906786) can0 18FF09D1#01000B00D320EA
(1785793435.914488) can0 18F015F1#0000454949884645
(1785793435.986480) can0 1CECFFF1#20120003FF19F000
(1785793435.987275) can0 1CEBFFF1#01000B00010DCC00
(1785793435.988269) can0 1CEBFFF1#0200175EFFFDB26C
(1785793435.989268) can0 1CEBFFF1#03FEFA4478FFFFFF
(1785793436.006701) can0 18FF09D1#01000B00D320EA
(1785793436.015314) can0 18F015F1#0000454A49874645
(1785793436.086364) can0 1CECFFF1#20120003FF19F000
(1785793436.087282) can0 1CEBFFF1#01000B00010DCC00
(1785793436.088263) can0 1CEBFFF1#0200175EFFFDB26C
(1785793436.089271) can0 1CEBFFF1#03FEFA4478FFFFFF
(1785793436.106664) can0 18FF09D1#01000B00D320EA
(1785793436.115261) can0 18F015F1#0000454949874645
(1785793436.186326) can0 1CECFFF1#20120003FF19F000
(1785793436.187293) can0 1CEBFFF1#01000B00010DCC00
(1785793436.188279) can0 1CEBFFF1#0200175EFFFDB26C
(1785793436.189285) can0 1CEBFFF1#03FEFA4478FFFFFF
(1785793436.206820) can0 18FF09D1#01000B00D320EA
(1785793436.207076) can0 18FF14D1#
(1785793436.207540) can0 18FF16D1#01000B0064
(1785793436.215279) can0 18F015F1#0000454949884645
(1785793436.286540) can0 1CECFFF1#20120003FF19F000
(1785793436.287302) can0 1CEBFFF1#01000B00010DCC00
(1785793436.288302) can0 1CEBFFF1#0200175EFFFDB26C
(1785793436.289473) can0 1CEBFFF1#03FEFA4478FFFFFF
(1785793436.306999) can0 18FF09D1#01000B00D320EA
(1785793436.315300) can0 18F015F1#0000454949874645
(1785793436.386355) can0 1CECFFF1#20120003FF19F000
(1785793436.387290) can0 1CEBFFF1#01000B00010DCC00
(1785793436.388266) can0 1CEBFFF1#0200175EFFFDB26C
(1785793436.389270) can0 1CEBFFF1#03FEFA4478FFFFFF
(1785793436.406710) can0 18FF09D1#01000B00D320EA
(1785793436.415272) can0 18F015F1#0000454949874645
(1785793436.486349) can0 1CECFFF1#20120003FF19F000
(1785793436.487287) can0 1CEBFFF1#01000B00010DCC00
(1785793436.488269) can0 1CEBFFF1#0200175EFFFDB26C
(1785793436.489278) can0 1CEBFFF1#03FEFA4478FFFFFF
(1785793436.506637) can0 18FF09D1#01000B00D320EA
(1785793436.515266) can0 18F015F1#0000454949874645
(1785793436.586421) can0 1CECFFF1#20120003FF19F000
(1785793436.587326) can0 1CEBFFF1#01000B00010DCC00
(1785793436.588313) can0 1CEBFFF1#0200175EFFFDB26C
(1785793436.589318) can0 1CEBFFF1#03FEFA4478FFFFFF
(1785793436.606842) can0 18FF09D1#01000B00D320EA
(1785793436.615356) can0 18F015F1#0000454949874645
(1785793436.686350) can0 1CECFFF1#20120003FF19F000
(1785793436.687291) can0 1CEBFFF1#01000B00010DCC00
(1785793436.688276) can0 1CEBFFF1#0200175EFFFDB26C
(1785793436.689281) can0 1CEBFFF1#03FEFA4478FFFFFF
(1785793436.706752) can0 18FF09D1#01000B00D320EA
(1785793436.707015) can0 18FF14D1#
(1785793436.716375) can0 18F015F1#0000454949874645
(1785793436.787384) can0 1CECFFF1#20120003FF19F000
(1785793436.788326) can0 1CEBFFF1#01000B00010DCC00
(1785793436.789296) can0 1CEBFFF1#0200175EFFFDB26C
(1785793436.790309) can0 1CEBFFF1#03FEFA4478FFFFFF
(1785793436.806690) can0 18FF09D1#01000B00D320EA
(1785793436.816353) can0 18F015F1#0000454949874645
(1785793436.826239) can0 18F017F1#EB39008C98C3
(1785793436.826675) can0 18F018F1#E932FD6393FE
(1785793436.887384) can0 1CECFFF1#20120003FF19F000
(1785793436.888294) can0 1CEBFFF1#01000B00010DCC00
(1785793436.889271) can0 1CEBFFF1#0200175EFFFDB26C
(1785793436.890277) can0 1CEBFFF1#03FEFA4478FFFFFF
(1785793436.906714) can0 18FF09D1#01000B00D320EA
(1785793436.916326) can0 18F015F1#0000454949874645
(1785793436.987474) can0 1CECFFF1#20120003FF19F000
(1785793436.988289) can0 1CEBFFF1#01000B00010DCC00
(1785793436.989270) can0 1CEBFFF1#0200175EFFFDB26C
(1785793436.990277) can0 1CEBFFF1#03FEFA4478FFFFFF
(1785793437.006703) can0 18FF09D1#01000B00D320EA
(1785793437.016286) can0 18F015F1#0000454949874645
(1785793437.087363) can0 1CECFFF1#20120003FF19F000
(1785793437.088292) can0 1CEBFFF1#01000B00010DCC00
(1785793437.089274) can0 1CEBFFF1#0200175EFFFDB26C
(1785793437.090280) can0 1CEBFFF1#03FEFA4478FFFFFF
(1785793437.106635) can0 18FF09D1#01000B00D34CEB
(1785793437.116276) can0 18F015F1#0000454949874645
(1785793437.187345) can0 1CECFFF1#20120003FF19F000
(1785793437.188296) can0 1CEBFFF1#01000B00010DCC00
(1785793437.189282) can0 1CEBFFF1#0200175EFFFDB26C
(1785793437.190290) can0 1CEBFFF1#03FEFA4478FFFFFF
(1785793437.206703) can0 18FF09D1#01000B00D34CEB
(1785793437.206960) can0 18FF14D1#
(1785793437.216278) can0 18F015F1#0000454949874645
(1785793437.287502) can0 1CECFFF1#20120003FF19F000
(1785793437.288313) can0 1CEBFFF1#01000B00010DCC00
(1785793437.289311) can0 1CEBFFF1#0200175EFFFDB26C
(1785793437.290316) can0 1CEBFFF1#03FEFA4478FFFFFF
(1785793437.306713) can0 18FF09D1#01000B00D34CEB
(1785793437.316298) can0 18F015F1#0000454949874645
(1785793437.388500) can0 1CECFFF1#20120003FF19F000
(1785793437.389356) can0 1CEBFFF1#01000B00010DCC00
(1785793437.390318) can0 1CEBFFF1#0200175EFFFDB26C
(1785793437.391324) can0 1CEBFFF1#03FEFA4478FFFFFF
(1785793437.406714) can0 18FF09D1#01000B00D34CEB
(1785793437.417439) can0 18F015F1#0000454949884645
(1785793437.488388) can0 1CECFFF1#20120003FF19F000
(1785793437.489312) can0 1CEBFFF1#01000B00010DCC00
(1785793437.490280) can0 1CEBFFF1#0200175EFFFDB26C
(1785793437.491287) can0 1CEBFFF1#03FEFA4478FFFFFF
(1785793437.506652) can0 18FF09D1#01000B00D34CEB
(1785793437.517296) can0 18F015F1#0000454949874645
(1785793437.588377) can0 1CECFFF1#20120003FF19F000
(1785793437.589314) can0 1CEBFFF1#01000B00010DCC00
(1785793437.590302) can0 1CEBFFF1#0200175EFFFDB26C
(1785793437.591308) can0 1CEBFFF1#03FEFA4478FFFFFF
(1785793437.606740) can0 18FF09D1#01000B00D34CEB
(1785793437.618213) can0 18F015F1#0000454949874645
(1785793437.688341) can0 1CECFFF1#20120003FF19F000
(1785793437.689288) can0 1CEBFFF1#01000B00010DCC00
(1785793437.690274) can0 1CEBFFF1#0200175EFFFDB26C
(1785793437.691282) can0 1CEBFFF1#03FEFA4478FFFFFF
(1785793437.706694) can0 18FF09D1#01000B00D34CEB
(1785793437.706945) can0 18FF14D1#
(1785793437.717568) can0 18F015F1#0000454949874645
(1785793437.788359) can0 1CECFFF1#20120003FF19F000
(1785793437.789293) can0 1CEBFFF1#01000B00010DCC00
(1785793437.790276) can0 1CEBFFF1#0200175EFFFDB26C
(1785793437.791285) can0 1CEBFFF1#03FEFA4478FFFFFF
(1785793437.806612) can0 18FF09D1#01000B00D34CEB
(1785793437.817277) can0 18F015F1#0000454949874645
(1785793437.828211) can0 18F017F1#EB08006B98CF
(1785793437.828674) can0 18F018F1#E88FFD24944B
(1785793437.888327) can0 1CECFFF1#20120003FF19F000
(1785793437.889296) can0 1CEBFFF1#01000B00010DCC00
(1785793437.890286) can0 1CEBFFF1#0200175EFFFDB26C
(1785793437.891293) can0 1CEBFFF1#03FEFA4478FFFFFF
(1785793437.906644) can0 18FF09D1#01000B00D34CEB
(1785793437.917309) can0 18F015F1#0000454949874645
(1785793437.988442) can0 1CECFFF1#20120003FF19F000
(1785793437.989308) can0 1CEBFFF1#01000B00010DCC00
(1785793437.990282) can0 1CEBFFF1#0200175EFFFDB26C
(1785793437.991284) can0 1CEBFFF1#03FEFA4478FFFFFF
(1785793438.006751) can0 18FF09D1#01000B00D34CEB
(1785793438.017418) can0 18F015F1#0000454949874645
(1785793438.088362) can0 1CECFFF1#20120003FF19F000
(1785793438.089294) can0 1CEBFFF1#01000B00010DCC00
(1785793438.090279) can0 1CEBFFF1#0200175EFFFDB26C
(1785793438.091287) can0 1CEBFFF1#03FEFA4478FFFFFF
(1785793438.106608) can0 18FF09D1#01000B00D3BCE9
(1785793438.117298) can0 18F015F1#0000454949874645
(1785793438.188365) can0 1CECFFF1#20120003FF19F000
(1785793438.189307) can0 1CEBFFF1#01000B00010DCC00
(1785793438.190291) can0 1CEBFFF1#0200175EFFFDB26C
(1785793438.191295) can0 1CEBFFF1#03FEFA4478FFFFFF
(1785793438.206750) can0 18FF09D1#01000B00D3BCE9
(1785793438.207016) can0 18FF14D1#
(1785793438.207473) can0 18FF16D1#01000B0064
(1785793438.218282) can0 18F015F1#0000454949874645
(1785793438.289547) can0 1CECFFF1#20120003FF19F000
(1785793438.290367) can0 1CEBFFF1#01000B00010DCC00
(1785793438.291312) can0 1CEBFFF1#0200175EFFFDB26C
(1785793438.292341) can0 1CEBFFF1#03FEFA4478FFFFFF
(1785793438.306757) can0 18FF09D1#01000B00D3BCE9
(1785793438.318380) can0 18F015F1#0000454949874645
(1785793438.389464) can0 1CECFFF1#20120003FF19F000
(1785793438.390356) can0 1CEBFFF1#01000B00010DCC00
(1785793438.391335) can0 1CEBFFF1#0200175EFFFDB26C
(1785793438.392387) can0 1CEBFFF1#03FEFA4478FFFFFF
(1785793438.406628) can0 18FF09D1#01000B00D3BCE9
(1785793438.418299) can0 18F015F1#0000454949874645
(1785793438.489359) can0 1CECFFF1#20120003FF19F000
(1785793438.490305) can0 1CEBFFF1#01000B00010DCC00
(1785793438.491288) can0 1CEBFFF1#0200175EFFFDB26C
(1785793438.492297) can0 1CEBFFF1#03FEFA4478FFFFFF
(1785793438.506580) can0 18FF09D1#01000B00D3BCE9
(1785793438.518292) can0 18F015F1#0000454949874645
(1785793438.589485) can0 1CECFFF1#20120003FF19F000
(1785793438.590320) can0 1CEBFFF1#01000B00010DCC00
(1785793438.591317) can0 1CEBFFF1#0200175EFFFDB26C
(1785793438.592329) can0 1CEBFFF1#03FEF94538FFFFFF
(1785793438.606643) can0 18FF09D1#01000B00D3BCE9
(1785793438.618472) can0 18F015F1#0000454949874645
(1785793438.689357) can0 1CECFFF1#20120003FF19F000
(1785793438.690294) can0 1CEBFFF1#01000B00010DCC00
(1785793438.691282) can0 1CEBFFF1#0200175EFFFDB26C
(1785793438.692287) can0 1CEBFFF1#03FEFA4478FFFFFF
(1785793438.706683) can0 18FF09D1#01000B00D3BCE9
(1785793438.706933) can0 18FF14D1#
(1785793438.718436) can0 18F015F1#0000454949874645
(1785793438.789364) can0 1CECFFF1#20120003FF19F000
(1785793438.790302) can0 1CEBFFF1#01000B00010DCC00
(1785793438.791292) can0 1CEBFFF1#0200175EFFFDB26C
(1785793438.792303) can0 1CEBFFF1#03FEFA4478FFFFFF
(1785793438.806600) can0 18FF09D1#01000B00D3BCE9
(1785793438.818282) can0 18F015F1#0000454849874645
(1785793438.829219) can0 18F017F1#EB08006B98CF
(1785793438.829687) can0 18F018F1#E88FFD24944B
(1785793438.889341) can0 1CECFFF1#20120003FF19F000
(1785793438.890310) can0 1CEBFFF1#01000B00010DCC00
(1785793438.891299) can0 1CEBFFF1#0200175EFFFDB26C
(1785793438.892300) can0 1CEBFFF1#03FEF94538FFFFFF
(1785793438.906595) can0 18FF09D1#01000B00D3BCE9
(1785793438.919414) can0 18F015F1#0000454849874645
(1785793438.990423) can0 1CECFFF1#20120003FF19F000
(1785793438.991298) can0 1CEBFFF1#01000B00010DCC00
(1785793438.992287) can0 1CEBFFF1#0200175EFFFDB26C
(1785793438.993297) can0 1CEBFFF1#03FEF94538FFFFFF
(1785793439.006616) can0 18FF09D1#01000B00D3BCE9
(1785793439.019312) can0 18F015F1#0000454849874645
(1785793439.090389) can0 1CECFFF1#20120003FF19F000
(1785793439.091307) can0 1CEBFFF1#01000B00010DCC00
(1785793439.092290) can0 1CEBFFF1#0200175EFFFDB26C
(1785793439.093293) can0 1CEBFFF1#03FEF94538FFFFFF
(1785793439.106599) can0 18FF09D1#01000B00D34CEB
(1785793439.119330) can0 18F015F1#0000454849874645
(1785793439.190372) can0 1CECFFF1#20120003FF19F000
(1785793439.191301) can0 1CEBFFF1#01000B00010DCC00
(1785793439.192288) can0 1CEBFFF1#0200175EFFFDB26C
(1785793439.193290) can0 1CEBFFF1#03FEF94538FFFFFF
(1785793439.206642) can0 18FF09D1#01000B00D34CEB
(1785793439.206893) can0 18FF14D1#
(1785793439.219349) can0 18F015F1#0000454949874645
(1785793439.290549) can0 1CECFFF1#20120003FF19F000
(1785793439.291324) can0 1CEBFFF1#01000B00010DCC00
(1785793439.292361) can0 1CEBFFF1#0200175EFFFDB26C
(1785793439.293509) can0 1CEBFFF1#03FEFA4478FFFFFF
(1785793439.306669) can0 18FF09D1#01000B00D34CEB
(1785793439.319415) can0 18F015F1#0000454949874645
(1785793439.390598) can0 1CECFFF1#20120003FF19F000
(1785793439.391376) can0 1CEBFFF1#01000B00010DCC00
(1785793439.392347) can0 1CEBFFF1#0200175EFFFDB26C
(1785793439.393363) can0 1CEBFFF1#03FEFA4478FFFFFF
(1785793439.407182) can0 18FF09D1#01000B00D34CEB
(1785793439.419412) can0 18F015F1#0000454849874645
(1785793439.490411) can0 1CECFFF1#20120003FF19F000
(1785793439.491352) can0 1CEBFFF1#01000B00010DCC00
(1785793439.492316) can0 1CEBFFF1#0200175EFFFDB26C
(1785793439.493334) can0 1CEBFFF1#03FEF94538FFFFFF
(1785793439.506711) can0 18FF09D1#01000B00D34CEB
(1785793439.519734) can0 18F015F1#0000454849874645
(1785793439.590408) can0 1CECFFF1#20120003FF19F000
(1785793439.591321) can0 1CEBFFF1#01000B00010DCC00
(1785793439.592308) can0 1CEBFFF1#0200175EFFFDB26C
(1785793439.593312) can0 1CEBFFF1#03FEF94538FFFFFF
(1785793439.606635) can0 18FF09D1#01000B00D34CEB
(1785793439.619373) can0 18F015F1#0000454849874645
(1785793439.691426) can0 1CECFFF1#20120003FF19F000
(1785793439.692311) can0 1CEBFFF1#01000B00010DCC00
(1785793439.693371) can0 1CEBFFF1#0200175EFFFDB26C
(1785793439.694422) can0 1CEBFFF1#03FEF94538FFFFFF
(1785793439.706776) can0 18FF09D1#01000B00D34CEB
(1785793439.707084) can0 18FF14D1#
(1785793439.720399) can0 18F015F1#0000454849874645
(1785793439.791373) can0 1CECFFF1#20120003FF19F000
(1785793439.792307) can0 1CEBFFF1#01000B00010DCC00
(1785793439.793292) can0 1CEBFFF1#0200175EFFFDB26C
(1785793439.794293) can0 1CEBFFF1#03FEF94538FFFFFF
(1785793439.806552) can0 18FF09D1#01000B00D34CEB
(1785793439.820299) can0 18F015F1#0000454849874645
(1785793439.830229) can0 18F017F1#EB9C004698A7
(1785793439.830687) can0 18F018F1#E842FD1994B7
(1785793439.891346) can0 1CECFFF1#20120003FF19F000
(1785793439.892325) can0 1CEBFFF1#01000B00010DCC00
(1785793439.893302) can0 1CEBFFF1#0200175EFFFDB26C
(1785793439.894301) can0 1CEBFFF1#03FEF94538FFFFFF
(1785793439.906565) can0 18FF09D1#01000B00D34CEB
(1785793439.920299) can0 18F015F1#0000454849874645
(1785793439.992069) can0 1CECFFF1#20120003FF19F000
(1785793439.992677) can0 1CEBFFF1#01000B00010DCC00
(1785793439.993331) can0 1CEBFFF1#0200175EFFFDB26C
(1785793439.994418) can0 1CEBFFF1#03FEF94538FFFFFF
(1785793440.006873) can0 18FF09D1#01000B00D34CEB
(1785793440.020449) can0 18F015F1#0000454849874645
(1785793440.091376) can0 1CECFFF1#20120003FF19F000
(1785793440.092309) can0 1CEBFFF1#01000B00010DCC00
(1785793440.093294) can0 1CEBFFF1#0200175EFFFDB26C
(1785793440.094298) can0 1CEBFFF1#03FEF94538FFFFFF
(1785793440.106547) can0 18FF09D1#01000B00D34CEB
(1785793440.120306) can0 18F015F1#0000454849874645
(1785793440.191363) can0 1CECFFF1#20120003FF19F000
(1785793440.192313) can0 1CEBFFF1#01000B00010DCC00
(1785793440.193295) can0 1CEBFFF1#0200175EFFFDB26C
(1785793440.194300) can0 1CEBFFF1#03FEF94538FFFFFF
(1785793440.207122) can0 18FF09D1#01000B00D34CEB
(1785793440.207409) can0 18FF14D1#
(1785793440.207807) can0 18FF16D1#01000B0064
(1785793440.220307) can0 18F015F1#0000454849884645
(1785793440.291535) can0 1CECFFF1#20120003FF19F000
(1785793440.292323) can0 1CEBFFF1#01000B00010DCC00
(1785793440.293381) can0 1CEBFFF1#0200175EFFFDB26C
(1785793440.294398) can0 1CEBFFF1#03FEF94538FFFFFF
(1785793440.306756) can0 18FF09D1#01000B00D34CEB
(1785793440.320375) can0 18F015F1#0000454849874645
(1785793440.391437) can0 1CECFFF1#20120003FF19F000
(1785793440.392437) can0 1CEBFFF1#01000B00010DCC00
(1785793440.393458) can0 1CEBFFF1#0200175EFFFDB26C
(1785793440.394426) can0 1CEBFFF1#03FEF94538FFFFFF
(1785793440.406566) can0 18FF09D1#01000B00D34CEB
(1785793440.420309) can0 18F015F1#0000454849874645
(1785793440.492387) can0 1CECFFF1#20120003FF19F000
(1785793440.493321) can0 1CEBFFF1#01000B00010DCC00
(1785793440.494302) can0 1CEBFFF1#0200175EFFFDB26C
(1785793440.495307) can0 1CEBFFF1#03FEF94538FFFFFF
(1785793440.506517) can0 18FF09D1#01000B00D34CEB
(1785793440.521302) can0 18F015F1#0000454849874645
(1785793440.592395) can0 1CECFFF1#20120003FF19F000
(1785793440.593336) can0 1CEBFFF1#01000B00010DCC00
(1785793440.594345) can0 1CEBFFF1#0200175EFFFDB26C
(1785793440.595329) can0 1CEBFFF1#03FEF94538FFFFFF
(1785793440.606667) can0 18FF09D1#01000B00D34CEB
(1785793440.621388) can0 18F015F1#0000454849874645
(1785793440.692382) can0 1CECFFF1#20120003FF19F000
(1785793440.693330) can0 1CEBFFF1#01000B00010DCC00
(1785793440.694314) can0 1CEBFFF1#0200175EFFFDB26C
(1785793440.695317) can0 1CEBFFF1#03FEF94538FFFFFF
(1785793440.706584) can0 18FF09D1#01000B00D34CEB
(1785793440.706873) can0 18FF14D1#
(1785793440.721349) can0 18F015F1#0000454849884645
(1785793440.792398) can0 1CECFFF1#20120003FF19F000
(1785793440.793319) can0 1CEBFFF1#01000B00010DCC00
(1785793440.794308) can0 1CEBFFF1#0200175EFFFDB26C
(1785793440.795311) can0 1CEBFFF1#03FEF94538FFFFFF
(1785793440.806541) can0 18FF09D1#01000B00D34CEB
(1785793440.821304) can0 18F015F1#0000454849884645
(1785793440.832235) can0 18F017F1#EB9C004698A7
(1785793440.832698) can0 18F018F1#E842FD1994B7
(1785793440.892346) can0 1CECFFF1#20120003FF19F000
(1785793440.893317) can0 1CEBFFF1#01000B00010DCC00
(1785793440.894310) can0 1CEBFFF1#0200175EFFFDB26C
(1785793440.895313) can0 1CEBFFF1#03FEF94538FFFFFF
(1785793440.906498) can0 18FF09D1#01000B00D34CEB
(1785793440.921353) can0 18F015F1#0000454849874645
(1785793440.992597) can0 1CECFFF1#20120003FF19F000
(1785793440.993377) can0 1CEBFFF1#01000B00010DCC00
(1785793440.994330) can0 1CEBFFF1#0200175EFFFDB26C
(1785793440.995350) can0 1CEBFFF1#03FEF94538FFFFFF
(1785793441.006517) can0 18FF09D1#01000B00D34CEB
(1785793441.021307) can0 18F015F1#0000454849884645
(1785793441.092394) can0 1CECFFF1#20120003FF19F000
(1785793441.093336) can0 1CEBFFF1#01000B00010DCC00
(1785793441.094310) can0 1CEBFFF1#0200175EFFFDB26C
(1785793441.095303) can0 1CEBFFF1#03FEF94538FFFFFF
(1785793441.106519) can0 18FF09D1#01000B00D34CEB
(1785793441.121306) can0 18F015F1#0000454849884645
(1785793441.193372) can0 1CECFFF1#20120003FF19F000
(1785793441.194319) can0 1CEBFFF1#01000B00010DCC00
(1785793441.195303) can0 1CEBFFF1#0200175EFFFDB26C
(1785793441.196312) can0 1CEBFFF1#03FEF94538FFFFFF
(1785793441.206596) can0 18FF09D1#01000B00D34CEB
(1785793441.206849) can0 18FF14D1#
(1785793441.222354) can0 18F015F1#0000454849874645
(1785793441.293514) can0 1CECFFF1#20120003FF19F000
(1785793441.294377) can0 1CEBFFF1#01000B00010DCC00
(1785793441.295368) can0 1CEBFFF1#0200175EFFFDB26C
(1785793441.296377) can0 1CEBFFF1#03FEF94538FFFFFF
(1785793441.306573) can0 18FF09D1#01000B00D34CEB
(1785793441.322538) can0 18F015F1#0000454849884645
(1785793441.393426) can0 1CECFFF1#20120003FF19F000
(1785793441.394427) can0 1CEBFFF1#01000B00010DCC00
(1785793441.395497) can0 1CEBFFF1#0200175EFFFDB26C
(1785793441.397224) can0 1CEBFFF1#03FEF94538FFFFFF
(1785793441.406858) can0 18FF09D1#01000B00D34CEB
(1785793441.422400) can0 18F015F1#0000454849884645
(1785793441.493445) can0 1CECFFF1#20120003FF19F000
(1785793441.494327) can0 1CEBFFF1#01000B00010DCC00
(1785793441.495305) can0 1CEBFFF1#0200175EFFFDB26C
(1785793441.496321) can0 1CEBFFF1#03FEF94538FFFFFF
(1785793441.506523) can0 18FF09D1#01000B00D34CEB
(1785793441.523333) can0 18F015F1#0000454849874645
(1785793441.593399) can0 1CECFFF1#20120003FF19F000
(1785793441.594327) can0 1CEBFFF1#01000B00010DCC00
(1785793441.595309) can0 1CEBFFF1#0200175EFFFDB26C
(1785793441.596321) can0 1CEBFFF1#03FEF94538FFFFFF
(1785793441.606630) can0 18FF09D1#01000B00D320EA
(1785793441.622478) can0 18F015F1#0000454849884645
(1785793441.693381) can0 1CECFFF1#20120003FF19F000
(1785793441.694319) can0 1CEBFFF1#01000B00010DCC00
(1785793441.695302) can0 1CEBFFF1#0200175EFFFDB26C
(1785793441.696316) can0 1CEBFFF1#03FEF94538FFFFFF
(1785793441.706864) can0 18FF09D1#01000B00D320EA
(1785793441.707012) can0 18FF14D1#
(1785793441.722616) can0 18F015F1#0000454849884645
(1785793441.794400) can0 1CECFFF1#20120003FF19F000
(1785793441.795321) can0 1CEBFFF1#01000B00010DCC00
(1785793441.796320) can0 1CEBFFF1#0200175EFFFDB26C
(1785793441.797314) can0 1CEBFFF1#03FEF94538FFFFFF
(1785793441.806497) can0 18FF09D1#01000B00D320EA
(1785793441.823320) can0 18F015F1#0000454849874645
(1785793441.833236) can0 18F017F1#EBB700A89829
(1785793441.833728) can0 18F018F1#E85AFCFE94BF
(1785793441.894377) can0 1CECFFF1#20120003FF19F000
(1785793441.895334) can0 1CEBFFF1#01000B00010DCC00
(1785793441.896322) can0 1CEBFFF1#0200175EFFFDB26C
(1785793441.897324) can0 1CEBFFF1#03FEF94538FFFFFF
(1785793441.906497) can0 18FF09D1#01000B00D320EA
(1785793441.923341) can0 18F015F1#0000454849884645
(1785793441.994450) can0 1CECFFF1#20120003FF19F000
(1785793441.995328) can0 1CEBFFF1#01000B00010DCC00
(1785793441.996410) can0 1CEBFFF1#0200175EFFFDB26C
(1785793441.997676) can0 1CEBFFF1#03FEF94538FFFFFF
(1785793442.006601) can0 18FF09D1#01000B00D320EA
(1785793442.023536) can0 18F015F1#0000454849884645
(1785793442.094564) can0 1CECFFF1#20120003FF19F000
(1785793442.095451) can0 1CEBFFF1#01000B00010DCC00
(1785793442.096444) can0 1CEBFFF1#0200175EFFFDB26C
(1785793442.097401) can0 1CEBFFF1#03FEF94538FFFFFF
(1785793442.106488) can0 18FF09D1#01000B00D34CEB
(1785793442.123337) can0 18F015F1#0000454849874645
(1785793442.194376) can0 1CECFFF1#20120003FF19F000
(1785793442.195337) can0 1CEBFFF1#01000B00010DCC00
(1785793442.196329) can0 1CEBFFF1#0200175EFFFDB26C
(1785793442.197332) can0 1CEBFFF1#03FEF94538FFFFFF
(1785793442.206597) can0 18FF09D1#01000B00D34CEB
(1785793442.206890) can0 18FF14D1#
(1785793442.223319) can0 18F015F1#0000454849884645
(1785793442.294438) can0 1CECFFF1#20120003FF19F000
(1785793442.295341) can0 1CEBFFF1#01000B00010DCC00
(1785793442.296346) can0 1CEBFFF1#0200175EFFFDB26C
(1785793442.297358) can0 1CEBFFF1#03FEF94538FFFFFF
(1785793442.306598) can0 18FF09D1#01000B00D34CEB
(1785793442.323551) can0 18F015F1#0000454849884645
(1785793442.394388) can0 1CECFFF1#20120003FF19F000
(1785793442.395321) can0 1CEBFFF1#01000B00010DCC00
(1785793442.396320) can0 1CEBFFF1#0200175EFFFDB26C
(1785793442.397311) can0 1CEBFFF1#03FEF94538FFFFFF
(1785793442.406592) can0 18FF09D1#01000B00D34CEB
(1785793442.423339) can0 18F015F1#0000454749874645
(1785793442.494400) can0 1CECFFF1#20120003FF19F000
(1785793442.495325) can0 1CEBFFF1#01000B00010DCC00
(1785793442.496325) can0 1CEBFFF1#0200175EFFFDB26C
(1785793442.497320) can0 1CEBFFF1#03FEF94538FFFFFF
(1785793442.506451) can0 18FF09D1#01000B00D34CEB
(1785793442.523315) can0 18F015F1#0000454849874645
(1785793442.595386) can0 1CECFFF1#20120003FF19F000
(1785793442.596349) can0 1CEBFFF1#01000B00010DCC00
(1785793442.597333) can0 1CEBFFF1#0200175EFFFDB26C
(1785793442.598342) can0 1CEBFFF1#03FEF885F9FFFFFF
(1785793442.606488) can0 18FF09D1#01000B00D34CEB
(1785793442.624450) can0 18F015F1#0000454749884645
(1785793442.695395) can0 1CECFFF1#20120003FF19F000
(1785793442.696338) can0 1CEBFFF1#01000B00010DCC00
(1785793442.697320) can0 1CEBFFF1#0200175EFFFDB26C
(1785793442.698322) can0 1CEBFFF1#03FEF94538FFFFFF
(1785793442.706520) can0 18FF09D1#01000B00D34CEB
(1785793442.706778) can0 18FF14D1#
(1785793442.724308) can0 18F015F1#0000454749874645
(1785793442.795407) can0 1CECFFF1#20120003FF19F000
(1785793442.796332) can0 1CEBFFF1#01000B00010DCC00
(1785793442.797313) can0 1CEBFFF1#0200175EFFFDB26C
(1785793442.798324) can0 1CEBFFF1#03FEF885F9FFFFFF
(1785793442.806435) can0 18FF09D1#01000B00D34CEB
(1785793442.824324) can0 18F015F1#0000454749884645
(1785793442.835236) can0 18F017F1#EBB700A89829
(1785793442.835708) can0 18F018F1#E85AFCFE94BF
(1785793442.895372) can0 1CECFFF1#20120003FF19F000
(1785793442.896342) can0 1CEBFFF1#01000B00010DCC00
(1785793442.897325) can0 1CEBFFF1#0200175EFFFDB26C
(1785793442.898338) can0 1CEBFFF1#03FEF885F9FFFFFF
(1785793442.906447) can0 18FF09D1#01000B00D34CEB
(1785793442.924350) can0 18F015F1#0000454749884645
(1785793442.995465) can0 1CECFFF1#20120003FF19F000
(1785793442.996332) can0 1CEBFFF1#01000B00010DCC00
(1785793442.997315) can0 1CEBFFF1#0200175EFFFDB26C
(1785793442.998357) can0 1CEBFFF1#03FEF885F9FFFFFF
(1785793443.006491) can0 18FF09D1#01000B00D34CEB
(1785793443.024326) can0 18F015F1#0000454749874645
(1785793443.095416) can0 1CECFFF1#20120003FF19F000
(1785793443.096336) can0 1CEBFFF1#01000B00010DCC00
(1785793443.097322) can0 1CEBFFF1#0200175EFFFDB26C
(1785793443.098329) can0 1CEBFFF1#03FEF885F9FFFFFF
(1785793443.106468) can0 18FF09D1#01000B00D34CEB
(1785793443.124324) can0 18F015F1#0000454749884645
(1785793443.195387) can0 1CECFFF1#20120003FF19F000
(1785793443.196331) can0 1CEBFFF1#01000B00010DCC00
(1785793443.197314) can0 1CEBFFF1#0200175EFFFDB26C
(1785793443.198326) can0 1CEBFFF1#03FEF885F9FFFFFF
(1785793443.206484) can0 18FF09D1#01000B00D34CEB
(1785793443.206733) can0 18FF14D1#
(1785793443.224316) can0 18F015F1#0000454749884645
(1785793443.295550) can0 1CECFFF1#20120003FF19F000
(1785793443.296389) can0 1CEBFFF1#01000B00010DCC00
(1785793443.297373) can0 1CEBFFF1#0200175EFFFDB26C
(1785793443.298377) can0 1CEBFFF1#03FEF885F9FFFFFF
(1785793443.306537) can0 18FF09D1#01000B00D34CEB
(1785793443.324478) can0 18F015F1#0000454749874645
(1785793443.396650) can0 1CECFFF1#20120003FF19F000
(1785793443.397356) can0 1CEBFFF1#01000B00010DCC00
(1785793443.398423) can0 1CEBFFF1#0200175EFFFDB26C
(1785793443.399343) can0 1CEBFFF1#03FEF885F9FFFFFF
(1785793443.407037) can0 18FF09D1#01000B00D34CEB
(1785793443.425595) can0 18F015F1#0000454749884645
(1785793443.496420) can0 1CECFFF1#20120003FF19F000
(1785793443.497342) can0 1CEBFFF1#01000B00010DCC00
(1785793443.498357) can0 1CEBFFF1#0200175EFFFDB26C
(1785793443.499351) can0 1CEBFFF1#03FEF885F9FFFFFF
(1785793443.506486) can0 18FF09D1#01000B00D34CEB
(1785793443.525375) can0 18F015F1#0000454749884645
(1785793443.596416) can0 1CECFFF1#20120003FF19F000
(1785793443.597331) can0 1CEBFFF1#01000B00010DCC00
(1785793443.598318) can0 1CEBFFF1#0200175EFFFDB26C
(1785793443.599326) can0 1CEBFFF1#03FEF885F9FFFFFF
(1785793443.606409) can0 18FF09D1#01000B00D34CEB
(1785793443.625339) can0 18F015F1#0000454749874645
(1785793443.696513) can0 1CECFFF1#20120003FF19F000
(1785793443.697335) can0 1CEBFFF1#01000B00010DCC00
(1785793443.698315) can0 1CEBFFF1#0200175EFFFDB26C
(1785793443.699328) can0 1CEBFFF1#03FEF885F9FFFFFF
(1785793443.706482) can0 18FF09D1#01000B00D34CEB
(1785793443.706731) can0 18FF14D1#
(1785793443.725329) can0 18F015F1#0000454749884645
(1785793443.796420) can0 1CECFFF1#20120003FF19F000
(1785793443.797355) can0 1CEBFFF1#01000B00010DCC00
(1785793443.798325) can0 1CEBFFF1#0200175EFFFDB26C
(1785793443.799329) can0 1CEBFFF1#03FEF885F9FFFFFF
(1785793443.806428) can0 18FF09D1#01000B00D34CEB
(1785793443.825326) can0 18F015F1#0000454749884645
(1785793443.836289) can0 18F017F1#EB070082974F
(1785793443.836723) can0 18F018F1#E8AEFDF3949D
(1785793443.896390) can0 1CECFFF1#20120003FF19F000
(1785793443.897347) can0 1CEBFFF1#01000B00010DCC00
(1785793443.898331) can0 1CEBFFF1#0200175EFFFDB26C
(1785793443.899347) can0 1CEBFFF1#03FEF885F9FFFFFF
(1785793443.906431) can0 18FF09D1#01000B00D34CEB
(1785793443.925348) can0 18F015F1#0000454749874645
(1785793443.996500) can0 1CECFFF1#20120003FF19F000
(1785793443.997392) can0 1CEBFFF1#01000B00010DCC00
(1785793443.998369) can0 1CEBFFF1#0200175EFFFDB26C
(1785793443.999360) can0 1CEBFFF1#03FEF885F9FFFFFF
(1785793444.006640) can0 18FF09D1#01000B00D34CEB
(1785793444.025523) can0 18F015F1#0000454749884645
(1785793444.096408) can0 1CECFFF1#20120003FF19F000
(1785793444.097346) can0 1CEBFFF1#01000B00010DCC00
(1785793444.098321) can0 1CEBFFF1#0200175EFFFDB26C
(1785793444.099340) can0 1CEBFFF1#03FEF885F9FFFFFF
(1785793444.106662) can0 18FF09D1#01000B00D34CEB
(1785793444.126350) can0 18F015F1#0000454749884645
(1785793444.197389) can0 1CECFFF1#20120003FF19F000
(1785793444.198336) can0 1CEBFFF1#01000B00010DCC00
(1785793444.199327) can0 1CEBFFF1#0200175EFFFDB26C
(1785793444.200339) can0 1CEBFFF1#03FEF885F9FFFFFF
(1785793444.206589) can0 18FF09D1#01000B00D34CEB
(1785793444.206879) can0 18FF14D1#
(1785793444.207267) can0 18FF16D1#01000B0064
(1785793444.226336) can0 18F015F1#0000454749874645
(1785793444.297491) can0 1CECFFF1#20120003FF19F000
(1785793444.300731) can0 1CEBFFF1#01000B00010DCC00
(1785793444.300882) can0 1CEBFFF1#0200175EFFFDB26C
(1785793444.301349) can0 1CEBFFF1#03FEF885F9FFFFFF
(1785793444.306742) can0 18FF09D1#01000B00D34CEB
(1785793444.326424) can0 18F015F1#0000454749874645
(1785793444.397496) can0 1CECFFF1#20120003FF19F000
(1785793444.398344) can0 1CEBFFF1#01000B00010DCC00
(1785793444.399349) can0 1CEBFFF1#0200175EFFFDB26C
(1785793444.400334) can0 1CEBFFF1#03FEF885F9FFFFFF
(1785793444.406423) can0 18FF09D1#01000B00D34CEB
(1785793444.426455) can0 18F015F1#0000454749884645
(1785793444.497397) can0 1CECFFF1#20120003FF19F000
(1785793444.498349) can0 1CEBFFF1#01000B00010DCC00
(1785793444.499331) can0 1CEBFFF1#0200175EFFFDB26C
(1785793444.500343) can0 1CEBFFF1#03FEF885F9FFFFFF
(1785793444.506387) can0 18FF09D1#01000B00D34CEB
(1785793444.526339) can0 18F015F1#0000454749874644
(1785793444.597408) can0 1CECFFF1#20120003FF19F000
(1785793444.598355) can0 1CEBFFF1#01000B00010DCC00
(1785793444.599338) can0 1CEBFFF1#0200175EFFFDB26C
(1785793444.600350) can0 1CEBFFF1#03FEF885F9FFFFFF
(1785793444.606414) can0 18FF09D1#01000B00D34CEB
(1785793444.626454) can0 18F015F1#0000454749874644
(1785793444.698408) can0 1CECFFF1#20120003FF19F000
(1785793444.699352) can0 1CEBFFF1#01000B00010DCC00
(1785793444.700333) can0 1CEBFFF1#0200175EFFFDB26C
(1785793444.701344) can0 1CEBFFF1#03FEF885F9FFFFFF
(1785793444.706463) can0 18FF09D1#01000B00D3BCE9
(1785793444.706744) can0 18FF14D1#
(1785793444.727328) can0 18F015F1#0000454749884644
(1785793444.797422) can0 1CECFFF1#20120003FF19F000
(1785793444.798363) can0 1CEBFFF1#01000B00010DCC00
(1785793444.799356) can0 1CEBFFF1#0200175EFFFDB26C
(1785793444.800358) can0 1CEBFFF1#03FEF885F9FFFFFF
(1785793444.806389) can0 18FF09D1#01000B00D3BCE9
(1785793444.826366) can0 18F015F1#0000454749874644
(1785793444.837285) can0 18F017F1#EB070082974F
(1785793444.837744) can0 18F018F1#E8AEFDF3949D
(1785793444.898398) can0 1CECFFF1#20120003FF19F000
(1785793444.899366) can0 1CEBFFF1#01000B00010DCC00
(1785793444.900346) can0 1CEBFFF1#0200175EFFFDB26C
(1785793444.901355) can0 1CEBFFF1#03FEF885F9FFFFFF
(1785793444.906387) can0 18FF09D1#01000B00D3BCE9
(1785793444.927362) can0 18F015F1#0000454749874644
(1785793444.998595) can0 1CECFFF1#20120003FF19F000
(1785793444.999360) can0 1CEBFFF1#01000B00010DCC00
(1785793445.000342) can0 1CEBFFF1#0200175EFFFDB26C
(1785793445.001362) can0 1CEBFFF1#03FEF885F9FFFFFF
(1785793445.006495) can0 18FF09D1#01000B00D3BCE9
(1785793445.027415) can0 18F015F1#0000454749884644
(1785793445.098423) can0 1CECFFF1#20120003FF19F000
(1785793445.099356) can0 1CEBFFF1#01000B00010DCC00
(1785793445.100338) can0 1CEBFFF1#0200175EFFFDB26C
(1785793445.101348) can0 1CEBFFF1#03FEF885F9FFFFFF
(1785793445.106395) can0 18FF09D1#01000B00D3BCE9
(1785793445.127358) can0 18F015F1#0000454749874644
(1785793445.198403) can0 1CECFFF1#20120003FF19F000
(1785793445.199349) can0 1CEBFFF1#01000B00010DCC00
(1785793445.200336) can0 1CEBFFF1#0200175EFFFDB26C
(1785793445.201346) can0 1CEBFFF1#03FEF885F9FFFFFF
(1785793445.206426) can0 18FF09D1#01000B00D3BCE9
(1785793445.206711) can0 18FF14D1#
(1785793445.227351) can0 18F015F1#0000454749874644
(1785793445.298527) can0 1CECFFF1#20120003FF19F000
(1785793445.299373) can0 1CEBFFF1#01000B00010DCC00
(1785793445.300366) can0 1CEBFFF1#0200175EFFFDB26C
(1785793445.301511) can0 1CEBFFF1#03FEF885F9FFFFFF
(1785793445.306470) can0 18FF09D1#01000B00D3BCE9
(1785793445.327493) can0 18F015F1#0000454749884644
(1785793445.398437) can0 1CECFFF1#20120003FF19F000
(1785793445.399352) can0 1CEBFFF1#01000B00010DCC00
(1785793445.400358) can0 1CEBFFF1#0200175EFFFDB26C
(1785793445.401353) can0 1CEBFFF1#03FEF885F9FFFFFF
(1785793445.406646) can0 18FF09D1#01000B00D3BCE9
(1785793445.427585) can0 18F015F1#0000454749874644
(1785793445.499426) can0 1CECFFF1#20120003FF19F000
(1785793445.500365) can0 1CEBFFF1#01000B00010DCC00
(1785793445.501363) can0 1CEBFFF1#0200175EFFFDB26C
(1785793445.502349) can0 1CEBFFF1#03FEF885F9FFFFFF
(1785793445.506389) can0 18FF09D1#01000B00D3BCE9
(1785793445.528411) can0 18F015F1#0000454749884644
(1785793445.599400) can0 1CECFFF1#20120003FF19F000
(1785793445.600358) can0 1CEBFFF1#01000B00010DCC00
(1785793445.601346) can0 1CEBFFF1#0200175EFFFDB26C
(1785793445.602353) can0 1CEBFFF1#03FEF885F9FFFFFF
(1785793445.606368) can0 18FF09D1#01000B00D3BCE9
(1785793445.628431) can0 18F015F1#0000454749884644
(1785793445.699563) can0 1CECFFF1#20120003FF19F000
(1785793445.700354) can0 1CEBFFF1#01000B00010DCC00
(1785793445.701355) can0 1CEBFFF1#0200175EFFFDB26C
(1785793445.702343) can0 1CEBFFF1#03FEF885F9FFFFFF
(1785793445.706431) can0 18FF09D1#01000B00D3BCE9
(1785793445.706696) can0 18FF14D1#
(1785793445.728386) can0 18F015F1#0000454749874644
(1785793445.799427) can0 1CECFFF1#20120003FF19F000
(1785793445.800347) can0 1CEBFFF1#01000B00010DCC00
(1785793445.801330) can0 1CEBFFF1#0200175EFFFDB26C
(1785793445.802344) can0 1CEBFFF1#03FEF885F9FFFFFF
(1785793445.806377) can0 18FF09D1#01000B00D3BCE9
(1785793445.828357) can0 18F015F1#0000454749874645
(1785793445.838278) can0 18F017F1#EB20016697F2
(1785793445.838733) can0 18F018F1#E966FE2D93C3
(1785793445.899395) can0 1CECFFF1#20120003FF19F000
(1785793445.900362) can0 1CEBFFF1#01000B00010DCC00
(1785793445.901350) can0 1CEBFFF1#0200175EFFFDB26C
(1785793445.902356) can0 1CEBFFF1#03FEF885F9FFFFFF
(1785793445.906374) can0 18FF09D1#01000B00D3BCE9
(1785793445.928367) can0 18F015F1#0000454649884645
(1785793445.999423) can0 1CECFFF1#20120003FF19F000
(1785793446.000428) can0 1CEBFFF1#01000B00010DCC00
(1785793446.001708) can0 1CEBFFF1#0200175EFFFDB26C
(1785793446.002473) can0 1CEBFFF1#03FEF885F9FFFFFF
(1785793446.006447) can0 18FF09D1#01000B00D3BCE9
(1785793446.028389) can0 18F015F1#0000454649874645
(1785793446.099423) can0 1CECFFF1#20120003FF19F000
(1785793446.100355) can0 1CEBFFF1#01000B00010DCC00
(1785793446.101338) can0 1CEBFFF1#0200175EFFFDB26C
(1785793446.102346) can0 1CEBFFF1#03FEF885F9FFFFFF
(1785793446.106343) can0 18FF09D1#01000B00D3BCE9
(1785793446.128355) can0 18F015F1#0000454649874645
(1785793446.199403) can0 1CECFFF1#20120003FF19F000
(1785793446.200356) can0 1CEBFFF1#01000B00010DCC00
(1785793446.201349) can0 1CEBFFF1#0200175EFFFDB26C
(1785793446.202356) can0 1CEBFFF1#03FEF781B9FFFFFF
(1785793446.206541) can0 18FF09D1#01000B00D34CEB
(1785793446.206799) can0 18FF14D1#
(1785793446.207269) can0 18FF16D1#01000B0064
(1785793446.228350) can0 18F015F1#0000454649884645
(1785793446.300528) can0 1CECFFF1#20120003FF19F000
(1785793446.301368) can0 1CEBFFF1#01000B00010DCC00
(1785793446.302372) can0 1CEBFFF1#0200175EFFFDB26C
(1785793446.303397) can0 1CEBFFF1#03FEF885F9FFFFFF
(1785793446.306401) can0 18FF09D1#01000B00D34CEB
(1785793446.329504) can0 18F015F1#0000454649874645
(1785793446.400388) can0 1CECFFF1#20120003FF19F000
(1785793446.401358) can0 1CEBFFF1#01000B00010DCC00
(1785793446.402341) can0 1CEBFFF1#0200175EFFFDB26C
(1785793446.403353) can0 1CEBFFF1#03FEF885F9FFFFFF
(1785793446.406328) can0 18FF09D1#01000B00D34CEB
(1785793446.429423) can0 18F015F1#0000454649874645
(1785793446.500428) can0 1CECFFF1#20120003FF19F000
(1785793446.501364) can0 1CEBFFF1#01000B00010DCC00
(1785793446.502356) can0 1CEBFFF1#0200175EFFFDB26C
(1785793446.503368) can0 1CEBFFF1#03FEF781B9FFFFFF
(1785793446.506334) can0 18FF09D1#01000B00D34CEB
(1785793446.529355) can0 18F015F1#0000454649874645
(1785793446.600441) can0 1CECFFF1#20120003FF19F000
(1785793446.601383) can0 1CEBFFF1#01000B00010DCC00
(1785793446.602371) can0 1CEBFFF1#0200175EFFFDB26C
(1785793446.603422) can0 1CEBFFF1#03FEF885F9FFFFFF
(1785793446.606454) can0 18FF09D1#01000B00D34CEB
(1785793446.629484) can0 18F015F1#0000454649874645
(1785793446.700425) can0 1CECFFF1#20120003FF19F000
(1785793446.701358) can0 1CEBFFF1#01000B00010DCC00
(1785793446.702342) can0 1CEBFFF1#0200175EFFFDB26C
(1785793446.703353) can0 1CEBFFF1#03FEF781B9FFFFFF
(1785793446.706770) can0 18FF09D1#01000B00D320EA
(1785793446.707026) can0 18FF14D1#
(1785793446.729343) can0 18F015F1#0000454649874645
(1785793446.800423) can0 1CECFFF1#20120003FF19F000
(1785793446.801357) can0 1CEBFFF1#01000B00010DCC00
(1785793446.802345) can0 1CEBFFF1#0200175EFFFDB26C
(1785793446.803353) can0 1CEBFFF1#03FEF781B9FFFFFF
(1785793446.806338) can0 18FF09D1#01000B00D320EA
(1785793446.829355) can0 18F015F1#0000454649874645
(1785793446.840278) can0 18F017F1#EB20016697F2
(1785793446.840730) can0 18F018F1#E966FE2D93C3
(1785793446.900396) can0 1CECFFF1#20120003FF19F000
(1785793446.901370) can0 1CEBFFF1#01000B00010DCC00
(1785793446.902355) can0 1CEBFFF1#0200175EFFFDB26C
(1785793446.903380) can0 1CEBFFF1#03FEF781B9FFFFFF
(1785793446.906345) can0 18FF09D1#01000B00D320EA
(1785793446.929350) can0 18F015F1#0000454649874645
(1785793447.000532) can0 1CECFFF1#20120003FF19F000
(1785793447.001408) can0 1CEBFFF1#01000B00010DCC00
(1785793447.002424) can0 1CEBFFF1#0200175EFFFDB26C
(1785793447.003394) can0 1CEBFFF1#03FEF781B9FFFFFF
(1785793447.006375) can0 18FF09D1#01000B00D320EA
(1785793447.029346) can0 18F015F1#0000454649874645
(1785793447.101441) can0 1CECFFF1#20120003FF19F000
(1785793447.102373) can0 1CEBFFF1#01000B00010DCC00
(1785793447.103348) can0 1CEBFFF1#0200175EFFFDB26C
(1785793447.104358) can0 1CEBFFF1#03FEF781B9FFFFFF
(1785793447.106346) can0 18FF09D1#01000B00D320EA
(1785793447.130363) can0 18F015F1#0000454649874645
(1785793447.201417) can0 1CECFFF1#20120003FF19F000
(1785793447.202368) can0 1CEBFFF1#01000B00010DCC00
(1785793447.203360) can0 1CEBFFF1#0200175EFFFDB26C
(1785793447.204370) can0 1CEBFFF1#03FEF781B9FFFFFF
(1785793447.206367) can0 18FF09D1#01000B00D34CEB
(1785793447.206660) can0 18FF14D1#
(1785793447.230364) can0 18F015F1#0000454649874645
(1785793447.301568) can0 1CECFFF1#20120003FF19F000
(1785793447.302407) can0 1CEBFFF1#01000B00010DCC00
(1785793447.303393) can0 1CEBFFF1#0200175EFFFDB26C
(1785793447.304409) can0 1CEBFFF1#03FEF781B9FFFFFF
(1785793447.306381) can0 18FF09D1#01000B00D34CEB
(1785793447.330555) can0 18F015F1#0000454649874645
(1785793447.401629) can0 1CECFFF1#20120003FF19F000
(1785793447.402407) can0 1CEBFFF1#01000B00010DCC00
(1785793447.403405) can0 1CEBFFF1#0200175EFFFDB26C
(1785793447.404387) can0 1CEBFFF1#03FEF781B9FFFFFF
(1785793447.406403) can0 18FF09D1#01000B00D34CEB
(1785793447.430632) can0 18F015F1#0000454649874645
